;$FILEVERSION=1.1
;$STARTTIME=41976.151087419
;
;   C:\Documents and Settings\Administrator\Desktop\ccc.trc
;
;   Start time: 12/3/2014 03:37:33.953.x
;
;   Message Number
;   |         Time Offset (ms)
;   |         |        Type
;   |         |        |        ID (hex)
;   |         |        |        |     Data Length Code
;   |         |        |        |     |   Data Bytes (hex) ...
;   |         |        |        |     |   |
;---+--   ----+----  --+--  ----+---  +  -+ -- -- -- -- -- -- --
     1)        10.2  Rx         0005  4  05 54 05 E8 
     2)        10.9  Rx         0002  2  07 61 
     3)        43.4  Rx         0005  4  05 52 05 E9 
     4)        43.9  Rx         0002  2  07 33 
     5)        48.2  Rx         0010  8  05 53 06 2F 05 4C 05 6D 
     6)        59.1  Rx         0202  1  01 
     7)        59.5  Rx         0006  2  00 01 
     8)        59.7  Rx         0011  4  00 C0 00 1F 
     9)        59.9  Rx         0182  2  00 0E 
    10)        60.0  Rx         0183  2  01 09 
    11)        68.2  Rx         0005  4  05 53 05 E9 
    12)        69.6  Rx         0002  2  07 06 
    13)        88.8  Rx         0005  4  05 53 05 E8 
    14)        89.3  Rx         0002  2  06 DC 
    15)        94.6  Rx         0010  8  05 3F 06 28 05 49 05 6B 
    16)       112.9  Rx         0005  4  05 53 05 E7 
    17)       113.3  Rx         0002  2  06 C9 
    18)       132.0  Rx         0005  4  05 54 05 E8 
    19)       132.6  Rx         0002  2  06 C7 
    20)       137.2  Rx         0010  8  05 2F 06 0F 05 49 05 6F 
    21)       146.8  Rx         0202  1  01 
    22)       148.1  Rx         0006  2  00 01 
    23)       148.9  Rx         0011  4  00 C0 00 1F 
    24)       149.6  Rx         0182  2  00 0E 
    25)       150.3  Rx         0183  2  01 09 
    26)       158.1  Rx         0005  4  05 52 05 EC 
    27)       158.6  Rx         0002  2  06 C7 
    28)       177.9  Rx         0005  4  05 53 05 E7 
    29)       178.2  Rx         0002  2  06 C7 
    30)       182.6  Rx         0010  8  05 13 05 F3 05 4B 05 70 
    31)       208.1  Rx         0005  4  05 52 05 E7 
    32)       208.7  Rx         0002  2  06 C7 
    33)       237.4  Rx         0005  4  05 58 05 E5 
    34)       237.7  Rx         0002  2  06 C9 
    35)       244.1  Rx         0010  8  04 FB 05 DE 05 4E 05 70 
    36)       260.7  Rx         0202  1  01 
    37)       261.7  Rx         0006  2  00 01 
    38)       261.9  Rx         0011  4  00 C0 00 1F 
    39)       262.0  Rx         0182  2  00 0E 
    40)       262.1  Rx         0183  2  01 09 
    41)       264.2  Rx         0005  4  05 53 05 E9 
    42)       265.9  Rx         0002  2  06 C9 
    43)       284.3  Rx         0005  4  05 4D 05 E6 
    44)       284.8  Rx         0002  2  06 C6 
    45)       288.8  Rx         0010  8  04 EE 05 C9 05 48 05 6A 
    46)       306.3  Rx         0005  4  05 51 05 E7 
    47)       306.7  Rx         0002  2  06 C6 
    48)       342.1  Rx         0005  4  05 53 05 E7 
    49)       342.4  Rx         0002  2  06 C6 
    50)       347.6  Rx         0010  8  04 D8 05 B2 05 47 05 6D 
    51)       366.4  Rx         0202  1  01 
    52)       367.6  Rx         0006  2  00 01 
    53)       368.5  Rx         0011  4  00 C0 00 1F 
    54)       369.2  Rx         0182  2  00 0E 
    55)       369.8  Rx         0183  2  01 09 
    56)       371.6  Rx         0005  4  05 54 05 EA 
    57)       372.0  Rx         0002  2  06 C7 
    58)       397.9  Rx         0005  4  05 53 05 E8 
    59)       398.3  Rx         0002  2  06 C6 
    60)       403.0  Rx         0010  8  04 C6 05 A2 05 48 05 6D 
    61)       430.9  Rx         0005  4  05 52 05 E8 
    62)       431.3  Rx         0002  2  06 C6 
    63)       468.9  Rx         0005  4  05 5A 05 E7 
    64)       469.3  Rx         0002  2  06 C9 
    65)       474.9  Rx         0010  8  04 B4 05 91 05 4B 05 6E 
    66)       503.8  Rx         0202  1  01 
    67)       504.2  Rx         0006  2  00 01 
    68)       504.4  Rx         0011  4  00 C0 00 1F 
    69)       504.6  Rx         0182  2  00 0E 
    70)       504.7  Rx         0005  4  05 76 05 E8 
    71)       504.9  Rx         0183  2  01 09 
    72)       505.7  Rx         0002  2  06 D4 
    73)       541.6  Rx         0005  4  05 A1 05 E6 
    74)       542.0  Rx         0002  2  06 EA 
    75)       550.2  Rx         0010  8  04 B3 05 8F 05 48 05 6B 
    76)       581.4  Rx         0005  4  05 CA 05 E9 
    77)       581.7  Rx         0002  2  07 0D 
    78)       619.6  Rx         0005  4  05 F2 05 E7 
    79)       620.0  Rx         0002  2  07 3A 
    80)       624.0  Rx         0010  8  04 B2 05 93 05 49 05 6E 
    81)       650.0  Rx         0202  1  01 
    82)       651.0  Rx         0006  2  00 01 
    83)       651.3  Rx         0011  4  00 C0 00 1F 
    84)       651.4  Rx         0182  2  00 0E 
    85)       651.5  Rx         0183  2  01 09 
    86)       652.1  Rx         0005  4  05 F5 05 EA 
    87)       652.9  Rx         0002  2  07 68 
    88)       680.0  Rx         0005  4  05 F1 05 E8 
    89)       680.2  Rx         0002  2  07 95 
    90)       695.0  Rx         0010  8  04 BC 05 A8 05 47 05 6D 
    91)       722.2  Rx         0005  4  05 F6 05 E7 
    92)       722.7  Rx         0002  2  07 B9 
    93)       749.8  Rx         0005  4  05 F1 05 E7 
    94)       750.0  Rx         0002  2  07 D0 
    95)       754.5  Rx         0010  8  04 CF 05 AF 05 48 05 6B 
    96)       777.6  Rx         0005  4  05 F4 05 E8 
    97)       778.0  Rx         0002  2  07 DC 
    98)       778.2  Rx         0202  1  01 
    99)       778.7  Rx         0006  2  00 01 
   100)       778.9  Rx         0011  4  00 C0 00 1F 
   101)       779.0  Rx         0182  2  00 0E 
   102)       779.2  Rx         0183  2  01 09 
   103)       805.7  Rx         0005  4  05 F1 05 E9 
   104)       806.1  Rx         0002  2  07 DC 
   105)       816.6  Rx         0010  8  04 E3 05 C3 05 49 05 6F 
   106)       852.5  Rx         0005  4  05 F4 05 E6 
   107)       853.1  Rx         0002  2  07 DC 
   108)       889.8  Rx         0005  4  05 F4 05 E7 
   109)       890.2  Rx         0002  2  07 DC 
   110)       898.5  Rx         0010  8  04 F8 05 D6 05 4C 05 6F 
   111)       901.8  Tx         0202  1  00 
   112)       903.1  Rx         0006  2  00 01 
   113)       904.0  Rx         0011  4  00 C0 00 1F 
   114)       904.6  Rx         0182  2  00 0E 
   115)       905.2  Rx         0183  2  01 09 
   116)       925.9  Rx         0005  4  05 EE 05 E9 
   117)       926.2  Rx         0002  2  07 DA 
   118)       926.6  Rx         0202  1  01 
   119)       927.3  Rx         0006  2  00 01 
   120)       927.5  Rx         0011  4  00 C0 00 1F 
   121)       927.7  Rx         0182  2  00 0E 
   122)       927.8  Rx         0183  2  01 09 
   123)       954.4  Rx         0005  4  05 F3 05 E7 
   124)       954.7  Rx         0002  2  07 DA 
   125)       960.4  Rx         0010  8  05 05 05 E5 05 4A 05 6B 
   126)       995.6  Rx         0005  4  05 F4 05 E6 
   127)       995.9  Rx         0002  2  07 DA 
   128)      1023.5  Rx         0005  4  05 F5 05 E8 
   129)      1024.0  Rx         0002  2  07 DC 
   130)      1028.4  Rx         0010  8  05 1A 05 F5 05 4A 05 6F 
   131)      1051.7  Rx         0005  4  05 F4 05 E9 
   132)      1052.2  Rx         0002  2  07 DC 
   133)      1054.2  Rx         0202  1  01 
   134)      1054.6  Rx         0006  2  00 01 
   135)      1054.9  Rx         0011  4  00 C0 00 1F 
   136)      1055.0  Rx         0182  2  00 0E 
   137)      1055.1  Rx         0183  2  01 09 
   138)      1080.5  Rx         0005  4  05 F5 05 EA 
   139)      1081.0  Rx         0002  2  07 DC 
   140)      1084.4  Rx         0010  8  05 2B 06 07 05 4A 05 71 
   141)      1123.3  Rx         0005  4  05 F4 05 E9 
   142)      1123.6  Rx         0002  2  07 DE 
   143)      1152.9  Rx         0005  4  05 F2 05 E8 
   144)      1153.3  Rx         0002  2  07 DE 
   145)      1159.2  Rx         0010  8  05 3C 06 18 05 4B 05 71 
   146)      1200.1  Rx         0005  4  05 F2 05 E7 
   147)      1202.5  Rx         0002  2  07 DE 
   148)      1203.5  Rx         0202  1  01 
   149)      1204.6  Rx         0006  2  00 01 
   150)      1204.7  Rx         0011  4  00 C0 00 1F 
   151)      1204.8  Rx         0182  2  00 0E 
   152)      1205.0  Rx         0183  2  01 09 
   153)      1237.6  Rx         0005  4  05 EF 05 E4 
   154)      1239.6  Rx         0002  2  07 DC 
   155)      1245.7  Rx         0010  8  05 4E 06 2F 05 4A 05 6D 
   156)      1281.9  Rx         0005  4  05 F9 05 E9 
   157)      1283.9  Rx         0002  2  07 DE 
   158)      1318.1  Rx         0005  4  05 F3 05 E8 
   159)      1318.5  Rx         0002  2  07 DC 
   160)      1322.4  Rx         0010  8  05 59 06 34 05 49 05 6E 
   161)      1358.6  Rx         0005  4  05 F4 05 E6 
   162)      1359.3  Rx         0002  2  07 DC 
   163)      1362.4  Rx         0202  1  01 
   164)      1362.8  Rx         0006  2  00 01 
   165)      1363.0  Rx         0011  4  00 C0 00 1F 
   166)      1363.1  Rx         0182  2  00 0E 
   167)      1363.3  Rx         0183  2  01 09 
   168)      1386.4  Rx         0005  4  05 F4 05 E9 
   169)      1386.9  Rx         0002  2  07 DE 
   170)      1391.2  Rx         0010  8  05 59 06 37 05 49 05 6E 
   171)      1418.0  Rx         0005  4  05 F3 05 EB 
   172)      1418.7  Rx         0002  2  07 DE 
   173)      1445.2  Rx         0005  4  05 F3 05 E9 
   174)      1445.6  Rx         0002  2  07 DE 
   175)      1448.7  Rx         0010  8  05 5C 06 38 05 4B 05 6F 
   176)      1482.8  Rx         0005  4  05 F3 05 E8 
   177)      1484.8  Rx         0002  2  07 DC 
   178)      1489.7  Rx         0202  1  01 
   179)      1490.6  Rx         0006  2  00 01 
   180)      1490.9  Rx         0011  4  00 C0 00 1F 
   181)      1491.1  Rx         0182  2  00 0E 
   182)      1491.2  Rx         0183  2  01 09 
   183)      1514.8  Rx         0005  4  05 F1 05 EB 
   184)      1515.4  Rx         0002  2  07 DC 
   185)      1518.7  Rx         0010  8  05 5B 06 36 05 4B 05 6D 
   186)      1542.8  Rx         0005  4  05 F3 05 E7 
   187)      1543.2  Rx         0002  2  07 DC 
   188)      1580.1  Rx         0005  4  05 F4 05 E9 
   189)      1580.7  Rx         0002  2  07 DC 
   190)      1585.9  Rx         0010  8  05 5B 06 35 05 49 05 6F 
   191)      1621.3  Rx         0005  4  05 F4 05 EB 
   192)      1624.0  Rx         0002  2  07 DC 
   193)      1633.7  Rx         0202  1  01 
   194)      1634.1  Rx         0006  2  00 01 
   195)      1634.3  Rx         0011  4  00 C0 00 1F 
   196)      1634.4  Rx         0182  2  00 0E 
   197)      1634.5  Rx         0183  2  01 09 
   198)      1660.5  Rx         0005  4  05 F3 05 EA 
   199)      1661.0  Rx         0002  2  07 DC 
   200)      1664.5  Rx         0010  8  05 58 06 38 05 4D 05 6B 
   201)      1690.3  Rx         0005  4  05 F5 05 E8 
   202)      1690.8  Rx         0002  2  07 DC 
   203)      1717.3  Rx         0005  4  05 F7 05 E9 
   204)      1717.8  Rx         0002  2  07 DE 
   205)      1722.0  Rx         0010  8  05 55 06 32 05 4B 05 6F 
   206)      1746.8  Rx         0005  4  05 F1 05 EA 
   207)      1747.4  Rx         0002  2  07 DE 
   208)      1751.6  Rx         0202  1  01 
   209)      1752.4  Rx         0006  2  00 01 
   210)      1752.6  Rx         0011  4  00 C0 00 1F 
   211)      1752.7  Rx         0182  2  00 0E 
   212)      1752.8  Rx         0183  2  01 09 
   213)      1774.6  Rx         0005  4  05 F5 05 E7 
   214)      1775.2  Rx         0002  2  07 DE 
   215)      1778.0  Rx         0010  8  05 55 06 31 05 4D 05 6D 
   216)      1802.1  Rx         0005  4  05 F0 05 E8 
   217)      1802.7  Rx         0002  2  07 DE 
   218)      1830.2  Rx         0005  4  05 F2 05 E8 
   219)      1830.5  Rx         0002  2  07 DC 
   220)      1835.7  Rx         0010  8  05 55 06 32 05 48 05 6F 
   221)      1869.8  Rx         0005  4  05 F4 05 EA 
   222)      1870.4  Rx         0002  2  07 DC 
   223)      1880.0  Rx         0202  1  01 
   224)      1880.4  Rx         0006  2  00 01 
   225)      1880.6  Rx         0011  4  00 C0 00 1F 
   226)      1880.8  Rx         0182  2  00 0E 
   227)      1880.8  Rx         0183  2  01 09 
   228)      1901.8  Tx         0202  1  00 
   229)      1902.0  Rx         0006  2  00 01 
   230)      1902.3  Rx         0011  4  00 C0 00 1F 
   231)      1902.4  Rx         0182  2  00 0E 
   232)      1902.6  Rx         0183  2  01 09 
   233)      1907.3  Rx         0005  4  05 F5 05 E8 
   234)      1907.7  Rx         0002  2  07 DC 
   235)      1922.0  Rx         0010  8  05 55 06 2D 05 48 05 70 
   236)      1954.2  Rx         0005  4  05 F3 05 E8 
   237)      1954.9  Rx         0002  2  07 DC 
   238)      1987.8  Rx         0005  4  05 F0 05 E8 
   239)      1988.1  Rx         0002  2  07 DA 
   240)      1992.0  Rx         0010  8  05 57 06 30 05 49 05 6E 
   241)      2015.5  Rx         0005  4  05 F4 05 EA 
   242)      2016.1  Rx         0002  2  07 DC 
   243)      2021.7  Rx         0202  1  01 
   244)      2022.5  Rx         0006  2  00 01 
   245)      2022.7  Rx         0011  4  00 C0 00 1F 
   246)      2022.9  Rx         0182  2  00 0E 
   247)      2023.0  Rx         0183  2  01 09 
   248)      2043.5  Rx         0005  4  05 F5 05 EA 
   249)      2045.2  Rx         0002  2  07 DE 
   250)      2048.0  Rx         0010  8  05 56 06 34 05 49 05 6D 
   251)      2072.0  Rx         0005  4  05 F2 05 E8 
   252)      2072.6  Rx         0002  2  07 DC 
   253)      2100.3  Rx         0005  4  05 F1 05 E6 
   254)      2100.9  Rx         0002  2  07 DA 
   255)      2111.2  Rx         0010  8  05 56 06 31 05 4A 05 6E 
   256)      2138.9  Rx         0005  4  05 F1 05 EA 
   257)      2139.2  Rx         0002  2  07 DA 
   258)      2147.3  Rx         0202  1  01 
   259)      2147.8  Rx         0006  2  00 01 
   260)      2147.9  Rx         0011  4  00 C0 00 1F 
   261)      2148.0  Rx         0182  2  00 0E 
   262)      2148.2  Rx         0183  2  01 09 
   263)      2167.0  Rx         0005  4  05 F4 05 E8 
   264)      2167.7  Rx         0002  2  07 DC 
   265)      2172.4  Rx         0010  8  05 57 06 32 05 49 05 6F 
   266)      2206.3  Rx         0005  4  05 F3 05 E8 
   267)      2206.8  Rx         0002  2  07 DC 
   268)      2243.2  Rx         0005  4  05 F4 05 EC 
   269)      2243.9  Rx         0002  2  07 DA 
   270)      2251.7  Rx         0010  8  05 56 06 31 05 49 05 6F 
   271)      2284.9  Rx         0005  4  05 F2 05 E8 
   272)      2285.4  Rx         0002  2  07 DA 
   273)      2303.2  Rx         0202  1  01 
   274)      2304.1  Rx         0006  2  00 01 
   275)      2304.2  Rx         0011  4  00 C0 00 1F 
   276)      2304.4  Rx         0182  2  00 0E 
   277)      2304.5  Rx         0183  2  01 09 
   278)      2323.4  Rx         0005  4  05 F3 05 E7 
   279)      2323.9  Rx         0002  2  07 DC 
   280)      2327.5  Rx         0010  8  05 57 06 31 05 49 05 6F 
   281)      2352.0  Rx         0005  4  05 F4 05 E8 
   282)      2352.6  Rx         0002  2  07 DC 
   283)      2381.1  Rx         0005  4  05 F4 05 E8 
   284)      2381.5  Rx         0002  2  07 DC 
   285)      2384.0  Rx         0010  8  05 55 06 35 05 4B 05 70 
   286)      2421.6  Rx         0005  4  05 F4 05 EB 
   287)      2422.2  Rx         0002  2  07 DE 
   288)      2442.4  Rx         0202  1  01 
   289)      2442.8  Rx         0006  2  00 01 
   290)      2443.0  Rx         0011  4  00 C0 00 1F 
   291)      2443.2  Rx         0182  2  00 0E 
   292)      2443.3  Rx         0183  2  01 09 
   293)      2460.8  Rx         0005  4  05 F3 05 E9 
   294)      2461.4  Rx         0002  2  07 DC 
   295)      2463.5  Rx         0010  8  05 54 06 34 05 49 05 70 
   296)      2498.8  Rx         0005  4  05 F3 05 E8 
   297)      2499.2  Rx         0002  2  07 DE 
   298)      2527.3  Rx         0005  4  05 F2 05 E8 
   299)      2528.7  Rx         0002  2  07 DC 
   300)      2532.6  Rx         0010  8  05 55 06 32 05 4A 05 6D 
   301)      2574.2  Rx         0005  4  05 F3 05 E7 
   302)      2575.3  Rx         0002  2  07 DC 
   303)      2599.9  Rx         0202  1  01 
   304)      2600.8  Rx         0006  2  00 01 
   305)      2600.9  Rx         0011  4  00 C0 00 1F 
   306)      2601.0  Rx         0182  2  00 0E 
   307)      2601.2  Rx         0183  2  01 09 
   308)      2620.5  Rx         0005  4  05 F2 05 EA 
   309)      2622.9  Rx         0002  2  07 DC 
   310)      2626.4  Rx         0010  8  05 58 06 30 05 49 05 6E 
   311)      2665.3  Rx         0005  4  05 F3 05 EB 
   312)      2667.6  Rx         0002  2  07 DC 
   313)      2698.7  Rx         0005  4  05 F3 05 E7 
   314)      2699.1  Rx         0002  2  07 DC 
   315)      2702.5  Rx         0010  8  05 56 06 34 05 48 05 6B 
   316)      2731.4  Rx         0005  4  05 F6 05 E7 
   317)      2731.9  Rx         0002  2  07 DC 
   318)      2753.3  Rx         0202  1  01 
   319)      2753.8  Rx         0006  2  00 01 
   320)      2754.0  Rx         0011  4  00 C0 00 1F 
   321)      2754.1  Rx         0182  2  00 0E 
   322)      2754.3  Rx         0183  2  01 09 
   323)      2771.4  Rx         0005  4  05 F3 05 E9 
   324)      2771.7  Rx         0002  2  07 DC 
   325)      2774.1  Rx         0010  8  05 55 06 31 05 4B 05 6E 
   326)      2811.1  Rx         0005  4  05 F4 05 E9 
   327)      2811.8  Rx         0002  2  07 DE 
   328)      2839.3  Rx         0005  4  05 F3 05 E6 
   329)      2839.8  Rx         0002  2  07 DE 
   330)      2841.8  Rx         0010  8  05 55 06 31 05 49 05 6C 
   331)      2867.7  Rx         0005  4  05 F3 05 EA 
   332)      2868.0  Rx         0002  2  07 DE 
   333)      2889.5  Rx         0202  1  01 
   334)      2890.5  Rx         0006  2  00 01 
   335)      2890.7  Rx         0011  4  00 C0 00 1F 
   336)      2890.9  Rx         0182  2  00 0E 
   337)      2890.9  Rx         0183  2  01 09 
   338)      2901.7  Tx         0202  1  00 
   339)      2903.0  Rx         0006  2  00 01 
   340)      2903.8  Rx         0011  4  00 C0 00 1F 
   341)      2904.5  Rx         0182  2  00 0E 
   342)      2905.2  Rx         0183  2  01 09 
   343)      2906.5  Rx         0005  4  05 F3 05 E8 
   344)      2908.4  Rx         0002  2  07 DE 
   345)      2912.1  Rx         0010  8  05 56 06 36 05 49 05 6D 
   346)      2952.3  Rx         0005  4  05 F6 05 E6 
   347)      2952.6  Rx         0002  2  07 DE 
   348)      2991.8  Rx         0005  4  05 F4 05 EB 
   349)      2992.5  Rx         0002  2  07 DE 
   350)      2997.1  Rx         0010  8  05 54 06 35 05 4B 05 6C 
   351)      3025.4  Rx         0005  4  05 F3 05 EB 
   352)      3025.8  Rx         0002  2  07 DE 
   353)      3049.1  Rx         0202  1  01 
   354)      3049.6  Rx         0006  2  00 01 
   355)      3049.8  Rx         0011  4  00 C0 00 1F 
   356)      3050.0  Rx         0182  2  00 0E 
   357)      3050.1  Rx         0183  2  01 09 
   358)      3060.2  Rx         0005  4  05 F4 05 E8 
   359)      3063.9  Rx         0002  2  07 DE 
   360)      3067.8  Rx         0010  8  05 57 06 34 05 4A 05 6C 
   361)      3095.4  Rx         0005  4  05 F4 05 E8 
   362)      3096.0  Rx         0002  2  07 DE 
   363)      3124.0  Rx         0005  4  05 F4 05 E9 
   364)      3124.4  Rx         0002  2  07 DE 
   365)      3126.6  Rx         0010  8  05 57 06 33 05 47 05 6E 
   366)      3151.8  Rx         0005  4  05 F3 05 EB 
   367)      3152.4  Rx         0002  2  07 DE 
   368)      3174.7  Rx         0202  1  01 
   369)      3175.6  Rx         0006  2  00 01 
   370)      3175.7  Rx         0011  4  00 C0 00 1F 
   371)      3175.8  Rx         0182  2  00 0E 
   372)      3175.9  Rx         0183  2  01 09 
   373)      3182.3  Rx         0005  4  05 F1 05 E5 
   374)      3184.8  Rx         0002  2  07 DC 
   375)      3193.2  Rx         0010  8  05 53 06 32 05 4E 05 70 
   376)      3220.6  Rx         0005  4  05 F0 05 E9 
   377)      3221.8  Rx         0002  2  07 DC 
   378)      3249.5  Rx         0005  4  05 F4 05 E9 
   379)      3250.1  Rx         0002  2  07 DC 
   380)      3254.3  Rx         0010  8  05 57 06 2D 05 47 05 6F 
   381)      3292.3  Rx         0005  4  05 F3 05 E9 
   382)      3292.9  Rx         0002  2  07 DA 
   383)      3325.5  Rx         0202  1  01 
   384)      3325.9  Rx         0006  2  00 01 
   385)      3326.2  Rx         0011  4  00 C0 00 1F 
   386)      3326.3  Rx         0182  2  00 0E 
   387)      3326.5  Rx         0183  2  01 09 
   388)      3330.1  Rx         0005  4  05 F3 05 E9 
   389)      3332.2  Rx         0002  2  07 DA 
   390)      3344.1  Rx         0010  8  05 58 06 36 05 49 05 6F 
   391)      3374.1  Rx         0005  4  05 F4 05 E8 
   392)      3374.7  Rx         0002  2  07 DA 
   393)      3407.3  Rx         0005  4  05 F3 05 E7 
   394)      3408.3  Rx         0002  2  07 DC 
   395)      3410.3  Rx         0010  8  05 56 06 32 05 49 05 6E 
   396)      3435.8  Rx         0005  4  05 F2 05 E7 
   397)      3436.4  Rx         0002  2  07 DC 
   398)      3460.9  Rx         0202  1  01 
   399)      3462.1  Rx         0006  2  00 01 
   400)      3462.4  Rx         0011  4  00 C0 00 1F 
   401)      3462.6  Rx         0182  2  00 0E 
   402)      3462.7  Rx         0183  2  01 09 
   403)      3464.4  Rx         0005  4  05 F1 05 E5 
   404)      3464.7  Rx         0002  2  07 DC 
   405)      3474.5  Rx         0010  8  05 53 06 32 05 47 05 6E 
   406)      3503.4  Rx         0005  4  05 F1 05 E7 
   407)      3503.8  Rx         0002  2  07 DA 
   408)      3531.2  Rx         0005  4  05 F2 05 E7 
   409)      3531.8  Rx         0002  2  07 DA 
   410)      3533.4  Rx         0010  8  05 57 06 32 05 48 05 6E 
   411)      3559.1  Rx         0005  4  05 F2 05 E7 
   412)      3559.5  Rx         0002  2  07 DA 
   413)      3584.6  Rx         0202  1  01 
   414)      3585.8  Rx         0006  2  00 01 
   415)      3586.7  Rx         0011  4  00 C0 00 1F 
   416)      3586.9  Rx         0182  2  00 0E 
   417)      3587.1  Rx         0183  2  01 09 
   418)      3588.1  Rx         0005  4  05 F1 05 E6 
   419)      3588.8  Rx         0002  2  07 DA 
   420)      3596.1  Rx         0010  8  05 54 06 34 05 4A 05 6E 
   421)      3639.2  Rx         0005  4  05 E9 05 E6 
   422)      3639.5  Rx         0002  2  07 D7 
   423)      3676.8  Rx         0005  4  05 A6 05 E9 
   424)      3677.2  Rx         0002  2  07 C2 
   425)      3681.5  Rx         0010  8  05 53 06 33 05 49 05 6E 
   426)      3707.8  Rx         0005  4  05 51 05 E7 
   427)      3708.5  Rx         0002  2  07 93 
   428)      3734.4  Rx         0202  1  01 
   429)      3735.4  Rx         0006  2  00 01 
   430)      3735.6  Rx         0011  4  00 C0 00 1F 
   431)      3735.7  Rx         0182  2  00 0E 
   432)      3735.8  Rx         0183  2  01 09 
   433)      3736.2  Rx         0005  4  05 38 05 EA 
   434)      3737.2  Rx         0002  2  07 5E 
   435)      3738.6  Rx         0010  8  05 57 06 32 05 4A 05 6D 
   436)      3777.1  Rx         0005  4  05 39 05 E8 
   437)      3777.9  Rx         0002  2  07 28 
   438)      3815.4  Rx         0005  4  05 37 05 E8 
   439)      3815.7  Rx         0002  2  06 F3 
   440)      3817.4  Rx         0010  8  05 48 06 2E 05 4C 05 6E 
   441)      3842.6  Rx         0005  4  05 37 05 EA 
   442)      3843.3  Rx         0002  2  06 BF 
   443)      3870.3  Rx         0005  4  05 37 05 E6 
   444)      3870.8  Rx         0002  2  06 A0 
   445)      3871.1  Rx         0202  1  01 
   446)      3871.6  Rx         0006  2  00 01 
   447)      3871.8  Rx         0011  4  00 C0 00 1F 
   448)      3871.9  Rx         0182  2  00 0E 
   449)      3872.0  Rx         0183  2  01 09 
   450)      3872.7  Rx         0010  8  05 3C 06 1A 05 48 05 6D 
   451)      3900.5  Tx         0202  1  00 
   452)      3900.9  Rx         0006  2  00 01 
   453)      3901.0  Rx         0011  4  00 C0 00 1F 
   454)      3901.1  Rx         0005  4  05 38 05 E6 
   455)      3901.3  Rx         0182  2  00 0E 
   456)      3901.5  Rx         0183  2  01 09 
   457)      3902.3  Rx         0002  2  06 99 
   458)      3930.6  Rx         0005  4  05 37 05 E7 
   459)      3932.1  Rx         0002  2  06 99 
   460)      3934.5  Rx         0010  8  05 19 05 F6 05 4B 05 6E 
   461)      3971.7  Rx         0005  4  05 3C 05 E7 
   462)      3972.8  Rx         0002  2  06 99 
   463)      4010.1  Rx         0005  4  05 52 05 EB 
   464)      4011.0  Rx         0202  1  01 
   465)      4012.2  Rx         0006  2  00 01 
   466)      4012.8  Rx         0002  2  06 A0 
   467)      4013.1  Rx         0011  4  00 C0 00 1F 
   468)      4013.4  Rx         0182  2  00 0E 
   469)      4013.6  Rx         0183  2  01 09 
   470)      4014.7  Rx         0010  8  04 F2 05 D2 05 4C 05 6F 
   471)      4047.2  Rx         0005  4  05 67 05 E8 
   472)      4049.7  Rx         0002  2  06 AE 
   473)      4079.8  Rx         0005  4  05 6D 05 EB 
   474)      4080.2  Rx         0002  2  06 BF 
   475)      4082.0  Rx         0010  8  04 DB 05 B7 05 49 05 6C 
   476)      4120.5  Rx         0005  4  05 6B 05 E8 
   477)      4121.2  Rx         0002  2  06 CD 
   478)      4159.7  Rx         0005  4  05 6F 05 E7 
   479)      4160.1  Rx         0002  2  06 DC 
   480)      4161.7  Rx         0010  8  04 C7 05 A4 05 4C 05 6D 
   481)      4162.1  Rx         0202  1  01 
   482)      4162.6  Rx         0006  2  00 01 
   483)      4162.8  Rx         0011  4  00 C0 00 1F 
   484)      4163.0  Rx         0182  2  00 0E 
   485)      4163.1  Rx         0183  2  01 09 
   486)      4188.1  Rx         0005  4  05 6B 05 E8 
   487)      4189.2  Rx         0002  2  06 EA 
   488)      4215.9  Rx         0005  4  05 6C 05 E7 
   489)      4216.2  Rx         0002  2  06 F3 
   490)      4217.6  Rx         0010  8  04 BF 05 9C 05 47 05 6F 
   491)      4247.0  Rx         0005  4  05 7C 05 E8 
   492)      4247.5  Rx         0002  2  06 F8 
   493)      4277.6  Rx         0005  4  05 AE 05 E9 
   494)      4278.6  Rx         0002  2  07 0B 
   495)      4279.9  Rx         0010  8  04 C0 05 9D 05 4A 05 70 
   496)      4280.1  Rx         0202  1  01 
   497)      4281.3  Rx         0006  2  00 01 
   498)      4282.2  Rx         0011  4  00 C0 00 1F 
   499)      4282.8  Rx         0182  2  00 0E 
   500)      4283.5  Rx         0183  2  01 09 
   501)      4319.6  Rx         0005  4  05 C9 05 E9 
   502)      4320.1  Rx         0002  2  07 27 
   503)      4358.9  Rx         0005  4  05 CF 05 EB 
   504)      4359.5  Rx         0002  2  07 42 
   505)      4361.4  Rx         0010  8  04 C6 05 B2 05 4B 05 6E 
   506)      4389.5  Rx         0005  4  05 E8 05 E8 
   507)      4389.9  Rx         0002  2  07 65 
   508)      4417.1  Rx         0005  4  05 FA 05 E7 
   509)      4417.6  Rx         0002  2  07 8E 
   510)      4419.0  Rx         0010  8  04 DB 05 B5 05 4B 05 6F 
   511)      4421.2  Rx         0202  1  01 
   512)      4421.7  Rx         0006  2  00 01 
   513)      4421.9  Rx         0011  4  00 C0 00 1F 
   514)      4421.9  Rx         0182  2  00 0E 
   515)      4422.1  Rx         0183  2  01 09 
   516)      4446.3  Rx         0005  4  05 F9 05 E8 
   517)      4446.6  Rx         0002  2  07 B3 
   518)      4474.4  Rx         0005  4  05 FB 05 E8 
   519)      4475.1  Rx         0002  2  07 C9 
   520)      4476.4  Rx         0010  8  04 E9 05 C7 05 4A 05 6C 
   521)      4504.5  Rx         0005  4  05 FC 05 E6 
   522)      4505.0  Rx         0002  2  07 D7 
   523)      4532.2  Rx         0005  4  05 FA 05 E7 
   524)      4532.6  Rx         0002  2  07 E3 
   525)      4533.7  Rx         0010  8  04 FA 05 D7 05 4A 05 6D 
   526)      4535.4  Rx         0202  1  01 
   527)      4536.6  Rx         0006  2  00 01 
   528)      4537.5  Rx         0011  4  00 C0 00 1F 
   529)      4538.2  Rx         0182  2  00 0E 
   530)      4538.7  Rx         0183  2  01 09 
   531)      4562.6  Rx         0005  4  05 FA 05 E7 
   532)      4563.2  Rx         0002  2  07 E8 
   533)      4593.7  Rx         0005  4  05 F9 05 E6 
   534)      4594.0  Rx         0002  2  07 E8 
   535)      4595.3  Rx         0010  8  05 0A 05 E7 05 4A 05 6C 
   536)      4634.5  Rx         0005  4  05 FA 05 E7 
   537)      4635.1  Rx         0002  2  07 E8 
   538)      4673.9  Rx         0005  4  05 F9 05 EB 
   539)      4674.3  Rx         0002  2  07 E8 
   540)      4675.5  Rx         0010  8  05 19 05 F5 05 4B 05 70 
   541)      4681.0  Rx         0202  1  01 
   542)      4681.6  Rx         0006  2  00 01 
   543)      4681.7  Rx         0011  4  00 C0 00 1F 
   544)      4681.9  Rx         0182  2  00 0E 
   545)      4682.1  Rx         0183  2  01 09 
   546)      4708.8  Rx         0005  4  05 FB 05 E8 
   547)      4709.2  Rx         0002  2  07 E8 
   548)      4741.2  Rx         0005  4  05 F9 05 E7 
   549)      4741.7  Rx         0002  2  07 E8 
   550)      4742.9  Rx         0010  8  05 2B 06 09 05 4B 05 6E 
   551)      4770.7  Rx         0005  4  05 FA 05 E7 
   552)      4771.4  Rx         0002  2  07 E8 
   553)      4799.0  Rx         0005  4  05 F8 05 E6 
   554)      4799.7  Rx         0002  2  07 E8 
   555)      4800.8  Rx         0010  8  05 39 06 17 05 49 05 6E 
   556)      4804.6  Rx         0202  1  01 
   557)      4805.8  Rx         0006  2  00 01 
   558)      4806.7  Rx         0011  4  00 C0 00 1F 
   559)      4807.3  Rx         0182  2  00 0E 
   560)      4807.8  Rx         0183  2  01 09 
   561)      4829.7  Rx         0005  4  05 F9 05 E6 
   562)      4830.0  Rx         0002  2  07 E6 
   563)      4857.2  Rx         0005  4  05 F8 05 E8 
   564)      4857.8  Rx         0002  2  07 E6 
   565)      4861.3  Rx         0010  8  05 4A 06 28 05 4B 05 6F 
   566)      4897.7  Rx         0005  4  05 FD 05 E7 
   567)      4898.1  Rx         0002  2  07 E8 
   568)      4900.5  Tx         0202  1  00 
   569)      4900.8  Rx         0006  2  00 01 
   570)      4901.0  Rx         0011  4  00 C0 00 1F 
   571)      4901.2  Rx         0182  2  00 0E 
   572)      4901.2  Rx         0183  2  01 09 
   573)      4929.3  Rx         0005  4  05 F8 05 E6 
   574)      4930.0  Rx         0002  2  07 E6 
   575)      4933.0  Rx         0010  8  05 5B 06 35 05 4A 05 6D 
   576)      4942.9  Rx         0202  1  01 
   577)      4943.3  Rx         0006  2  00 01 
   578)      4943.5  Rx         0011  4  00 C0 00 1F 
   579)      4943.6  Rx         0182  2  00 0E 
   580)      4943.8  Rx         0183  2  01 09 
   581)      4970.0  Rx         0005  4  05 FA 05 E7 
   582)      4970.5  Rx         0002  2  07 E6 
   583)      5009.9  Rx         0005  4  05 F7 05 EA 
   584)      5010.8  Rx         0002  2  07 E6 
   585)      5012.0  Rx         0010  8  05 5B 06 37 05 49 05 6D 
   586)      5051.3  Rx         0005  4  05 FB 05 EA 
   587)      5051.8  Rx         0002  2  07 E8 
   588)      5090.9  Rx         0005  4  05 F9 05 E9 
   589)      5091.3  Rx         0002  2  07 E8 
   590)      5092.2  Rx         0010  8  05 60 06 37 05 4A 05 6D 
   591)      5096.8  Rx         0202  1  01 
   592)      5098.0  Rx         0006  2  00 01 
   593)      5098.9  Rx         0011  4  00 C0 00 1F 
   594)      5099.6  Rx         0182  2  00 0E 
   595)      5100.2  Rx         0183  2  01 09 
   596)      5120.7  Rx         0005  4  05 F9 05 EA 
   597)      5122.1  Rx         0002  2  07 E6 
   598)      5149.0  Rx         0005  4  05 FB 05 EF 
   599)      5149.6  Rx         0002  2  07 E8 
   600)      5150.5  Rx         0010  8  05 5F 06 3B 05 4B 05 6E 
   601)      5179.2  Rx         0005  4  05 F9 05 E7 
   602)      5179.6  Rx         0002  2  07 E6 
   603)      5206.4  Rx         0005  4  05 FA 05 E8 
   604)      5206.8  Rx         0002  2  07 E8 
   605)      5207.6  Rx         0010  8  05 5E 06 39 05 4B 05 6E 
   606)      5227.9  Rx         0202  1  01 
   607)      5228.4  Rx         0006  2  00 01 
   608)      5228.5  Rx         0011  4  00 C0 00 1F 
   609)      5228.6  Rx         0182  2  00 0E 
   610)      5228.9  Rx         0183  2  01 09 
   611)      5247.8  Rx         0005  4  05 FA 05 E9 
   612)      5248.3  Rx         0002  2  07 E8 
   613)      5277.0  Rx         0005  4  05 F8 05 E7 
   614)      5279.1  Rx         0002  2  07 E8 
   615)      5280.9  Rx         0010  8  05 5F 06 39 05 4C 05 6D 
   616)      5318.0  Rx         0005  4  05 F9 05 E6 
   617)      5319.3  Rx         0002  2  07 E8 
   618)      5358.6  Rx         0005  4  05 F8 05 E7 
   619)      5359.4  Rx         0002  2  07 E6 
   620)      5361.7  Rx         0010  8  05 5F 06 3A 05 48 05 6F 
   621)      5381.3  Rx         0202  1  01 
   622)      5382.6  Rx         0006  2  00 01 
   623)      5383.4  Rx         0011  4  00 C0 00 1F 
   624)      5384.1  Rx         0182  2  00 0E 
   625)      5384.8  Rx         0183  2  01 09 
   626)      5408.1  Rx         0005  4  05 FA 05 EA 
   627)      5410.5  Rx         0002  2  07 E6 
   628)      5441.4  Rx         0005  4  05 F7 05 E7 
   629)      5441.8  Rx         0002  2  07 E6 
   630)      5442.5  Rx         0010  8  05 5C 06 3B 05 4B 05 6C 
   631)      5471.1  Rx         0005  4  05 F8 05 E7 
   632)      5471.9  Rx         0002  2  07 E5 
   633)      5499.1  Rx         0005  4  05 FC 05 E6 
   634)      5499.5  Rx         0002  2  07 E6 
   635)      5500.3  Rx         0010  8  05 5A 06 38 05 4B 05 6D 
   636)      5520.6  Rx         0202  1  01 
   637)      5521.1  Rx         0006  2  00 01 
   638)      5521.2  Rx         0011  4  00 C0 00 1F 
   639)      5521.4  Rx         0182  2  00 0E 
   640)      5521.6  Rx         0183  2  01 09 
   641)      5540.0  Rx         0005  4  05 F6 05 E9 
   642)      5540.8  Rx         0002  2  07 E5 
   643)      5577.9  Rx         0005  4  05 FC 05 E6 
   644)      5578.4  Rx         0002  2  07 E6 
   645)      5578.9  Rx         0010  8  05 5E 06 3A 05 49 05 6D 
   646)      5608.5  Rx         0005  4  05 F9 05 E7 
   647)      5609.1  Rx         0002  2  07 E6 
   648)      5642.0  Rx         0005  4  05 FB 05 E9 
   649)      5643.4  Rx         0002  2  07 E8 
   650)      5643.8  Rx         0010  8  05 5D 06 39 05 47 05 6C 
   651)      5666.6  Rx         0202  1  01 
   652)      5667.6  Rx         0006  2  00 01 
   653)      5667.8  Rx         0011  4  00 C0 00 1F 
   654)      5667.9  Rx         0182  2  00 0E 
   655)      5668.0  Rx         0183  2  01 09 
   656)      5689.2  Rx         0005  4  05 FB 05 E9 
   657)      5689.8  Rx         0002  2  07 E8 
   658)      5726.3  Rx         0005  4  05 F8 05 E6 
   659)      5727.0  Rx         0002  2  07 E8 
   660)      5727.3  Rx         0010  8  05 5E 06 3B 05 4B 05 6C 
   661)      5753.1  Rx         0005  4  05 F7 05 E9 
   662)      5753.4  Rx         0002  2  07 E8 
   663)      5781.6  Rx         0005  4  05 FA 05 E4 
   664)      5782.2  Rx         0002  2  07 E6 
   665)      5782.3  Rx         0010  8  05 5C 06 38 05 48 05 6F 
   666)      5803.2  Rx         0202  1  01 
   667)      5803.6  Rx         0006  2  00 01 
   668)      5803.8  Rx         0011  4  00 C0 00 1F 
   669)      5803.9  Rx         0182  2  00 0E 
   670)      5804.0  Rx         0183  2  01 09 
   671)      5820.5  Rx         0005  4  05 F6 05 E7 
   672)      5821.0  Rx         0002  2  07 E6 
   673)      5848.3  Rx         0005  4  05 FA 05 E7 
   674)      5848.8  Rx         0002  2  07 E6 
   675)      5849.2  Rx         0010  8  05 5E 06 3A 05 4A 05 6C 
   676)      5879.5  Rx         0005  4  05 FB 05 EC 
   677)      5880.2  Rx         0002  2  07 E6 
   678)      5900.4  Tx         0202  1  00 
   679)      5900.8  Rx         0006  2  00 01 
   680)      5901.0  Rx         0011  4  00 C0 00 1F 
   681)      5901.1  Rx         0182  2  00 0E 
   682)      5901.2  Rx         0183  2  01 09 
   683)      5916.0  Rx         0005  4  05 FB 05 E9 
   684)      5918.1  Rx         0002  2  07 E6 
   685)      5919.2  Rx         0010  8  05 5D 06 38 05 4B 05 6A 
   686)      5939.9  Rx         0202  1  01 
   687)      5941.1  Rx         0006  2  00 01 
   688)      5942.0  Rx         0011  4  00 C0 00 1F 
   689)      5942.3  Rx         0182  2  00 0E 
   690)      5942.4  Rx         0183  2  01 09 
   691)      5955.2  Rx         0005  4  05 FA 05 E8 
   692)      5958.5  Rx         0002  2  07 E8 
   693)      5991.9  Rx         0005  4  05 F8 05 E8 
   694)      5992.7  Rx         0002  2  07 E6 
   695)      5992.9  Rx         0010  8  05 5C 06 38 05 4B 05 6E 
   696)      6029.4  Rx         0005  4  05 FB 05 E8 
   697)      6030.1  Rx         0002  2  07 E8 
   698)      6066.9  Rx         0005  4  05 FA 05 E8 
   699)      6067.5  Rx         0002  2  07 E8 
   700)      6067.5  Rx         0010  8  05 60 06 3B 05 4A 05 6C 
   701)      6093.9  Rx         0202  1  01 
   702)      6095.2  Rx         0006  2  00 01 
   703)      6096.0  Rx         0011  4  00 C0 00 1F 
   704)      6096.4  Rx         0182  2  00 0E 
   705)      6096.5  Rx         0183  2  01 09 
   706)      6106.0  Rx         0005  4  05 F9 05 E8 
   707)      6108.5  Rx         0002  2  07 E8 
   708)      6143.2  Rx         0005  4  05 F8 05 EB 
   709)      6143.9  Rx         0010  8  05 5F 06 3A 05 4A 05 6F 
   710)      6144.0  Rx         0002  2  07 E6 
   711)      6172.8  Rx         0005  4  05 FA 05 E8 
   712)      6173.1  Rx         0002  2  07 E6 
   713)      6200.2  Rx         0005  4  05 F8 05 EA 
   714)      6200.7  Rx         0002  2  07 E6 
   715)      6200.9  Rx         0010  8  05 5F 06 38 05 4A 05 70 
   716)      6223.3  Rx         0202  1  01 
   717)      6224.3  Rx         0006  2  00 01 
   718)      6224.5  Rx         0011  4  00 C0 00 1F 
   719)      6224.6  Rx         0182  2  00 0E 
   720)      6224.7  Rx         0183  2  01 09 
   721)      6228.8  Rx         0005  4  05 F9 05 E8 
   722)      6232.0  Rx         0002  2  07 E6 
   723)      6266.7  Rx         0005  4  05 F8 05 E5 
   724)      6267.7  Rx         0002  2  07 E6 
   725)      6267.9  Rx         0010  8  05 5D 06 3A 05 4A 05 6C 
   726)      6294.1  Rx         0005  4  05 FB 05 EB 
   727)      6294.9  Rx         0002  2  07 E6 
   728)      6326.9  Rx         0005  4  05 FC 05 E8 
   729)      6327.2  Rx         0010  8  05 5D 06 34 05 4B 05 70 
   730)      6327.3  Rx         0002  2  07 E8 
   731)      6361.7  Rx         0202  1  01 
   732)      6362.1  Rx         0006  2  00 01 
   733)      6362.3  Rx         0011  4  00 C0 00 1F 
   734)      6362.3  Rx         0182  2  00 0E 
   735)      6362.5  Rx         0183  2  01 09 
   736)      6366.5  Rx         0005  4  05 F9 05 EA 
   737)      6367.0  Rx         0002  2  07 E8 
   738)      6412.3  Rx         0005  4  05 FC 05 E9 
   739)      6412.7  Rx         0002  2  07 E8 
   740)      6412.8  Rx         0010  8  05 5C 06 3A 05 4C 05 6F 
   741)      6442.0  Rx         0005  4  05 FC 05 E7 
   742)      6442.6  Rx         0002  2  07 EA 
   743)      6469.6  Rx         0005  4  05 F9 05 E7 
   744)      6469.9  Rx         0010  8  05 5C 06 39 05 4A 05 6D 
   745)      6470.0  Rx         0002  2  07 EA 
   746)      6497.2  Rx         0202  1  01 
   747)      6498.0  Rx         0006  2  00 01 
   748)      6498.2  Rx         0011  4  00 C0 00 1F 
   749)      6498.4  Rx         0182  2  00 0E 
   750)      6498.4  Rx         0183  2  01 09 
   751)      6500.5  Rx         0005  4  05 FA 05 E7 
   752)      6500.9  Rx         0002  2  07 EA 
   753)      6527.7  Rx         0005  4  05 FC 05 E8 
   754)      6528.0  Rx         0010  8  05 5E 06 3A 05 4A 05 6F 
   755)      6528.2  Rx         0002  2  07 EA 
   756)      6555.4  Rx         0005  4  05 FA 05 E6 
   757)      6555.8  Rx         0002  2  07 EA 
   758)      6582.6  Rx         0005  4  05 F9 05 E5 
   759)      6582.9  Rx         0010  8  05 5F 06 3A 05 4B 05 6D 
   760)      6583.2  Rx         0002  2  07 E8 
   761)      6612.5  Rx         0202  1  01 
   762)      6613.0  Rx         0006  2  00 01 
   763)      6613.1  Rx         0011  4  00 C0 00 1F 
   764)      6613.3  Rx         0182  2  00 0E 
   765)      6613.4  Rx         0183  2  01 09 
   766)      6613.8  Rx         0005  4  05 FB 05 E9 
   767)      6614.9  Rx         0002  2  07 E8 
   768)      6657.0  Rx         0005  4  05 FA 05 E7 
   769)      6657.1  Rx         0010  8  05 5D 06 37 05 4A 05 6E 
   770)      6658.0  Rx         0002  2  07 E8 
   771)      6696.2  Rx         0005  4  05 FA 05 E7 
   772)      6697.0  Rx         0002  2  07 E8 
   773)      6733.6  Rx         0005  4  05 F7 05 E8 
   774)      6733.9  Rx         0010  8  05 5E 06 37 05 4A 05 6F 
   775)      6734.7  Rx         0002  2  07 E8 
   776)      6767.5  Rx         0202  1  01 
   777)      6768.3  Rx         0006  2  00 01 
   778)      6768.5  Rx         0011  4  00 C0 00 1F 
   779)      6768.5  Rx         0182  2  00 0E 
   780)      6768.7  Rx         0183  2  01 09 
   781)      6769.3  Rx         0005  4  05 F6 05 E6 
   782)      6772.0  Rx         0002  2  07 E6 
   783)      6799.2  Rx         0005  4  05 FC 05 EA 
   784)      6799.4  Rx         0010  8  05 60 06 39 05 4B 05 6D 
   785)      6799.6  Rx         0002  2  07 E6 
   786)      6827.4  Rx         0005  4  05 F6 05 E8 
   787)      6827.8  Rx         0002  2  07 E5 
   788)      6865.9  Rx         0010  8  05 5D 06 3A 05 4A 05 6F 
   789)      6866.2  Rx         0005  4  05 FA 05 E9 
   790)      6866.7  Rx         0002  2  07 E5 
   791)      6893.8  Rx         0005  4  05 FB 05 E9 
   792)      6894.3  Rx         0202  1  01 
   793)      6894.9  Rx         0002  2  07 E6 
   794)      6894.9  Rx         0006  2  00 01 
   795)      6895.3  Rx         0011  4  00 C0 00 1F 
   796)      6895.3  Rx         0182  2  00 0E 
   797)      6895.5  Rx         0183  2  01 09 
   798)      6900.7  Tx         0202  1  00 
   799)      6901.9  Rx         0006  2  00 01 
   800)      6902.8  Rx         0011  4  00 C0 00 1F 
   801)      6903.4  Rx         0182  2  00 0E 
   802)      6904.1  Rx         0183  2  01 09 
   803)      6932.8  Rx         0010  8  05 5D 06 38 05 4A 05 6F 
   804)      6933.1  Rx         0005  4  05 F9 05 E8 
   805)      6933.8  Rx         0002  2  07 E6 
   806)      6962.8  Rx         0005  4  05 FC 05 E2 
   807)      6963.2  Rx         0002  2  07 E8 
   808)      7006.5  Rx         0010  8  05 5C 06 39 05 4A 05 6E 
   809)      7007.3  Rx         0005  4  05 FC 05 E9 
   810)      7008.4  Rx         0002  2  07 E8 
   811)      7044.1  Rx         0005  4  05 F8 05 E7 
   812)      7045.0  Rx         0002  2  07 E8 
   813)      7045.0  Rx         0202  1  01 
   814)      7046.0  Rx         0006  2  00 01 
   815)      7046.1  Rx         0011  4  00 C0 00 1F 
   816)      7046.3  Rx         0182  2  00 0E 
   817)      7046.4  Rx         0183  2  01 09 
   818)      7078.4  Rx         0010  8  05 5D 06 39 05 4A 05 6F 
   819)      7078.6  Rx         0005  4  05 FE 05 E8 
   820)      7079.4  Rx         0002  2  07 EA 
   821)      7106.9  Rx         0005  4  05 FB 05 E8 
   822)      7107.4  Rx         0002  2  07 EA 
   823)      7134.5  Rx         0010  8  05 5D 06 37 05 48 05 6F 
   824)      7134.6  Rx         0005  4  05 FA 05 EA 
   825)      7135.3  Rx         0002  2  07 EA 
   826)      7162.0  Rx         0005  4  05 FA 05 E8 
   827)      7162.5  Rx         0002  2  07 EA 
   828)      7164.3  Rx         0202  1  01 
   829)      7164.8  Rx         0006  2  00 01 
   830)      7165.0  Rx         0011  4  00 C0 00 1F 
   831)      7165.2  Rx         0182  2  00 0E 
   832)      7165.4  Rx         0183  2  01 09 
   833)      7190.1  Rx         0010  8  05 5D 06 39 05 4A 05 6E 
   834)      7190.4  Rx         0005  4  05 FC 05 E9 
   835)      7191.8  Rx         0002  2  07 EA 
   836)      7219.0  Rx         0005  4  05 F9 05 E7 
   837)      7219.8  Rx         0002  2  07 EA 
   838)      7246.2  Rx         0010  8  05 5D 06 38 05 48 05 70 
   839)      7246.5  Rx         0005  4  05 F8 05 E9 
   840)      7246.9  Rx         0002  2  07 E8 
   841)      7277.8  Rx         0005  4  05 FA 05 E9 
   842)      7278.4  Rx         0002  2  07 E8 
   843)      7279.9  Rx         0202  1  01 
   844)      7280.8  Rx         0006  2  00 01 
   845)      7281.0  Rx         0011  4  00 C0 00 1F 
   846)      7281.1  Rx         0182  2  00 0E 
   847)      7281.3  Rx         0183  2  01 09 
   848)      7311.7  Rx         0010  8  05 5E 06 39 05 47 05 6C 
   849)      7311.9  Rx         0005  4  05 FF 05 E8 
   850)      7312.2  Rx         0002  2  07 EA 
   851)      7350.8  Rx         0005  4  05 F9 05 E6 
   852)      7351.2  Rx         0002  2  07 E8 
   853)      7385.1  Rx         0010  8  05 5F 06 3B 05 4B 05 6D 
   854)      7385.6  Rx         0005  4  05 FB 05 ED 
   855)      7386.2  Rx         0002  2  07 E8 
   856)      7421.7  Rx         0005  4  05 FB 05 E7 
   857)      7422.0  Rx         0002  2  07 EA 
   858)      7425.7  Rx         0202  1  01 
   859)      7426.0  Rx         0006  2  00 01 
   860)      7426.3  Rx         0011  4  00 C0 00 1F 
   861)      7426.4  Rx         0182  2  00 0E 
   862)      7426.5  Rx         0183  2  01 09 
   863)      7449.7  Rx         0010  8  05 5B 06 38 05 4A 05 6F 
   864)      7450.1  Rx         0005  4  05 F9 05 E9 
   865)      7450.8  Rx         0002  2  07 EA 
   866)      7478.1  Rx         0005  4  05 F7 05 E6 
   867)      7478.4  Rx         0002  2  07 E8 
   868)      7506.3  Rx         0010  8  05 5D 06 3A 05 4A 05 6C 
   869)      7506.7  Rx         0005  4  05 F8 05 EA 
   870)      7507.1  Rx         0002  2  07 E6 
   871)      7534.2  Rx         0005  4  05 FB 05 E9 
   872)      7534.5  Rx         0002  2  07 E8 
   873)      7537.7  Rx         0202  1  01 
   874)      7538.4  Rx         0006  2  00 01 
   875)      7538.6  Rx         0011  4  00 C0 00 1F 
   876)      7538.7  Rx         0182  2  00 0E 
   877)      7538.9  Rx         0183  2  01 09 
   878)      7561.6  Rx         0010  8  05 5E 06 38 05 4B 05 6D 
   879)      7562.3  Rx         0005  4  05 F9 05 E8 
   880)      7562.7  Rx         0002  2  07 E6 
   881)      7590.2  Rx         0005  4  05 FE 05 E8 
   882)      7590.5  Rx         0002  2  07 E8 
   883)      7624.3  Rx         0010  8  05 5C 06 38 05 4B 05 6B 
   884)      7624.9  Rx         0005  4  05 F9 05 E9 
   885)      7625.2  Rx         0002  2  07 E8 
   886)      7664.0  Rx         0005  4  05 FB 05 E8 
   887)      7664.4  Rx         0002  2  07 E8 
   888)      7673.1  Rx         0202  1  01 
   889)      7673.6  Rx         0006  2  00 01 
   890)      7673.7  Rx         0011  4  00 C0 00 1F 
   891)      7673.9  Rx         0182  2  00 0E 
   892)      7674.0  Rx         0183  2  01 09 
   893)      7697.6  Rx         0010  8  05 5B 06 3A 05 4A 05 6F 
   894)      7698.2  Rx         0005  4  05 FD 05 E9 
   895)      7698.4  Rx         0002  2  07 EA 
   896)      7726.2  Rx         0005  4  05 FC 05 E8 
   897)      7726.8  Rx         0002  2  07 EA 
   898)      7764.0  Rx         0010  8  05 5C 06 37 05 49 05 6E 
   899)      7764.6  Rx         0005  4  05 F8 05 E6 
   900)      7764.9  Rx         0002  2  07 EA 
   901)      7795.1  Rx         0005  4  05 FB 05 EA 
   902)      7795.6  Rx         0002  2  07 EA 
   903)      7800.3  Rx         0202  1  01 
   904)      7801.6  Rx         0006  2  00 01 
   905)      7801.8  Rx         0011  4  00 C0 00 1F 
   906)      7802.0  Rx         0182  2  00 0E 
   907)      7802.1  Rx         0183  2  01 09 
   908)      7823.1  Rx         0010  8  05 5C 06 39 05 49 05 71 
   909)      7823.9  Rx         0005  4  05 FA 05 E9 
   910)      7824.2  Rx         0002  2  07 EA 
   911)      7853.8  Rx         0005  4  05 FB 05 E7 
   912)      7854.4  Rx         0002  2  07 EA 
   913)      7891.6  Rx         0010  8  05 5C 06 39 05 47 05 6D 
   914)      7892.3  Rx         0005  4  05 FB 05 E9 
   915)      7892.8  Rx         0002  2  07 E8 
   916)      7901.2  Tx         0202  1  00 
   917)      7902.4  Rx         0006  2  00 01 
   918)      7902.7  Rx         0011  4  00 C0 00 1F 
   919)      7902.9  Rx         0182  2  00 0E 
   920)      7903.0  Rx         0183  2  01 09 
   921)      7922.1  Rx         0005  4  05 F9 05 E9 
   922)      7922.6  Rx         0002  2  07 E8 
   923)      7942.7  Rx         0202  1  01 
   924)      7943.2  Rx         0006  2  00 01 
   925)      7943.4  Rx         0011  4  00 C0 00 1F 
   926)      7943.5  Rx         0182  2  00 0E 
   927)      7943.6  Rx         0183  2  01 09 
   928)      7967.8  Rx         0010  8  05 5B 06 3B 05 48 05 6E 
   929)      7968.4  Rx         0005  4  05 FB 05 EA 
   930)      7969.6  Rx         0002  2  07 E8 
   931)      8010.0  Rx         0005  4  05 FC 05 E8 
   932)      8010.8  Rx         0002  2  07 EA 
   933)      8044.3  Rx         0010  8  05 5F 06 39 05 4A 05 6D 
   934)      8045.2  Rx         0005  4  05 FB 05 E7 
   935)      8045.7  Rx         0002  2  07 EA 
   936)      8092.5  Rx         0005  4  05 F8 05 E8 
   937)      8093.4  Rx         0002  2  07 E8 
   938)      8099.3  Rx         0202  1  01 
   939)      8100.3  Rx         0006  2  00 01 
   940)      8100.4  Rx         0011  4  00 C0 00 1F 
   941)      8100.6  Rx         0182  2  00 0E 
   942)      8100.7  Rx         0183  2  01 09 
   943)      8120.1  Rx         0010  8  05 5F 06 38 05 4B 05 6D 
   944)      8121.0  Rx         0005  4  05 F7 05 E7 
   945)      8122.1  Rx         0002  2  07 E8 
   946)      8148.4  Rx         0005  4  05 F6 05 E7 
   947)      8149.0  Rx         0002  2  07 E6 
   948)      8175.9  Rx         0010  8  05 5F 06 38 05 49 05 6C 
   949)      8176.8  Rx         0005  4  05 FA 05 E7 
   950)      8177.2  Rx         0002  2  07 E6 
   951)      8204.4  Rx         0005  4  05 F9 05 E8 
   952)      8204.7  Rx         0002  2  07 E5 
   953)      8212.6  Rx         0202  1  01 
   954)      8213.0  Rx         0006  2  00 01 
   955)      8213.2  Rx         0011  4  00 C0 00 1F 
   956)      8213.3  Rx         0182  2  00 0E 
   957)      8213.4  Rx         0183  2  01 09 
   958)      8230.8  Rx         0010  8  05 5D 06 38 05 49 05 6D 
   959)      8231.7  Rx         0005  4  05 FC 05 EA 
   960)      8232.3  Rx         0002  2  07 E6 
   961)      8260.7  Rx         0005  4  05 F9 05 E6 
   962)      8262.1  Rx         0002  2  07 E6 
   963)      8294.7  Rx         0010  8  05 5D 06 38 05 4B 05 6D 
   964)      8296.7  Rx         0005  4  05 F9 05 E8 
   965)      8298.0  Rx         0002  2  07 E6 
   966)      8335.8  Rx         0005  4  05 F8 05 E8 
   967)      8336.6  Rx         0002  2  07 E8 
   968)      8356.9  Rx         0202  1  01 
   969)      8358.1  Rx         0006  2  00 01 
   970)      8359.0  Rx         0011  4  00 C0 00 1F 
   971)      8359.6  Rx         0182  2  00 0E 
   972)      8359.7  Rx         0183  2  01 09 
   973)      8377.6  Rx         0010  8  05 5F 06 36 05 4A 05 6A 
   974)      8378.6  Rx         0005  4  05 FA 05 E7 
   975)      8378.9  Rx         0002  2  07 E8 
   976)      8421.2  Rx         0005  4  05 FC 05 E8 
   977)      8422.1  Rx         0002  2  07 E8 
   978)      8447.6  Rx         0010  8  05 5F 06 38 05 4A 05 6B 
   979)      8449.4  Rx         0005  4  05 FA 05 E7 
   980)      8449.8  Rx         0002  2  07 E8 
   981)      8476.2  Rx         0005  4  05 FB 05 EA 
   982)      8476.9  Rx         0002  2  07 E8 
   983)      8498.1  Rx         0202  1  01 
   984)      8498.5  Rx         0006  2  00 01 
   985)      8498.7  Rx         0011  4  00 C0 00 1F 
   986)      8498.8  Rx         0182  2  00 0E 
   987)      8498.9  Rx         0183  2  01 09 
   988)      8514.9  Rx         0010  8  05 5E 06 39 05 48 05 6C 
   989)      8516.1  Rx         0005  4  05 FC 05 E7 
   990)      8516.7  Rx         0002  2  07 E8 
   991)      8554.0  Rx         0005  4  05 F9 05 EB 
   992)      8554.3  Rx         0002  2  07 EA 
   993)      8580.4  Rx         0010  8  05 5E 06 39 05 4B 05 6F 
   994)      8581.7  Rx         0005  4  05 FC 05 E8 
   995)      8582.3  Rx         0002  2  07 EA 
   996)      8609.8  Rx         0005  4  05 FD 05 E7 
   997)      8610.3  Rx         0002  2  07 EA 
   998)      8633.2  Rx         0202  1  01 
   999)      8634.1  Rx         0006  2  00 01 
  1000)      8634.2  Rx         0011  4  00 C0 00 1F 
  1001)      8634.8  Rx         0182  2  00 0E 
  1002)      8635.5  Rx         0183  2  01 09 
  1003)      8651.6  Rx         0010  8  05 5F 06 3C 05 4A 05 6D 
  1004)      8657.4  Rx         0005  4  05 F9 05 E8 
  1005)      8658.1  Rx         0002  2  07 EA 
  1006)      8699.9  Rx         0005  4  05 F9 05 EA 
  1007)      8700.3  Rx         0002  2  07 EA 
  1008)      8731.4  Rx         0010  8  05 5E 06 37 05 4A 05 6E 
  1009)      8732.8  Rx         0005  4  05 F9 05 E9 
  1010)      8733.1  Rx         0002  2  07 E8 
  1011)      8770.1  Rx         0005  4  05 FA 05 E9 
  1012)      8770.6  Rx         0002  2  07 E8 
  1013)      8792.7  Rx         0202  1  01 
  1014)      8793.3  Rx         0006  2  00 01 
  1015)      8793.5  Rx         0011  4  00 C0 00 1F 
  1016)      8793.6  Rx         0182  2  00 0E 
  1017)      8793.8  Rx         0183  2  01 09 
  1018)      8800.6  Rx         0010  8  05 60 06 37 05 4A 05 6E 
  1019)      8809.1  Rx         0005  4  05 F8 05 EA 
  1020)      8811.5  Rx         0002  2  07 E8 
  1021)      8838.9  Rx         0005  4  05 F9 05 E7 
  1022)      8839.4  Rx         0002  2  07 E6 
  1023)      8865.7  Rx         0010  8  05 5D 06 38 05 4B 05 6F 
  1024)      8867.3  Rx         0005  4  05 F9 05 E8 
  1025)      8867.8  Rx         0002  2  07 E6 
  1026)      8894.9  Rx         0005  4  05 F8 05 E8 
  1027)      8895.1  Rx         0002  2  07 E6 
  1028)      8900.3  Tx         0202  1  00 
  1029)      8900.6  Rx         0006  2  00 01 
  1030)      8900.8  Rx         0011  4  00 C0 00 1F 
  1031)      8901.0  Rx         0182  2  00 0E 
  1032)      8901.1  Rx         0183  2  01 09 
  1033)      8917.1  Rx         0202  1  01 
  1034)      8917.9  Rx         0006  2  00 01 
  1035)      8918.2  Rx         0011  4  00 C0 00 1F 
  1036)      8918.3  Rx         0182  2  00 0E 
  1037)      8918.4  Rx         0183  2  01 09 
  1038)      8921.5  Rx         0010  8  05 5C 06 39 05 4A 05 6F 
  1039)      8930.1  Rx         0005  4  05 FF 05 E7 
  1040)      8933.2  Rx         0002  2  07 E8 
  1041)      8961.7  Rx         0005  4  06 05 05 E9 
  1042)      8962.2  Rx         0002  2  07 EC 
  1043)      8995.7  Rx         0010  8  05 5C 06 3A 05 4B 05 6F 
  1044)      8998.9  Rx         0005  4  06 12 05 E7 
  1045)      8999.4  Rx         0002  2  07 F3 
  1046)      9038.2  Rx         0005  4  06 64 05 E8 
  1047)      9038.7  Rx         0002  2  08 12 
  1048)      9067.5  Rx         0202  1  01 
  1049)      9067.9  Rx         0006  2  00 01 
  1050)      9068.1  Rx         0011  4  00 C0 00 1F 
  1051)      9068.3  Rx         0182  2  00 0E 
  1052)      9068.4  Rx         0183  2  01 09 
  1053)      9069.9  Rx         0010  8  05 60 06 37 05 48 05 6F 
  1054)      9074.8  Rx         0005  4  06 E3 05 EA 
  1055)      9078.6  Rx         0002  2  08 55 
  1056)      9111.2  Rx         0005  4  06 FB 05 E7 
  1057)      9111.9  Rx         0002  2  08 9F 
  1058)      9137.5  Rx         0010  8  05 5E 06 37 05 48 05 69 
  1059)      9139.1  Rx         0005  4  06 FB 05 EA 
  1060)      9139.4  Rx         0002  2  08 E8 
  1061)      9166.1  Rx         0005  4  06 F1 05 E7 
  1062)      9166.6  Rx         0002  2  09 2B 
  1063)      9189.9  Rx         0202  1  01 
  1064)      9190.9  Rx         0006  2  00 01 
  1065)      9191.1  Rx         0011  4  00 C0 00 1F 
  1066)      9191.2  Rx         0182  2  00 0E 
  1067)      9191.4  Rx         0183  2  01 09 
  1068)      9193.0  Rx         0010  8  05 69 06 3E 05 49 05 6F 
  1069)      9194.7  Rx         0005  4  06 D7 05 E7 
  1070)      9196.8  Rx         0002  2  09 64 
  1071)      9235.4  Rx         0005  4  06 B7 05 E8 
  1072)      9236.6  Rx         0002  2  09 7D 
  1073)      9261.0  Rx         0010  8  05 87 06 60 05 4B 05 6F 
  1074)      9262.6  Rx         0005  4  06 8A 05 E9 
  1075)      9263.2  Rx         0002  2  09 63 
  1076)      9293.4  Rx         0005  4  06 51 05 E9 
  1077)      9293.8  Rx         0002  2  09 32 
  1078)      9324.1  Rx         0202  1  01 
  1079)      9324.5  Rx         0006  2  00 01 
  1080)      9324.7  Rx         0011  4  00 C0 00 1F 
  1081)      9324.9  Rx         0182  2  00 0E 
  1082)      9325.0  Rx         0183  2  01 09 
  1083)      9327.8  Rx         0010  8  05 AC 06 88 05 4B 05 6E 
  1084)      9329.5  Rx         0005  4  06 33 05 EC 
  1085)      9330.5  Rx         0002  2  08 F9 
  1086)      9380.2  Rx         0005  4  06 06 05 E6 
  1087)      9380.7  Rx         0002  2  08 B4 
  1088)      9412.9  Rx         0010  8  05 D5 06 AD 05 4A 05 6D 
  1089)      9414.2  Rx         0005  4  06 03 05 E8 
  1090)      9417.3  Rx         0002  2  08 78 
  1091)      9452.6  Rx         0005  4  06 00 05 E7 
  1092)      9453.0  Rx         0002  2  08 42 
  1093)      9477.4  Rx         0202  1  01 
  1094)      9478.3  Rx         0006  2  00 01 
  1095)      9478.5  Rx         0011  4  00 C0 00 1F 
  1096)      9478.7  Rx         0182  2  00 0E 
  1097)      9478.8  Rx         0183  2  01 09 
  1098)      9479.0  Rx         0010  8  05 E5 06 C0 05 4B 05 6E 
  1099)      9480.8  Rx         0005  4  06 01 05 E7 
  1100)      9481.3  Rx         0002  2  08 1C 
  1101)      9511.9  Rx         0005  4  06 02 05 E7 
  1102)      9512.4  Rx         0002  2  08 04 
  1103)      9538.2  Rx         0010  8  05 DA 06 BE 05 4B 05 6D 
  1104)      9540.3  Rx         0005  4  06 03 05 E7 
  1105)      9540.7  Rx         0002  2  07 F6 
  1106)      9582.3  Rx         0005  4  06 00 05 EB 
  1107)      9582.8  Rx         0002  2  07 F6 
  1108)      9607.1  Rx         0010  8  05 CC 06 AB 05 4A 05 6D 
  1109)      9608.0  Rx         0202  1  01 
  1110)      9608.5  Rx         0006  2  00 01 
  1111)      9608.6  Rx         0011  4  00 C0 00 1F 
  1112)      9608.8  Rx         0182  2  00 0E 
  1113)      9608.9  Rx         0183  2  01 09 
  1114)      9609.4  Rx         0005  4  05 FE 05 E7 
  1115)      9610.8  Rx         0002  2  07 F4 
  1116)      9650.2  Rx         0005  4  06 01 05 E7 
  1117)      9650.6  Rx         0002  2  07 F4 
  1118)      9693.8  Rx         0010  8  05 B1 06 92 05 48 05 6E 
  1119)      9697.0  Rx         0005  4  06 05 05 E9 
  1120)      9698.3  Rx         0002  2  07 F6 
  1121)      9750.5  Rx         0005  4  06 00 05 E7 
  1122)      9751.5  Rx         0002  2  07 F4 
  1123)      9779.9  Rx         0010  8  05 A4 06 7E 05 4B 05 70 
  1124)      9780.9  Rx         0202  1  01 
  1125)      9782.2  Rx         0006  2  00 01 
  1126)      9783.0  Rx         0011  4  00 C0 00 1F 
  1127)      9783.7  Rx         0182  2  00 0E 
  1128)      9784.3  Rx         0183  2  01 09 
  1129)      9784.7  Rx         0005  4  06 03 05 E8 
  1130)      9785.8  Rx         0002  2  07 F4 
  1131)      9812.6  Rx         0005  4  06 02 05 E7 
  1132)      9813.2  Rx         0002  2  07 F6 
  1133)      9838.6  Rx         0010  8  05 91 06 73 05 4A 05 6F 
  1134)      9840.9  Rx         0005  4  06 02 05 E8 
  1135)      9841.2  Rx         0002  2  07 F6 
  1136)      9881.6  Rx         0005  4  06 01 05 E6 
  1137)      9882.2  Rx         0002  2  07 F6 
  1138)      9900.3  Tx         0202  1  00 
  1139)      9900.6  Rx         0006  2  00 01 
  1140)      9900.8  Rx         0011  4  00 C0 00 1F 
  1141)      9901.0  Rx         0182  2  00 0E 
  1142)      9901.1  Rx         0183  2  01 09 
  1143)      9919.3  Rx         0010  8  05 82 06 62 05 49 05 6F 
  1144)      9921.5  Rx         0005  4  06 00 05 E5 
  1145)      9922.0  Rx         0002  2  07 F4 
  1146)      9922.6  Rx         0202  1  01 
  1147)      9923.1  Rx         0006  2  00 01 
  1148)      9923.3  Rx         0011  4  00 C0 00 1F 
  1149)      9923.4  Rx         0182  2  00 0E 
  1150)      9923.5  Rx         0183  2  01 09 
  1151)      9949.3  Rx         0005  4  06 03 05 E9 
  1152)      9949.8  Rx         0002  2  07 F6 
  1153)      9974.5  Rx         0010  8  05 71 06 4D 05 49 05 6E 
  1154)      9976.8  Rx         0005  4  06 03 05 E9 
  1155)      9977.5  Rx         0002  2  07 F6 
  1156)     10017.7  Rx         0005  4  06 07 05 E5 
  1157)     10018.1  Rx         0002  2  07 F8 
  1158)     10047.5  Rx         0010  8  05 63 06 3E 05 47 05 6F 
  1159)     10055.3  Rx         0005  4  06 2B 05 E6 
  1160)     10055.8  Rx         0202  1  01 
  1161)     10055.8  Rx         0002  2  08 04 
  1162)     10057.7  Rx         0006  2  00 01 
  1163)     10058.5  Rx         0011  4  00 C0 00 1F 
  1164)     10059.2  Rx         0182  2  00 0E 
  1165)     10059.9  Rx         0183  2  01 09 
  1166)     10097.2  Rx         0005  4  06 C5 05 E8 
  1167)     10097.8  Rx         0002  2  08 3B 
  1168)     10127.4  Rx         0010  8  05 5C 06 3C 05 4B 05 6F 
  1169)     10133.7  Rx         0005  4  07 36 05 EA 
  1170)     10134.3  Rx         0002  2  08 95 
  1171)     10170.0  Rx         0005  4  07 7E 05 E6 
  1172)     10170.3  Rx         0002  2  09 02 
  1173)     10195.2  Rx         0010  8  05 5D 06 3C 05 4A 05 6F 
  1174)     10197.5  Rx         0005  4  07 BD 05 EA 
  1175)     10198.2  Rx         0002  2  09 82 
  1176)     10199.5  Rx         0202  1  01 
  1177)     10200.2  Rx         0006  2  00 01 
  1178)     10200.3  Rx         0011  4  00 C0 00 1F 
  1179)     10200.4  Rx         0182  2  00 0E 
  1180)     10200.6  Rx         0183  2  01 09 
  1181)     10226.7  Rx         0005  4  07 CF 05 E9 
  1182)     10227.1  Rx         0002  2  0A 05 
  1183)     10252.6  Rx         0010  8  05 6B 06 51 05 4A 05 6E 
  1184)     10255.2  Rx         0005  4  07 CD 05 EA 
  1185)     10255.5  Rx         0002  2  0A 7C 
  1186)     10284.9  Rx         0005  4  07 CF 05 E9 
  1187)     10285.3  Rx         0002  2  0A CA 
  1188)     10310.1  Rx         0010  8  05 9B 06 77 05 4D 05 6A 
  1189)     10312.9  Rx         0005  4  07 CD 05 E9 
  1190)     10313.2  Rx         0002  2  0A F5 
  1191)     10315.2  Rx         0202  1  01 
  1192)     10316.4  Rx         0006  2  00 01 
  1193)     10317.3  Rx         0011  4  00 C0 00 1F 
  1194)     10318.0  Rx         0182  2  00 0E 
  1195)     10318.6  Rx         0183  2  01 09 
  1196)     10345.4  Rx         0005  4  07 CF 05 E8 
  1197)     10345.5  Rx         0002  2  0B 0C 
  1198)     10378.0  Rx         0010  8  05 CD 06 AA 05 49 05 6D 
  1199)     10389.9  Rx         0005  4  07 CB 05 E9 
  1200)     10392.1  Rx         0002  2  0B 11 
  1201)     10430.6  Rx         0005  4  07 CD 05 E7 
  1202)     10431.1  Rx         0002  2  0B 0F 
  1203)     10460.0  Rx         0010  8  06 01 06 DF 05 4C 05 6B 
  1204)     10462.9  Rx         0005  4  07 CD 05 E8 
  1205)     10463.3  Rx         0002  2  0B 0F 
  1206)     10466.6  Rx         0202  1  01 
  1207)     10467.1  Rx         0006  2  00 01 
  1208)     10467.3  Rx         0011  4  00 C0 00 1F 
  1209)     10467.4  Rx         0182  2  00 0E 
  1210)     10467.5  Rx         0183  2  01 09 
  1211)     10492.6  Rx         0005  4  07 CA 05 E9 
  1212)     10493.0  Rx         0002  2  0B 0E 
  1213)     10518.3  Rx         0010  8  06 3A 07 11 05 4A 05 6C 
  1214)     10526.8  Rx         0005  4  07 CD 05 E7 
  1215)     10529.6  Rx         0002  2  0B 0E 
  1216)     10564.2  Rx         0005  4  07 CA 05 E8 
  1217)     10564.6  Rx         0002  2  0B 0E 
  1218)     10588.6  Rx         0010  8  06 68 07 46 05 49 05 6D 
  1219)     10591.3  Rx         0005  4  07 BD 05 EA 
  1220)     10591.6  Rx         0002  2  0B 08 
  1221)     10594.6  Rx         0202  1  01 
  1222)     10595.8  Rx         0006  2  00 01 
  1223)     10596.7  Rx         0011  4  00 C0 00 1F 
  1224)     10597.3  Rx         0182  2  00 0E 
  1225)     10598.0  Rx         0183  2  01 09 
  1226)     10622.7  Rx         0005  4  07 A7 05 E7 
  1227)     10623.2  Rx         0002  2  0A FE 
  1228)     10647.4  Rx         0010  8  06 9F 07 7A 05 4B 05 6B 
  1229)     10652.4  Rx         0005  4  07 95 05 EA 
  1230)     10653.9  Rx         0002  2  0A EF 
  1231)     10692.7  Rx         0005  4  07 75 05 EA 
  1232)     10693.1  Rx         0002  2  0A D6 
  1233)     10725.2  Rx         0010  8  06 CC 07 A7 05 4A 05 6E 
  1234)     10733.0  Rx         0005  4  07 1C 05 E7 
  1235)     10734.1  Rx         0002  2  0A A3 
  1236)     10742.2  Rx         0202  1  01 
  1237)     10742.6  Rx         0006  2  00 01 
  1238)     10742.8  Rx         0011  4  00 C0 00 1F 
  1239)     10742.9  Rx         0182  2  00 0E 
  1240)     10743.1  Rx         0183  2  01 09 
  1241)     10771.1  Rx         0005  4  06 A8 05 E9 
  1242)     10771.4  Rx         0002  2  0A 50 
  1243)     10804.0  Rx         0010  8  06 E1 07 C1 05 4B 05 6D 
  1244)     10807.9  Rx         0005  4  06 41 05 E7 
  1245)     10808.9  Rx         0002  2  09 E1 
  1246)     10854.9  Rx         0005  4  06 07 05 E8 
  1247)     10855.2  Rx         0002  2  09 6A 
  1248)     10880.4  Rx         0010  8  06 E5 07 C3 05 4A 05 6D 
  1249)     10883.2  Rx         0005  4  06 03 05 E7 
  1250)     10883.5  Rx         0002  2  08 F6 
  1251)     10899.0  Rx         0202  1  01 
  1252)     10900.2  Rx         0006  2  00 01 
  1253)     10901.1  Rx         0011  4  00 C0 00 1F 
  1254)     10901.7  Tx         0202  1  00 
  1255)     10901.7  Rx         0182  2  00 0E 
  1256)     10902.4  Rx         0183  2  01 09 
  1257)     10903.7  Rx         0006  2  00 01 
  1258)     10903.8  Rx         0011  4  00 C0 00 1F 
  1259)     10903.9  Rx         0182  2  00 0E 
  1260)     10904.1  Rx         0183  2  01 09 
  1261)     10926.4  Rx         0005  4  06 03 05 E9 
  1262)     10926.7  Rx         0002  2  08 8B 
  1263)     10951.1  Rx         0010  8  06 D1 07 B2 05 49 05 6D 
  1264)     10954.1  Rx         0005  4  06 01 05 E7 
  1265)     10954.6  Rx         0002  2  08 39 
  1266)     10983.4  Rx         0005  4  06 02 05 E7 
  1267)     10983.8  Rx         0002  2  08 0B 
  1268)     11008.1  Rx         0010  8  06 A3 07 84 05 4A 05 6E 
  1269)     11011.4  Rx         0005  4  06 00 05 E7 
  1270)     11011.6  Rx         0002  2  07 F8 
  1271)     11032.3  Rx         0202  1  01 
  1272)     11032.7  Rx         0006  2  00 01 
  1273)     11032.9  Rx         0011  4  00 C0 00 1F 
  1274)     11033.1  Rx         0182  2  00 0E 
  1275)     11033.2  Rx         0183  2  01 09 
  1276)     11053.6  Rx         0005  4  05 FD 05 E8 
  1277)     11055.2  Rx         0002  2  07 F4 
  1278)     11085.5  Rx         0010  8  06 74 07 4F 05 48 05 6C 
  1279)     11094.5  Rx         0005  4  05 FD 05 EA 
  1280)     11095.6  Rx         0002  2  07 F3 
  1281)     11132.2  Rx         0005  4  05 FF 05 E9 
  1282)     11133.0  Rx         0002  2  07 F1 
  1283)     11168.6  Rx         0010  8  06 3A 07 1C 05 49 05 70 
  1284)     11171.2  Rx         0005  4  05 FF 05 EA 
  1285)     11171.5  Rx         0002  2  07 F1 
  1286)     11188.6  Rx         0202  1  01 
  1287)     11189.8  Rx         0006  2  00 01 
  1288)     11190.7  Rx         0011  4  00 C0 00 1F 
  1289)     11191.4  Rx         0182  2  00 0E 
  1290)     11192.0  Rx         0183  2  01 09 
  1291)     11214.0  Rx         0005  4  05 FE 05 E9 
  1292)     11214.3  Rx         0002  2  07 EF 
  1293)     11238.8  Rx         0010  8  06 09 06 EC 05 49 05 6C 
  1294)     11241.6  Rx         0005  4  06 02 05 E9 
  1295)     11242.0  Rx         0002  2  07 F1 
  1296)     11274.5  Rx         0005  4  05 FD 05 EA 
  1297)     11274.7  Rx         0002  2  07 F1 
  1298)     11299.0  Rx         0010  8  05 D3 06 B8 05 4A 05 6C 
  1299)     11302.1  Rx         0005  4  05 FD 05 E9 
  1300)     11302.7  Rx         0002  2  07 F1 
  1301)     11323.2  Rx         0202  1  01 
  1302)     11323.7  Rx         0006  2  00 01 
  1303)     11323.8  Rx         0011  4  00 C0 00 1F 
  1304)     11323.9  Rx         0182  2  00 0E 
  1305)     11324.0  Rx         0183  2  01 09 
  1306)     11343.5  Rx         0005  4  05 FB 05 EB 
  1307)     11343.8  Rx         0002  2  07 EF 
  1308)     11365.7  Rx         0010  8  05 A4 06 84 05 4A 05 6B 
  1309)     11371.3  Rx         0005  4  05 FB 05 E7 
  1310)     11371.6  Rx         0002  2  07 ED 
  1311)     11403.2  Rx         0005  4  05 FE 05 E9 
  1312)     11403.6  Rx         0002  2  07 ED 
  1313)     11435.6  Rx         0010  8  05 80 06 5F 05 49 05 70 
  1314)     11443.4  Rx         0005  4  05 FE 05 E9 
  1315)     11443.7  Rx         0002  2  07 ED 
  1316)     11466.2  Rx         0202  1  01 
  1317)     11466.9  Rx         0006  2  00 01 
  1318)     11467.1  Rx         0011  4  00 C0 00 1F 
  1319)     11467.3  Rx         0182  2  00 0E 
  1320)     11467.4  Rx         0183  2  01 09 
  1321)     11489.9  Rx         0005  4  05 FD 05 E6 
  1322)     11490.2  Rx         0002  2  07 ED 
  1323)     11511.0  Rx         0010  8  05 69 06 49 05 48 05 6E 
  1324)     11523.5  Rx         0005  4  05 FF 05 E7 
  1325)     11523.8  Rx         0002  2  07 ED 
  1326)     11558.7  Rx         0005  4  05 FC 05 E8 
  1327)     11559.2  Rx         0002  2  07 ED 
  1328)     11582.4  Rx         0010  8  05 55 06 36 05 47 05 6C 
  1329)     11585.3  Rx         0005  4  05 FE 05 E7 
  1330)     11585.6  Rx         0002  2  07 EF 
  1331)     11610.0  Rx         0202  1  01 
  1332)     11610.5  Rx         0006  2  00 01 
  1333)     11610.8  Rx         0011  4  00 C0 00 1F 
  1334)     11610.9  Rx         0182  2  00 0E 
  1335)     11611.0  Rx         0183  2  01 09 
  1336)     11628.8  Rx         0005  4  05 FF 05 E8 
  1337)     11631.0  Rx         0002  2  07 EF 
  1338)     11654.3  Rx         0010  8  05 4C 06 2C 05 4B 05 6F 
  1339)     11668.7  Rx         0005  4  05 FE 05 E8 
  1340)     11669.1  Rx         0002  2  07 EF 
  1341)     11698.9  Rx         0005  4  06 00 05 E7 
  1342)     11699.2  Rx         0002  2  07 EF 
  1343)     11722.8  Rx         0010  8  05 4C 06 2C 05 48 05 6E 
  1344)     11728.6  Rx         0005  4  06 03 05 E9 
  1345)     11731.3  Rx         0002  2  07 F1 
  1346)     11750.4  Rx         0202  1  01 
  1347)     11751.3  Rx         0006  2  00 01 
  1348)     11751.5  Rx         0011  4  00 C0 00 1F 
  1349)     11751.6  Rx         0182  2  00 0E 
  1350)     11751.8  Rx         0183  2  01 09 
  1351)     11769.2  Rx         0005  4  06 01 05 E7 
  1352)     11769.5  Rx         0002  2  07 F3 
  1353)     11801.8  Rx         0010  8  05 4E 06 34 05 49 05 6B 
  1354)     11810.1  Rx         0005  4  06 0B 05 E8 
  1355)     11810.4  Rx         0002  2  07 F6 
  1356)     11846.7  Rx         0005  4  06 2D 05 E8 
  1357)     11847.0  Rx         0002  2  08 04 
  1358)     11873.3  Rx         0010  8  05 51 06 38 05 48 05 6E 
  1359)     11876.7  Rx         0005  4  06 93 05 E8 
  1360)     11877.0  Rx         0002  2  08 2D 
  1361)     11901.1  Tx         0202  1  00 
  1362)     11901.4  Rx         0006  2  00 01 
  1363)     11901.6  Rx         0011  4  00 C0 00 1F 
  1364)     11901.8  Rx         0182  2  00 0E 
  1365)     11901.9  Rx         0183  2  01 09 
  1366)     11904.0  Rx         0202  1  01 
  1367)     11904.5  Rx         0006  2  00 01 
  1368)     11904.6  Rx         0011  4  00 C0 00 1F 
  1369)     11904.7  Rx         0182  2  00 0E 
  1370)     11904.9  Rx         0183  2  01 09 
  1371)     11919.7  Rx         0005  4  06 BB 05 E7 
  1372)     11921.5  Rx         0002  2  08 65 
  1373)     11944.7  Rx         0010  8  05 53 06 39 05 4C 05 72 
  1374)     11948.3  Rx         0005  4  06 B9 05 EA 
  1375)     11948.5  Rx         0002  2  08 98 
  1376)     11982.0  Rx         0005  4  06 BA 05 E8 
  1377)     11982.4  Rx         0002  2  08 CE 
  1378)     12005.6  Rx         0010  8  05 5F 06 43 05 4C 05 70 
  1379)     12016.7  Rx         0005  4  06 B9 05 E9 
  1380)     12018.6  Rx         0002  2  09 00 
  1381)     12047.3  Rx         0202  1  01 
  1382)     12048.0  Rx         0006  2  00 01 
  1383)     12048.2  Rx         0011  4  00 C0 00 1F 
  1384)     12048.3  Rx         0182  2  00 0E 
  1385)     12048.4  Rx         0183  2  01 09 
  1386)     12059.0  Rx         0005  4  06 BC 05 E8 
  1387)     12060.2  Rx         0002  2  09 2A 
  1388)     12087.5  Rx         0010  8  05 71 06 53 05 4A 05 6F 
  1389)     12093.9  Rx         0005  4  06 B9 05 E6 
  1390)     12094.5  Rx         0002  2  09 34 
  1391)     12123.4  Rx         0005  4  06 BC 05 E8 
  1392)     12123.6  Rx         0002  2  09 34 
  1393)     12155.0  Rx         0010  8  05 8E 06 6B 05 4A 05 6C 
  1394)     12168.1  Rx         0005  4  06 C1 05 E7 
  1395)     12170.7  Rx         0002  2  09 38 
  1396)     12205.6  Rx         0202  1  01 
  1397)     12206.1  Rx         0006  2  00 01 
  1398)     12206.3  Rx         0011  4  00 C0 00 1F 
  1399)     12206.5  Rx         0182  2  00 0E 
  1400)     12206.6  Rx         0183  2  01 09 
  1401)     12214.0  Rx         0005  4  06 DA 05 E9 
  1402)     12215.8  Rx         0002  2  09 40 
  1403)     12248.9  Rx         0010  8  05 AE 06 8C 05 4A 05 6C 
  1404)     12256.0  Rx         0005  4  06 D9 05 EA 
  1405)     12259.0  Rx         0002  2  09 49 
  1406)     12296.9  Rx         0005  4  06 D6 05 E8 
  1407)     12297.3  Rx         0002  2  09 50 
  1408)     12320.6  Rx         0010  8  05 C6 06 A6 05 4A 05 6D 
  1409)     12324.5  Rx         0005  4  06 D4 05 E7 
  1410)     12325.5  Rx         0002  2  09 58 
  1411)     12362.5  Rx         0202  1  01 
  1412)     12363.7  Rx         0006  2  00 01 
  1413)     12363.9  Rx         0011  4  00 C0 00 1F 
  1414)     12364.0  Rx         0182  2  00 0E 
  1415)     12364.2  Rx         0183  2  01 09 
  1416)     12367.7  Rx         0005  4  06 D5 05 E8 
  1417)     12368.9  Rx         0002  2  09 5F 
  1418)     12402.5  Rx         0010  8  05 DB 06 B5 05 4A 05 6C 
  1419)     12406.4  Rx         0005  4  06 D4 05 E7 
  1420)     12406.6  Rx         0002  2  09 64 
  1421)     12446.2  Rx         0005  4  06 CF 05 E9 
  1422)     12446.9  Rx         0002  2  09 61 
  1423)     12470.0  Rx         0010  8  05 E9 06 C8 05 4A 05 6E 
  1424)     12476.7  Rx         0005  4  06 D3 05 E9 
  1425)     12477.2  Rx         0002  2  09 61 
  1426)     12503.5  Rx         0202  1  01 
  1427)     12504.0  Rx         0006  2  00 01 
  1428)     12504.1  Rx         0011  4  00 C0 00 1F 
  1429)     12504.2  Rx         0182  2  00 0E 
  1430)     12504.3  Rx         0183  2  01 09 
  1431)     12506.3  Rx         0005  4  06 D5 05 E8 
  1432)     12507.9  Rx         0002  2  09 5F 
  1433)     12547.0  Rx         0010  8  05 FB 06 D8 05 49 05 6E 
  1434)     12554.8  Rx         0005  4  06 C7 05 E9 
  1435)     12556.0  Rx         0002  2  09 5C 
  1436)     12604.1  Rx         0005  4  06 9D 05 E8 
  1437)     12604.6  Rx         0002  2  09 4C 
  1438)     12628.4  Rx         0010  8  06 0B 06 EB 05 4D 05 6A 
  1439)     12632.4  Rx         0005  4  06 76 05 E8 
  1440)     12633.0  Rx         0002  2  09 31 
  1441)     12661.4  Rx         0202  1  01 
  1442)     12662.4  Rx         0006  2  00 01 
  1443)     12662.6  Rx         0011  4  00 C0 00 1F 
  1444)     12662.7  Rx         0182  2  00 0E 
  1445)     12662.9  Rx         0183  2  01 09 
  1446)     12664.5  Rx         0005  4  06 4C 05 EA 
  1447)     12665.0  Rx         0002  2  09 0B 
  1448)     12687.8  Rx         0010  8  06 1A 06 F8 05 49 05 6C 
  1449)     12691.5  Rx         0005  4  06 34 05 E9 
  1450)     12691.8  Rx         0002  2  08 DE 
  1451)     12732.8  Rx         0005  4  06 0D 05 E6 
  1452)     12733.3  Rx         0002  2  08 A3 
  1453)     12754.2  Rx         0010  8  06 1B 06 F7 05 49 05 6C 
  1454)     12763.3  Rx         0005  4  06 05 05 E6 
  1455)     12763.7  Rx         0002  2  08 6C 
  1456)     12800.5  Rx         0202  1  01 
  1457)     12801.0  Rx         0006  2  00 01 
  1458)     12801.1  Rx         0011  4  00 C0 00 1F 
  1459)     12801.3  Rx         0182  2  00 0E 
  1460)     12801.4  Rx         0183  2  01 09 
  1461)     12801.8  Rx         0005  4  06 07 05 E7 
  1462)     12803.1  Rx         0002  2  08 40 
  1463)     12832.2  Rx         0010  8  06 10 06 F1 05 48 05 6C 
  1464)     12843.4  Rx         0005  4  06 06 05 E6 
  1465)     12843.9  Rx         0002  2  08 1F 
  1466)     12883.8  Rx         0005  4  06 07 05 E8 
  1467)     12884.4  Rx         0002  2  08 0C 
  1468)     12901.0  Tx         0202  1  00 
  1469)     12902.3  Rx         0006  2  00 01 
  1470)     12902.6  Rx         0011  4  00 C0 00 1F 
  1471)     12902.7  Rx         0182  2  00 0E 
  1472)     12902.8  Rx         0183  2  01 09 
  1473)     12909.2  Rx         0010  8  05 FB 06 DB 05 4A 05 70 
  1474)     12922.7  Rx         0005  4  06 05 05 E9 
  1475)     12923.4  Rx         0002  2  07 FF 
  1476)     12960.6  Rx         0202  1  01 
  1477)     12961.9  Rx         0006  2  00 01 
  1478)     12962.7  Rx         0011  4  00 C0 00 1F 
  1479)     12963.4  Rx         0182  2  00 0E 
  1480)     12963.5  Rx         0183  2  01 09 
  1481)     12963.8  Rx         0005  4  06 0D 05 E8 
  1482)     12964.9  Rx         0002  2  07 FF 
  1483)     12989.6  Rx         0010  8  05 D3 06 B4 05 4B 05 6D 
  1484)     12995.9  Rx         0005  4  06 3E 05 E6 
  1485)     12996.4  Rx         0002  2  08 10 
  1486)     13028.4  Rx         0005  4  06 A9 05 E9 
  1487)     13029.0  Rx         0002  2  08 3F 
  1488)     13051.9  Rx         0010  8  05 AE 06 8F 05 4A 05 6D 
  1489)     13066.4  Rx         0005  4  06 BD 05 E9 
  1490)     13066.9  Rx         0002  2  08 72 
  1491)     13098.5  Rx         0005  4  06 BE 05 E8 
  1492)     13099.1  Rx         0002  2  08 A8 
  1493)     13099.5  Rx         0202  1  01 
  1494)     13100.2  Rx         0006  2  00 01 
  1495)     13100.4  Rx         0011  4  00 C0 00 1F 
  1496)     13100.5  Rx         0182  2  00 0E 
  1497)     13100.6  Rx         0183  2  01 09 
  1498)     13121.9  Rx         0010  8  05 98 06 71 05 49 05 6F 
  1499)     13130.5  Rx         0005  4  06 BD 05 E7 
  1500)     13131.2  Rx         0002  2  08 DC 
  1501)     13157.6  Rx         0005  4  06 BB 05 E9 
  1502)     13158.2  Rx         0002  2  09 0E 
  1503)     13180.9  Rx         0010  8  05 93 06 6F 05 48 05 6E 
  1504)     13189.4  Rx         0005  4  06 BF 05 E7 
  1505)     13189.8  Rx         0002  2  09 34 
  1506)     13220.1  Rx         0005  4  06 BD 05 E8 
  1507)     13220.6  Rx         0202  1  01 
  1508)     13220.7  Rx         0002  2  09 39 
  1509)     13221.5  Rx         0006  2  00 01 
  1510)     13221.6  Rx         0011  4  00 C0 00 1F 
  1511)     13221.9  Rx         0182  2  00 0E 
  1512)     13222.2  Rx         0183  2  01 09 
  1513)     13251.6  Rx         0010  8  05 94 06 7A 05 4B 05 6E 
  1514)     13260.1  Rx         0005  4  06 BC 05 E6 
  1515)     13260.6  Rx         0002  2  09 39 
  1516)     13299.7  Rx         0005  4  06 BF 05 EA 
  1517)     13300.2  Rx         0002  2  09 39 
  1518)     13323.4  Rx         0010  8  05 A3 06 85 05 4C 05 6F 
  1519)     13327.6  Rx         0005  4  06 BE 05 EA 
  1520)     13328.3  Rx         0002  2  09 39 
  1521)     13368.6  Rx         0005  4  06 BD 05 E7 
  1522)     13369.0  Rx         0002  2  09 3B 
  1523)     13369.6  Rx         0202  1  01 
  1524)     13370.2  Rx         0006  2  00 01 
  1525)     13370.4  Rx         0011  4  00 C0 00 1F 
  1526)     13370.4  Rx         0182  2  00 0E 
  1527)     13370.6  Rx         0183  2  01 09 
  1528)     13392.1  Rx         0010  8  05 B6 06 93 05 4C 05 6A 
  1529)     13396.5  Rx         0005  4  06 B9 05 E7 
  1530)     13399.4  Rx         0002  2  09 39 
  1531)     13427.1  Rx         0005  4  06 A8 05 E9 
  1532)     13427.7  Rx         0002  2  09 32 
  1533)     13449.2  Rx         0010  8  05 C3 06 A2 05 4B 05 72 
  1534)     13466.0  Rx         0005  4  06 97 05 E8 
  1535)     13467.1  Rx         0002  2  09 28 
  1536)     13493.9  Rx         0005  4  06 80 05 E6 
  1537)     13494.6  Rx         0002  2  09 15 
  1538)     13495.9  Rx         0202  1  01 
  1539)     13496.8  Rx         0006  2  00 01 
  1540)     13497.0  Rx         0011  4  00 C0 00 1F 
  1541)     13497.1  Rx         0182  2  00 0E 
  1542)     13497.2  Rx         0183  2  01 09 
  1543)     13517.0  Rx         0010  8  05 D5 06 B5 05 4B 05 6B 
  1544)     13525.5  Rx         0005  4  06 73 05 EA 
  1545)     13525.8  Rx         0002  2  09 00 
  1546)     13556.3  Rx         0005  4  06 6F 05 E8 
  1547)     13557.4  Rx         0002  2  08 EA 
  1548)     13588.5  Rx         0010  8  05 E5 06 C2 05 47 05 6E 
  1549)     13603.8  Rx         0005  4  06 71 05 E5 
  1550)     13607.1  Rx         0002  2  08 D5 
  1551)     13647.1  Rx         0005  4  06 72 05 E7 
  1552)     13648.3  Rx         0002  2  08 C5 
  1553)     13652.6  Rx         0202  1  01 
  1554)     13653.2  Rx         0006  2  00 01 
  1555)     13653.4  Rx         0011  4  00 C0 00 1F 
  1556)     13653.5  Rx         0182  2  00 0E 
  1557)     13653.6  Rx         0183  2  01 09 
  1558)     13678.3  Rx         0010  8  05 EE 06 C7 05 49 05 6E 
  1559)     13683.2  Rx         0005  4  06 70 05 E8 
  1560)     13683.9  Rx         0002  2  08 BB 
  1561)     13717.6  Rx         0005  4  06 6E 05 E7 
  1562)     13717.9  Rx         0002  2  08 B4 
  1563)     13739.7  Rx         0010  8  05 EB 06 C7 05 49 05 6B 
  1564)     13748.4  Rx         0005  4  06 72 05 E7 
  1565)     13752.1  Rx         0002  2  08 B4 
  1566)     13784.3  Rx         0005  4  06 5E 05 E8 
  1567)     13784.8  Rx         0002  2  08 B1 
  1568)     13787.5  Rx         0202  1  01 
  1569)     13788.4  Rx         0006  2  00 01 
  1570)     13788.5  Rx         0011  4  00 C0 00 1F 
  1571)     13788.6  Rx         0182  2  00 0E 
  1572)     13788.8  Rx         0183  2  01 09 
  1573)     13807.1  Rx         0010  8  05 D4 06 C4 05 4B 05 6D 
  1574)     13816.0  Rx         0005  4  06 29 05 E8 
  1575)     13816.6  Rx         0002  2  08 9C 
  1576)     13843.5  Rx         0005  4  06 08 05 E7 
  1577)     13843.9  Rx         0002  2  08 7D 
  1578)     13866.0  Rx         0010  8  05 D0 06 AE 05 4A 05 6E 
  1579)     13871.9  Rx         0005  4  06 08 05 E7 
  1580)     13875.5  Rx         0002  2  08 5E 
  1581)     13902.0  Tx         0202  1  00 
  1582)     13903.3  Rx         0006  2  00 01 
  1583)     13904.1  Rx         0011  4  00 C0 00 1F 
  1584)     13904.8  Rx         0182  2  00 0E 
  1585)     13905.5  Rx         0183  2  01 09 
  1586)     13918.4  Rx         0005  4  06 08 05 E7 
  1587)     13921.2  Rx         0002  2  08 42 
  1588)     13939.0  Rx         0202  1  01 
  1589)     13939.6  Rx         0006  2  00 01 
  1590)     13939.8  Rx         0011  4  00 C0 00 1F 
  1591)     13939.9  Rx         0182  2  00 0E 
  1592)     13940.1  Rx         0183  2  01 09 
  1593)     13960.6  Rx         0010  8  05 C3 06 A2 05 4A 05 6C 
  1594)     13969.1  Rx         0005  4  06 0B 05 EA 
  1595)     13969.9  Rx         0002  2  08 23 
  1596)     14021.4  Rx         0005  4  06 0A 05 E8 
  1597)     14022.0  Rx         0002  2  08 0B 
  1598)     14054.9  Rx         0010  8  05 AC 06 8E 05 4C 05 71 
  1599)     14059.7  Rx         0005  4  06 0A 05 EA 
  1600)     14060.2  Rx         0002  2  08 02 
  1601)     14101.3  Rx         0005  4  06 06 05 EA 
  1602)     14101.5  Rx         0002  2  08 02 
  1603)     14106.0  Rx         0202  1  01 
  1604)     14106.7  Rx         0006  2  00 01 
  1605)     14106.9  Rx         0011  4  00 C0 00 1F 
  1606)     14107.1  Rx         0182  2  00 0E 
  1607)     14107.2  Rx         0183  2  01 09 
  1608)     14122.9  Rx         0010  8  05 9E 06 7D 05 4B 05 6B 
  1609)     14132.4  Rx         0005  4  06 05 05 E9 
  1610)     14133.4  Rx         0002  2  08 00 
  1611)     14171.8  Rx         0005  4  06 06 05 E7 
  1612)     14172.3  Rx         0002  2  08 00 
  1613)     14193.6  Rx         0010  8  05 8F 06 6E 05 4B 05 6D 
  1614)     14202.2  Rx         0005  4  06 07 05 E8 
  1615)     14202.6  Rx         0002  2  07 FF 
  1616)     14240.6  Rx         0005  4  06 0A 05 E8 
  1617)     14241.2  Rx         0002  2  07 FF 
  1618)     14247.2  Rx         0202  1  01 
  1619)     14247.7  Rx         0006  2  00 01 
  1620)     14247.9  Rx         0011  4  00 C0 00 1F 
  1621)     14248.0  Rx         0182  2  00 0E 
  1622)     14248.1  Rx         0183  2  01 09 
  1623)     14258.2  Rx         0010  8  05 84 06 62 05 48 05 6B 
  1624)     14269.3  Rx         0005  4  06 08 05 E9 
  1625)     14269.5  Rx         0002  2  07 FF 
  1626)     14314.9  Rx         0005  4  06 06 05 EC 
  1627)     14315.9  Rx         0002  2  07 FF 
  1628)     14344.3  Rx         0010  8  05 74 06 4F 05 4B 05 6D 
  1629)     14353.4  Rx         0005  4  06 08 05 E9 
  1630)     14353.9  Rx         0002  2  08 00 
  1631)     14403.4  Rx         0005  4  06 0A 05 E8 
  1632)     14404.1  Rx         0002  2  08 00 
  1633)     14409.9  Rx         0202  1  01 
  1634)     14410.9  Rx         0006  2  00 01 
  1635)     14411.0  Rx         0011  4  00 C0 00 1F 
  1636)     14411.2  Rx         0182  2  00 0E 
  1637)     14411.4  Rx         0183  2  01 09 
  1638)     14416.9  Rx         0010  8  05 65 06 41 05 48 05 6D 
  1639)     14431.9  Rx         0005  4  06 09 05 E6 
  1640)     14433.9  Rx         0002  2  08 00 
  1641)     14475.6  Rx         0005  4  06 09 05 E6 
  1642)     14476.0  Rx         0002  2  08 00 
  1643)     14497.4  Rx         0010  8  05 63 06 3E 05 4A 05 6E 
  1644)     14507.0  Rx         0005  4  06 08 05 E9 
  1645)     14507.5  Rx         0002  2  08 00 
  1646)     14534.9  Rx         0005  4  06 0B 05 EA 
  1647)     14535.4  Rx         0002  2  08 02 
  1648)     14542.9  Rx         0202  1  01 
  1649)     14543.3  Rx         0006  2  00 01 
  1650)     14543.5  Rx         0011  4  00 C0 00 1F 
  1651)     14543.5  Rx         0182  2  00 0E 
  1652)     14543.7  Rx         0183  2  01 09 
  1653)     14546.1  Rx         0010  8  05 63 06 3E 05 48 05 70 
  1654)     14563.7  Rx         0005  4  06 08 05 E9 
  1655)     14563.9  Rx         0002  2  08 02 
  1656)     14603.0  Rx         0005  4  06 04 05 E8 
  1657)     14604.3  Rx         0002  2  08 00 
  1658)     14625.7  Rx         0010  8  05 62 06 41 05 48 05 6E 
  1659)     14630.9  Rx         0005  4  06 07 05 E6 
  1660)     14631.2  Rx         0002  2  08 00 
  1661)     14666.4  Rx         0005  4  06 07 05 E9 
  1662)     14666.9  Rx         0002  2  08 00 
  1663)     14689.1  Rx         0202  1  01 
  1664)     14690.0  Rx         0006  2  00 01 
  1665)     14690.2  Rx         0011  4  00 C0 00 1F 
  1666)     14690.4  Rx         0182  2  00 0E 
  1667)     14690.4  Rx         0183  2  01 09 
  1668)     14694.4  Rx         0010  8  05 65 06 43 05 4B 05 6E 
  1669)     14713.7  Rx         0005  4  06 05 05 E5 
  1670)     14714.2  Rx         0002  2  07 FF 
  1671)     14753.1  Rx         0005  4  06 09 05 E7 
  1672)     14753.6  Rx         0002  2  07 FF 
  1673)     14775.1  Rx         0010  8  05 62 06 42 05 49 05 6C 
  1674)     14783.1  Rx         0005  4  06 09 05 E6 
  1675)     14783.9  Rx         0002  2  07 FF 
  1676)     14810.6  Rx         0005  4  06 0B 05 E9 
  1677)     14811.2  Rx         0002  2  08 00 
  1678)     14831.4  Rx         0202  1  01 
  1679)     14832.0  Rx         0006  2  00 01 
  1680)     14832.1  Rx         0011  4  00 C0 00 1F 
  1681)     14832.3  Rx         0182  2  00 0E 
  1682)     14832.5  Rx         0183  2  01 09 
  1683)     14833.1  Rx         0010  8  05 63 06 3F 05 4A 05 6E 
  1684)     14850.6  Rx         0005  4  06 0A 05 E6 
  1685)     14851.2  Rx         0002  2  08 00 
  1686)     14889.1  Rx         0005  4  06 09 05 E6 
  1687)     14889.5  Rx         0002  2  08 02 
  1688)     14900.3  Tx         0202  1  00 
  1689)     14901.5  Rx         0006  2  00 01 
  1690)     14902.4  Rx         0011  4  00 C0 00 1F 
  1691)     14903.1  Rx         0182  2  00 0E 
  1692)     14903.7  Rx         0183  2  01 09 
  1693)     14910.8  Rx         0010  8  05 66 06 40 05 49 05 6C 
  1694)     14928.1  Rx         0005  4  06 0A 05 E7 
  1695)     14928.6  Rx         0002  2  08 04 
  1696)     14956.4  Rx         0005  4  06 07 05 E6 
  1697)     14956.9  Rx         0002  2  08 02 
  1698)     14975.8  Rx         0202  1  01 
  1699)     14976.9  Rx         0006  2  00 01 
  1700)     14977.1  Rx         0011  4  00 C0 00 1F 
  1701)     14977.2  Rx         0182  2  00 0E 
  1702)     14977.4  Rx         0183  2  01 09 
  1703)     14978.0  Rx         0010  8  05 63 06 3E 05 47 05 6F 
  1704)     14994.9  Rx         0005  4  06 09 05 E8 
  1705)     14995.4  Rx         0002  2  08 02 
  1706)     15028.8  Rx         0005  4  05 FE 05 E7 
  1707)     15029.5  Rx         0002  2  07 FF 
  1708)     15056.1  Rx         0010  8  05 61 06 43 05 49 05 6D 
  1709)     15066.0  Rx         0005  4  05 FF 05 E8 
  1710)     15067.9  Rx         0002  2  07 FB 
  1711)     15107.2  Rx         0005  4  05 FD 05 E7 
  1712)     15107.9  Rx         0002  2  07 F8 
  1713)     15131.1  Rx         0010  8  05 63 06 40 05 47 05 6F 
  1714)     15132.1  Rx         0202  1  01 
  1715)     15132.6  Rx         0006  2  00 01 
  1716)     15132.7  Rx         0011  4  00 C0 00 1F 
  1717)     15132.8  Rx         0182  2  00 0E 
  1718)     15133.0  Rx         0183  2  01 09 
  1719)     15147.8  Rx         0005  4  05 FD 05 E8 
  1720)     15150.1  Rx         0002  2  07 F4 
  1721)     15180.5  Rx         0005  4  05 FD 05 E7 
  1722)     15181.1  Rx         0002  2  07 F3 
  1723)     15201.9  Rx         0010  8  05 64 06 43 05 49 05 70 
  1724)     15216.7  Rx         0005  4  05 FB 05 E9 
  1725)     15219.3  Rx         0002  2  07 ED 
  1726)     15247.2  Rx         0005  4  05 FA 05 E7 
  1727)     15247.6  Rx         0002  2  07 EC 
  1728)     15268.7  Rx         0010  8  05 65 06 43 05 49 05 6B 
  1729)     15269.5  Rx         0202  1  01 
  1730)     15270.7  Rx         0006  2  00 01 
  1731)     15271.6  Rx         0011  4  00 C0 00 1F 
  1732)     15272.3  Rx         0182  2  00 0E 
  1733)     15272.9  Rx         0183  2  01 09 
  1734)     15283.8  Rx         0005  4  05 FC 05 E6 
  1735)     15286.7  Rx         0002  2  07 EC 
  1736)     15316.5  Rx         0005  4  05 FF 05 E9 
  1737)     15316.8  Rx         0002  2  07 EC 
  1738)     15338.1  Rx         0010  8  05 5F 06 40 05 47 05 6F 
  1739)     15348.6  Rx         0005  4  05 FC 05 EB 
  1740)     15351.8  Rx         0002  2  07 EC 
  1741)     15387.9  Rx         0005  4  05 FC 05 E9 
  1742)     15389.0  Rx         0002  2  07 EC 
  1743)     15414.1  Rx         0010  8  05 5E 06 3C 05 48 05 6F 
  1744)     15417.6  Rx         0202  1  01 
  1745)     15418.0  Rx         0006  2  00 01 
  1746)     15418.2  Rx         0011  4  00 C0 00 1F 
  1747)     15418.3  Rx         0182  2  00 0E 
  1748)     15418.4  Rx         0183  2  01 09 
  1749)     15427.0  Rx         0005  4  05 FE 05 E4 
  1750)     15430.6  Rx         0002  2  07 EC 
  1751)     15478.6  Rx         0010  8  05 58 06 3A 05 49 05 6E 
  1752)     15487.9  Rx         0005  4  05 FC 05 E9 
  1753)     15491.8  Rx         0002  2  07 ED 
  1754)     15525.6  Rx         0005  4  05 FC 05 EA 
  1755)     15526.2  Rx         0002  2  07 ED 
  1756)     15545.3  Rx         0010  8  05 59 06 38 05 49 05 6E 
  1757)     15549.2  Rx         0202  1  01 
  1758)     15550.4  Rx         0006  2  00 01 
  1759)     15551.3  Rx         0011  4  00 C0 00 1F 
  1760)     15552.0  Rx         0182  2  00 0E 
  1761)     15552.6  Rx         0183  2  01 09 
  1762)     15556.2  Rx         0005  4  06 00 05 EB 
  1763)     15557.3  Rx         0002  2  07 ED 
  1764)     15595.0  Rx         0005  4  05 FA 05 E7 
  1765)     15596.0  Rx         0002  2  07 ED 
  1766)     15611.9  Rx         0010  8  05 59 06 39 05 48 05 6D 
  1767)     15622.0  Rx         0005  4  05 FF 05 EA 
  1768)     15622.4  Rx         0002  2  07 ED 
  1769)     15663.4  Rx         0005  4  05 FF 05 EA 
  1770)     15664.3  Rx         0002  2  07 ED 
  1771)     15690.2  Rx         0010  8  05 5B 06 38 05 4A 05 6D 
  1772)     15700.7  Rx         0202  1  01 
  1773)     15701.2  Rx         0006  2  00 01 
  1774)     15701.4  Rx         0011  4  00 C0 00 1F 
  1775)     15701.5  Rx         0182  2  00 0E 
  1776)     15701.6  Rx         0183  2  01 09 
  1777)     15702.7  Rx         0005  4  05 FF 05 EA 
  1778)     15703.2  Rx         0002  2  07 EF 
  1779)     15747.9  Rx         0005  4  05 FC 05 E4 
  1780)     15748.3  Rx         0002  2  07 EF 
  1781)     15766.7  Rx         0010  8  05 5A 06 38 05 49 05 6C 
  1782)     15787.4  Rx         0005  4  05 FB 05 E8 
  1783)     15790.7  Rx         0002  2  07 ED 
  1784)     15834.2  Rx         0005  4  05 FB 05 E9 
  1785)     15834.7  Rx         0002  2  07 ED 
  1786)     15857.7  Rx         0010  8  05 59 06 3B 05 4B 05 6C 
  1787)     15861.2  Rx         0202  1  01 
  1788)     15862.4  Rx         0006  2  00 01 
  1789)     15863.3  Rx         0011  4  00 C0 00 1F 
  1790)     15863.4  Rx         0182  2  00 0E 
  1791)     15863.6  Rx         0183  2  01 09 
  1792)     15865.7  Rx         0005  4  05 FB 05 E7 
  1793)     15867.0  Rx         0002  2  07 EC 
  1794)     15893.4  Rx         0005  4  05 FE 05 E8 
  1795)     15893.8  Rx         0002  2  07 EC 
  1796)     15900.4  Tx         0202  1  00 
  1797)     15900.8  Rx         0006  2  00 01 
  1798)     15900.9  Rx         0011  4  00 C0 00 1F 
  1799)     15901.0  Rx         0182  2  00 0E 
  1800)     15901.1  Rx         0183  2  01 09 
  1801)     15903.6  Rx         0010  8  05 5A 06 3C 05 49 05 6F 
  1802)     15921.7  Rx         0005  4  05 FC 05 E6 
  1803)     15922.4  Rx         0002  2  07 EC 
  1804)     15961.1  Rx         0005  4  05 FC 05 E6 
  1805)     15961.4  Rx         0002  2  07 EC 
  1806)     15970.5  Rx         0010  8  05 5D 06 39 05 49 05 6D 
  1807)     15987.0  Rx         0202  1  01 
  1808)     15987.5  Rx         0006  2  00 01 
  1809)     15987.6  Rx         0011  4  00 C0 00 1F 
  1810)     15987.8  Rx         0182  2  00 0E 
  1811)     15987.9  Rx         0005  4  06 00 05 E9 
  1812)     15988.1  Rx         0183  2  01 09 
  1813)     15989.0  Rx         0002  2  07 ED 
  1814)     16016.7  Rx         0005  4  05 FD 05 E6 
  1815)     16017.1  Rx         0002  2  07 ED 
  1816)     16026.8  Rx         0010  8  05 58 06 3A 05 4B 05 6B 
  1817)     16044.1  Rx         0005  4  05 FC 05 E6 
  1818)     16044.7  Rx         0002  2  07 ED 
  1819)     16079.1  Rx         0005  4  05 FE 05 E7 
  1820)     16079.9  Rx         0002  2  07 ED 
  1821)     16105.8  Rx         0010  8  05 5D 06 3B 05 48 05 6A 
  1822)     16115.6  Rx         0202  1  01 
  1823)     16116.9  Rx         0006  2  00 01 
  1824)     16117.7  Rx         0011  4  00 C0 00 1F 
  1825)     16117.7  Rx         0182  2  00 0E 
  1826)     16117.8  Rx         0183  2  01 09 
  1827)     16118.0  Rx         0005  4  05 FB 05 E9 
  1828)     16120.4  Rx         0002  2  07 ED 
  1829)     16151.3  Rx         0005  4  05 FD 05 EA 
  1830)     16152.0  Rx         0002  2  07 ED 
  1831)     16172.8  Rx         0010  8  05 5A 06 3D 05 47 05 6C 
  1832)     16193.3  Rx         0005  4  05 FA 05 E7 
  1833)     16193.8  Rx         0002  2  07 EC 
  1834)     16220.3  Rx         0005  4  05 FE 05 EA 
  1835)     16220.6  Rx         0002  2  07 EC 
  1836)     16241.7  Rx         0010  8  05 5A 06 3D 05 46 05 6D 
  1837)     16250.5  Rx         0005  4  05 FE 05 E7 
  1838)     16250.9  Rx         0002  2  07 ED 
  1839)     16251.6  Rx         0202  1  01 
  1840)     16252.2  Rx         0006  2  00 01 
  1841)     16252.4  Rx         0011  4  00 C0 00 1F 
  1842)     16252.5  Rx         0182  2  00 0E 
  1843)     16252.7  Rx         0183  2  01 09 
  1844)     16279.2  Rx         0005  4  05 FD 05 E9 
  1845)     16279.4  Rx         0002  2  07 EC 
  1846)     16300.1  Rx         0010  8  05 5A 06 38 05 48 05 6D 
  1847)     16318.0  Rx         0005  4  05 FE 05 E9 
  1848)     16318.6  Rx         0002  2  07 ED 
  1849)     16356.7  Rx         0005  4  05 FE 05 E7 
  1850)     16357.1  Rx         0002  2  07 ED 
  1851)     16377.7  Rx         0010  8  05 59 06 3A 05 4A 05 6F 
  1852)     16395.4  Rx         0005  4  05 FB 05 E6 
  1853)     16395.7  Rx         0002  2  07 ED 
  1854)     16395.9  Rx         0202  1  01 
  1855)     16396.9  Rx         0006  2  00 01 
  1856)     16397.0  Rx         0011  4  00 C0 00 1F 
  1857)     16397.2  Rx         0182  2  00 0E 
  1858)     16397.4  Rx         0183  2  01 09 
  1859)     16447.8  Rx         0010  8  05 5B 06 3B 05 4A 05 6E 
  1860)     16468.3  Rx         0005  4  06 01 05 E5 
  1861)     16468.5  Rx         0002  2  07 EF 
  1862)     16503.6  Rx         0005  4  05 FE 05 E5 
  1863)     16504.4  Rx         0002  2  07 EF 
  1864)     16526.8  Rx         0010  8  05 5B 06 3A 05 48 05 6D 
  1865)     16545.2  Rx         0005  4  05 FA 05 E5 
  1866)     16545.5  Rx         0002  2  07 ED 
  1867)     16550.0  Rx         0202  1  01 
  1868)     16550.5  Rx         0006  2  00 01 
  1869)     16550.7  Rx         0011  4  00 C0 00 1F 
  1870)     16550.7  Rx         0182  2  00 0E 
  1871)     16550.9  Rx         0183  2  01 09 
  1872)     16575.4  Rx         0005  4  05 FF 05 E5 
  1873)     16576.6  Rx         0002  2  07 EF 
  1874)     16596.1  Rx         0010  8  05 5D 06 3B 05 48 05 6B 
  1875)     16617.2  Rx         0005  4  05 FD 05 E7 
  1876)     16617.6  Rx         0002  2  07 ED 
  1877)     16645.1  Rx         0005  4  05 FD 05 E5 
  1878)     16645.3  Rx         0002  2  07 EF 
  1879)     16666.1  Rx         0010  8  05 5B 06 39 05 48 05 70 
  1880)     16683.7  Rx         0005  4  05 FF 05 EB 
  1881)     16684.2  Rx         0002  2  07 ED 
  1882)     16686.0  Rx         0202  1  01 
  1883)     16687.3  Rx         0006  2  00 01 
  1884)     16688.1  Rx         0011  4  00 C0 00 1F 
  1885)     16688.8  Rx         0182  2  00 0E 
  1886)     16689.4  Rx         0183  2  01 09 
  1887)     16714.0  Rx         0005  4  05 FD 05 E7 
  1888)     16714.3  Rx         0002  2  07 ED 
  1889)     16735.2  Rx         0010  8  05 5B 06 3A 05 49 05 6B 
  1890)     16751.0  Rx         0005  4  05 FC 05 E8 
  1891)     16753.9  Rx         0002  2  07 EF 
  1892)     16789.2  Rx         0005  4  06 00 05 E6 
  1893)     16790.2  Rx         0002  2  07 EF 
  1894)     16813.9  Rx         0010  8  05 56 06 39 05 48 05 6D 
  1895)     16834.0  Rx         0005  4  05 FD 05 E9 
  1896)     16835.2  Rx         0002  2  07 EF 
  1897)     16843.2  Rx         0202  1  01 
  1898)     16843.6  Rx         0006  2  00 01 
  1899)     16843.8  Rx         0011  4  00 C0 00 1F 
  1900)     16844.0  Rx         0182  2  00 0E 
  1901)     16844.1  Rx         0183  2  01 09 
  1902)     16869.7  Rx         0005  4  05 FE 05 E9 
  1903)     16870.1  Rx         0002  2  07 EF 
  1904)     16889.6  Rx         0010  8  05 58 06 3C 05 49 05 6E 
  1905)     16900.8  Tx         0202  1  00 
  1906)     16902.1  Rx         0006  2  00 01 
  1907)     16902.9  Rx         0011  4  00 C0 00 1F 
  1908)     16903.8  Rx         0005  4  05 FC 05 E7 
  1909)     16904.4  Rx         0182  2  00 0E 
  1910)     16905.1  Rx         0183  2  01 09 
  1911)     16908.6  Rx         0002  2  07 ED 
