;$FILEVERSION=1.1
;$STARTTIME=41975.9886854282
;
;   C:\Documents and Settings\Administrator\Desktop\new rpm.trc
;
;   Start time: 12/2/2014 23:43:42.421.x
;
;   Message Number
;   |         Time Offset (ms)
;   |         |        Type
;   |         |        |        ID (hex)
;   |         |        |        |     Data Length Code
;   |         |        |        |     |   Data Bytes (hex) ...
;   |         |        |        |     |   |
;---+--   ----+----  --+--  ----+---  +  -+ -- -- -- -- -- -- --
     1)        15.1  Rx         0010  8  06 83 07 9D 04 90 04 D9 
     2)        17.4  Rx         0005  4  05 FD 07 74 
     3)        17.7  Rx         0002  2  0A 87 
     4)        44.9  Rx         0005  4  06 01 07 6F 
     5)        45.6  Rx         0002  2  0A 87 
     6)        63.8  Rx         0010  8  06 8A 07 9E 04 90 04 D6 
     7)        66.3  Rx         0005  4  05 FF 07 75 
     8)        66.7  Rx         0002  2  0A 87 
     9)        67.7  Rx         0202  1  00 
    10)        68.9  Rx         0006  2  00 01 
    11)        69.8  Rx         0011  4  00 C0 00 1F 
    12)        70.5  Rx         0182  2  00 03 
    13)        70.9  Rx         0183  2  01 00 
    14)        93.0  Rx         0005  4  05 FF 07 72 
    15)        93.8  Rx         0002  2  0A 89 
    16)       113.2  Rx         0010  8  06 88 07 9A 04 90 04 D9 
    17)       118.3  Rx         0005  4  06 00 07 73 
    18)       118.8  Rx         0002  2  0A 89 
    19)       128.9  Tx         0202  1  00 
    20)       129.1  Rx         0006  2  00 01 
    21)       129.3  Rx         0011  4  00 C0 00 1F 
    22)       129.4  Rx         0182  2  00 03 
    23)       129.5  Rx         0183  2  01 00 
    24)       144.9  Rx         0005  4  05 FE 07 6F 
    25)       145.3  Rx         0002  2  0A 89 
    26)       171.7  Rx         0010  8  06 85 07 9D 04 91 04 D9 
    27)       175.8  Rx         0005  4  05 FF 07 72 
    28)       176.4  Rx         0002  2  0A 89 
    29)       180.0  Rx         0202  1  00 
    30)       180.6  Rx         0006  2  00 01 
    31)       180.8  Rx         0011  4  00 C0 00 1F 
    32)       181.0  Rx         0182  2  00 03 
    33)       181.1  Rx         0183  2  01 00 
    34)       211.2  Rx         0005  4  05 FF 07 80 
    35)       211.5  Rx         0002  2  0A 8C 
    36)       228.7  Rx         0010  8  06 87 07 9C 04 8F 04 D7 
    37)       231.1  Rx         0005  4  06 00 07 A5 
    38)       231.8  Rx         0002  2  0A 9A 
    39)       255.4  Rx         0005  4  05 FE 07 C3 
    40)       255.9  Rx         0002  2  0A B2 
    41)       271.9  Rx         0010  8  06 87 07 9B 04 8F 04 DA 
    42)       274.0  Rx         0005  4  05 FC 07 D7 
    43)       274.5  Rx         0002  2  0A CF 
    44)       277.5  Rx         0202  1  00 
    45)       278.2  Rx         0006  2  00 01 
    46)       278.4  Rx         0011  4  00 C0 00 1F 
    47)       278.6  Rx         0182  2  00 03 
    48)       278.7  Rx         0183  2  01 00 
    49)       302.7  Rx         0005  4  05 FF 07 D3 
    50)       303.2  Rx         0002  2  0A EB 
    51)       326.3  Rx         0010  8  06 8C 07 9F 04 90 04 D6 
    52)       328.9  Rx         0005  4  06 00 07 D6 
    53)       329.2  Rx         0002  2  0B 08 
    54)       356.5  Rx         0005  4  06 00 07 D2 
    55)       357.0  Rx         0002  2  0B 20 
    56)       376.5  Rx         0010  8  06 94 07 AA 04 90 04 D9 
    57)       386.2  Rx         0005  4  06 00 07 D5 
    58)       386.7  Rx         0002  2  0B 2E 
    59)       389.3  Rx         0202  1  00 
    60)       389.9  Rx         0006  2  00 01 
    61)       390.1  Rx         0011  4  00 C0 00 1F 
    62)       390.2  Rx         0182  2  00 03 
    63)       390.4  Rx         0183  2  01 00 
    64)       424.8  Rx         0005  4  05 FB 07 D3 
    65)       425.2  Rx         0002  2  0B 31 
    66)       458.7  Rx         0010  8  06 A4 07 B8 04 8F 04 D8 
    67)       463.3  Rx         0005  4  06 00 07 D3 
    68)       463.8  Rx         0002  2  0B 31 
    69)       499.7  Rx         0005  4  06 02 07 D6 
    70)       500.0  Rx         0002  2  0B 31 
    71)       529.3  Rx         0010  8  06 B3 07 C7 04 90 04 D8 
    72)       532.0  Rx         0005  4  05 FF 07 D6 
    73)       532.6  Rx         0002  2  0B 31 
    74)       536.5  Rx         0202  1  00 
    75)       537.8  Rx         0006  2  00 01 
    76)       538.6  Rx         0011  4  00 C0 00 1F 
    77)       539.3  Rx         0182  2  00 03 
    78)       540.0  Rx         0183  2  01 00 
    79)       575.4  Rx         0005  4  06 01 07 D6 
    80)       576.0  Rx         0002  2  0B 33 
    81)       600.2  Rx         0010  8  06 C5 07 DD 04 8E 04 D9 
    82)       602.3  Rx         0005  4  05 FF 07 D2 
    83)       603.0  Rx         0002  2  0B 31 
    84)       633.5  Rx         0005  4  06 00 07 D7 
    85)       634.1  Rx         0002  2  0B 33 
    86)       658.1  Rx         0010  8  06 D6 07 EA 04 92 04 D7 
    87)       661.4  Rx         0005  4  06 02 07 D4 
    88)       663.6  Rx         0002  2  0B 33 
    89)       669.8  Rx         0202  1  00 
    90)       670.3  Rx         0006  2  00 01 
    91)       670.5  Rx         0011  4  00 C0 00 1F 
    92)       670.7  Rx         0182  2  00 03 
    93)       670.7  Rx         0183  2  01 00 
    94)       701.4  Rx         0005  4  05 FF 07 D8 
    95)       704.2  Rx         0002  2  0B 35 
    96)       728.7  Rx         0010  8  06 E2 07 FA 04 91 04 DB 
    97)       741.5  Rx         0005  4  05 FE 07 D6 
    98)       744.0  Rx         0002  2  0B 35 
    99)       776.3  Rx         0005  4  06 00 07 D1 
   100)       777.9  Rx         0002  2  0B 33 
   101)       809.2  Rx         0010  8  06 ED 08 09 04 90 04 DB 
   102)       814.1  Rx         0005  4  06 00 07 D2 
   103)       816.1  Rx         0002  2  0B 33 
   104)       825.3  Rx         0202  1  00 
   105)       826.6  Rx         0006  2  00 01 
   106)       827.5  Rx         0011  4  00 C0 00 1F 
   107)       828.1  Rx         0182  2  00 03 
   108)       828.7  Rx         0183  2  01 00 
   109)       856.9  Rx         0005  4  05 FD 07 D9 
   110)       858.9  Rx         0002  2  0B 33 
   111)       888.9  Rx         0010  8  06 EE 08 04 04 8E 04 D9 
   112)       894.6  Rx         0005  4  05 FF 07 D5 
   113)       895.8  Rx         0002  2  0B 33 
   114)       932.6  Rx         0005  4  06 00 07 D4 
   115)       933.0  Rx         0002  2  0B 31 
   116)       957.0  Rx         0010  8  06 F1 08 04 04 8C 04 DA 
   117)       959.5  Rx         0005  4  06 00 07 D1 
   118)       959.8  Rx         0002  2  0B 31 
   119)       971.3  Rx         0202  1  00 
   120)       971.9  Rx         0006  2  00 01 
   121)       972.0  Rx         0011  4  00 C0 00 1F 
   122)       972.1  Rx         0182  2  00 03 
   123)       972.3  Rx         0183  2  01 00 
   124)       992.6  Rx         0005  4  06 00 07 D2 
   125)       995.3  Rx         0002  2  0B 31 
   126)      1027.9  Rx         0010  8  06 E8 08 00 04 8C 04 DA 
   127)      1033.4  Rx         0005  4  05 FF 07 D3 
   128)      1034.4  Rx         0002  2  0B 31 
   129)      1071.5  Rx         0005  4  06 01 07 CD 
   130)      1071.7  Rx         0002  2  0B 2E 
   131)      1096.3  Rx         0010  8  06 E3 07 FD 04 90 04 DA 
   132)      1103.2  Rx         0005  4  05 FE 07 B5 
   133)      1103.8  Rx         0002  2  0B 25 
   134)      1121.4  Rx         0202  1  00 
   135)      1122.3  Rx         0006  2  00 01 
   136)      1122.5  Rx         0011  4  00 C0 00 1F 
   137)      1122.5  Rx         0182  2  00 03 
   138)      1122.7  Rx         0183  2  01 00 
   139)      1129.1  Tx         0202  1  00 
   140)      1130.3  Rx         0006  2  00 01 
   141)      1131.2  Rx         0011  4  00 C0 00 1F 
   142)      1131.9  Rx         0182  2  00 03 
   143)      1132.5  Rx         0183  2  01 00 
   144)      1178.0  Rx         0010  8  06 E3 07 FD 04 91 04 D7 
   145)      1183.0  Rx         0005  4  06 01 07 6E 
   146)      1183.5  Rx         0002  2  0B 08 
   147)      1231.7  Rx         0005  4  06 00 07 4B 
   148)      1231.9  Rx         0002  2  0A E0 
   149)      1256.3  Rx         0010  8  06 E7 07 F9 04 8F 04 D9 
   150)      1259.1  Rx         0005  4  05 FE 07 20 
   151)      1259.3  Rx         0002  2  0A AF 
   152)      1284.4  Rx         0202  1  00 
   153)      1284.9  Rx         0006  2  00 01 
   154)      1285.1  Rx         0011  4  00 C0 00 1F 
   155)      1285.3  Rx         0182  2  00 03 
   156)      1285.4  Rx         0183  2  01 00 
   157)      1304.1  Rx         0005  4  05 FD 07 07 
   158)      1304.6  Rx         0002  2  0A 74 
   159)      1338.9  Rx         0010  8  06 DA 07 F2 04 90 04 D8 
   160)      1341.6  Rx         0005  4  06 00 07 06 
   161)      1341.9  Rx         0002  2  0A 3A 
   162)      1372.6  Rx         0005  4  06 01 07 0A 
   163)      1373.2  Rx         0002  2  0A 09 
   164)      1396.8  Rx         0010  8  06 CD 07 E0 04 90 04 DB 
   165)      1402.4  Rx         0005  4  05 FE 07 06 
   166)      1402.6  Rx         0002  2  09 EC 
   167)      1421.3  Rx         0202  1  00 
   168)      1422.1  Rx         0006  2  00 01 
   169)      1422.3  Rx         0011  4  00 C0 00 1F 
   170)      1422.4  Rx         0182  2  00 03 
   171)      1422.5  Rx         0183  2  01 00 
   172)      1440.1  Rx         0005  4  05 FC 07 0F 
   173)      1440.6  Rx         0002  2  09 DB 
   174)      1476.3  Rx         0010  8  06 B5 07 CB 04 92 04 D7 
   175)      1479.5  Rx         0005  4  05 FE 07 23 
   176)      1479.8  Rx         0002  2  09 DB 
   177)      1515.3  Rx         0005  4  06 01 07 40 
   178)      1515.6  Rx         0002  2  09 EC 
   179)      1548.1  Rx         0010  8  06 96 07 AA 04 90 04 DA 
   180)      1553.2  Rx         0005  4  05 FE 07 5D 
   181)      1553.7  Rx         0002  2  0A 04 
   182)      1577.7  Rx         0202  1  00 
   183)      1578.9  Rx         0006  2  00 01 
   184)      1579.8  Rx         0011  4  00 C0 00 1F 
   185)      1580.0  Rx         0182  2  00 03 
   186)      1580.2  Rx         0183  2  01 00 
   187)      1598.1  Rx         0005  4  05 FC 07 6F 
   188)      1598.6  Rx         0002  2  0A 22 
   189)      1631.5  Rx         0010  8  06 74 07 8A 04 91 04 D7 
   190)      1636.4  Rx         0005  4  05 FF 07 85 
   191)      1636.9  Rx         0002  2  0A 46 
   192)      1667.2  Rx         0005  4  06 00 07 A2 
   193)      1667.7  Rx         0002  2  0A 71 
   194)      1690.9  Rx         0010  8  06 5E 07 74 04 91 04 D7 
   195)      1693.7  Rx         0005  4  05 FE 07 BA 
   196)      1695.9  Rx         0002  2  0A 9C 
   197)      1719.4  Rx         0202  1  00 
   198)      1720.3  Rx         0006  2  00 01 
   199)      1720.5  Rx         0011  4  00 C0 00 1F 
   200)      1720.6  Rx         0182  2  00 03 
   201)      1720.7  Rx         0183  2  01 00 
   202)      1736.9  Rx         0005  4  06 02 07 CA 
   203)      1737.2  Rx         0002  2  0A C3 
   204)      1765.4  Rx         0010  8  06 5B 07 72 04 8D 04 D7 
   205)      1778.1  Rx         0005  4  06 02 07 E7 
   206)      1778.8  Rx         0002  2  0A EB 
   207)      1805.8  Rx         0005  4  05 FC 08 1C 
   208)      1806.3  Rx         0002  2  0B 1D 
   209)      1830.5  Rx         0010  8  06 61 07 77 04 8F 04 D7 
   210)      1834.0  Rx         0005  4  05 FE 08 41 
   211)      1834.4  Rx         0002  2  0B 52 
   212)      1859.3  Rx         0202  1  00 
   213)      1859.8  Rx         0006  2  00 01 
   214)      1860.6  Rx         0011  4  00 C0 00 1F 
   215)      1861.3  Rx         0182  2  00 03 
   216)      1861.9  Rx         0183  2  01 00 
   217)      1878.8  Rx         0005  4  05 FF 08 44 
   218)      1879.4  Rx         0002  2  0B 80 
   219)      1911.6  Rx         0010  8  06 71 07 8B 04 8F 04 D7 
   220)      1925.9  Rx         0005  4  05 FE 08 46 
   221)      1926.2  Rx         0002  2  0B A8 
   222)      1965.0  Rx         0005  4  05 FD 08 45 
   223)      1965.7  Rx         0002  2  0B CC 
   224)      1991.8  Rx         0010  8  06 8F 07 A8 04 8F 04 D9 
   225)      2006.2  Rx         0005  4  05 FD 08 43 
   226)      2006.6  Rx         0002  2  0B E6 
   227)      2036.8  Rx         0202  1  00 
   228)      2037.7  Rx         0006  2  00 01 
   229)      2037.8  Rx         0011  4  00 C0 00 1F 
   230)      2037.9  Rx         0182  2  00 03 
   231)      2038.1  Rx         0183  2  01 00 
   232)      2052.4  Rx         0005  4  05 FF 08 47 
   233)      2052.8  Rx         0002  2  0B F2 
   234)      2076.4  Rx         0010  8  06 B8 07 CF 04 8F 04 D7 
   235)      2081.4  Rx         0005  4  05 FE 08 46 
   236)      2082.9  Rx         0002  2  0B F4 
   237)      2109.4  Rx         0005  4  05 FE 08 45 
   238)      2109.8  Rx         0002  2  0B F4 
   239)      2128.9  Tx         0202  1  00 
   240)      2129.1  Rx         0006  2  00 01 
   241)      2129.3  Rx         0011  4  00 C0 00 1F 
   242)      2129.4  Rx         0182  2  00 03 
   243)      2129.6  Rx         0183  2  01 00 
   244)      2133.3  Rx         0010  8  06 E7 07 FB 04 8E 04 D9 
   245)      2150.7  Rx         0005  4  06 00 08 45 
   246)      2151.3  Rx         0002  2  0B F4 
   247)      2174.6  Rx         0202  1  00 
   248)      2175.1  Rx         0006  2  00 01 
   249)      2175.3  Rx         0011  4  00 C0 00 1F 
   250)      2175.4  Rx         0182  2  00 03 
   251)      2175.6  Rx         0183  2  01 00 
   252)      2189.1  Rx         0005  4  05 FC 08 47 
   253)      2189.5  Rx         0002  2  0B F5 
   254)      2212.8  Rx         0010  8  07 06 08 1D 04 8F 04 D9 
   255)      2216.5  Rx         0005  4  05 FE 08 44 
   256)      2217.0  Rx         0002  2  0B F5 
   257)      2252.1  Rx         0005  4  05 FC 08 46 
   258)      2254.6  Rx         0002  2  0B F5 
   259)      2284.6  Rx         0010  8  07 1E 08 3C 04 8E 04 D8 
   260)      2298.4  Rx         0005  4  05 FC 08 46 
   261)      2300.4  Rx         0002  2  0B F5 
   262)      2334.8  Rx         0202  1  00 
   263)      2335.7  Rx         0006  2  00 01 
   264)      2335.9  Rx         0011  4  00 C0 00 1F 
   265)      2336.0  Rx         0182  2  00 03 
   266)      2336.1  Rx         0183  2  01 00 
   267)      2345.8  Rx         0005  4  05 FD 08 43 
   268)      2348.9  Rx         0002  2  0B F4 
   269)      2372.4  Rx         0010  8  07 2B 08 48 04 91 04 D6 
   270)      2382.2  Rx         0005  4  05 FE 08 47 
   271)      2384.4  Rx         0002  2  0B F5 
   272)      2417.1  Rx         0005  4  05 FF 08 44 
   273)      2417.5  Rx         0002  2  0B F4 
   274)      2440.5  Rx         0010  8  07 3F 08 5B 04 91 04 DB 
   275)      2451.0  Rx         0005  4  05 FC 08 45 
   276)      2453.6  Rx         0002  2  0B F4 
   277)      2483.0  Rx         0202  1  00 
   278)      2483.6  Rx         0006  2  00 01 
   279)      2483.7  Rx         0011  4  00 C0 00 1F 
   280)      2483.9  Rx         0182  2  00 03 
   281)      2484.0  Rx         0183  2  01 00 
   282)      2487.0  Rx         0005  4  05 FE 08 47 
   283)      2490.7  Rx         0002  2  0B F4 
   284)      2519.9  Rx         0010  8  07 4B 08 60 04 8D 04 DC 
   285)      2527.9  Rx         0005  4  05 FF 08 45 
   286)      2530.8  Rx         0002  2  0B F4 
   287)      2564.9  Rx         0005  4  05 FA 08 43 
   288)      2565.4  Rx         0002  2  0B F4 
   289)      2589.5  Rx         0010  8  07 4E 08 69 04 8F 04 D9 
   290)      2593.5  Rx         0005  4  06 01 08 42 
   291)      2595.6  Rx         0002  2  0B F2 
   292)      2637.4  Rx         0202  1  00 
   293)      2638.4  Rx         0006  2  00 01 
   294)      2638.6  Rx         0011  4  00 C0 00 1F 
   295)      2638.7  Rx         0182  2  00 03 
   296)      2638.9  Rx         0183  2  01 00 
   297)      2641.9  Rx         0005  4  05 FF 08 45 
   298)      2642.4  Rx         0002  2  0B F2 
   299)      2681.5  Rx         0010  8  07 4F 08 68 04 91 04 D8 
   300)      2689.2  Rx         0005  4  06 03 08 45 
   301)      2689.7  Rx         0002  2  0B F2 
   302)      2737.3  Rx         0005  4  05 FE 08 43 
   303)      2737.8  Rx         0002  2  0B F2 
   304)      2762.8  Rx         0010  8  07 51 08 64 04 8D 04 D6 
   305)      2766.9  Rx         0005  4  05 FE 08 45 
   306)      2767.2  Rx         0002  2  0B F2 
   307)      2796.8  Rx         0202  1  00 
   308)      2797.3  Rx         0006  2  00 01 
   309)      2797.5  Rx         0011  4  00 C0 00 1F 
   310)      2797.6  Rx         0182  2  00 03 
   311)      2797.7  Rx         0183  2  01 00 
   312)      2797.9  Rx         0005  4  05 FF 08 43 
   313)      2798.8  Rx         0002  2  0B F2 
   314)      2831.5  Rx         0010  8  07 4E 08 64 04 8C 04 D6 
   315)      2839.0  Rx         0005  4  05 FB 08 42 
   316)      2839.4  Rx         0002  2  0B F2 
   317)      2877.4  Rx         0005  4  05 FE 08 44 
   318)      2878.2  Rx         0002  2  0B F2 
   319)      2900.5  Rx         0010  8  07 52 08 66 04 8E 04 D7 
   320)      2908.4  Rx         0005  4  05 FF 08 42 
   321)      2908.8  Rx         0002  2  0B F0 
   322)      2935.8  Rx         0202  1  00 
   323)      2936.6  Rx         0005  4  05 FF 08 43 
   324)      2936.8  Rx         0006  2  00 01 
   325)      2937.0  Rx         0011  4  00 C0 00 1F 
   326)      2937.1  Rx         0182  2  00 03 
   327)      2937.2  Rx         0183  2  01 00 
   328)      2937.4  Rx         0002  2  0B F0 
   329)      2970.5  Rx         0010  8  07 50 08 68 04 8F 04 D8 
   330)      2975.2  Rx         0005  4  05 FC 08 40 
   331)      2975.5  Rx         0002  2  0B EE 
   332)      3023.5  Rx         0005  4  05 FF 08 41 
   333)      3023.9  Rx         0002  2  0B EE 
   334)      3052.0  Rx         0010  8  07 53 08 69 04 8F 04 D9 
   335)      3061.0  Rx         0005  4  05 FF 08 3F 
   336)      3061.8  Rx         0002  2  0B EE 
   337)      3095.1  Rx         0005  4  05 FE 08 3C 
   338)      3095.5  Rx         0002  2  0B EB 
   339)      3095.7  Rx         0202  1  00 
   340)      3096.4  Rx         0006  2  00 01 
   341)      3096.5  Rx         0011  4  00 C0 00 1F 
   342)      3096.7  Rx         0182  2  00 03 
   343)      3096.8  Rx         0183  2  01 00 
   344)      3125.6  Rx         0010  8  07 51 08 68 04 8E 04 D9 
   345)      3130.3  Tx         0202  1  00 
   346)      3130.8  Rx         0006  2  00 01 
   347)      3130.9  Rx         0011  4  00 C0 00 1F 
   348)      3131.0  Rx         0182  2  00 03 
   349)      3131.2  Rx         0183  2  01 00 
   350)      3135.1  Rx         0005  4  05 FE 08 39 
   351)      3137.0  Rx         0002  2  0B E9 
   352)      3174.1  Rx         0005  4  05 FE 08 3C 
   353)      3174.4  Rx         0002  2  0B E8 
   354)      3190.8  Rx         0010  8  07 52 08 6A 04 90 04 D9 
   355)      3203.7  Rx         0005  4  05 FE 08 3C 
   356)      3204.3  Rx         0002  2  0B E6 
   357)      3231.4  Rx         0005  4  06 00 08 3A 
   358)      3231.9  Rx         0002  2  0B E4 
   359)      3232.6  Rx         0202  1  00 
   360)      3233.6  Rx         0006  2  00 01 
   361)      3233.8  Rx         0011  4  00 C0 00 1F 
   362)      3233.9  Rx         0182  2  00 03 
   363)      3234.1  Rx         0183  2  01 00 
   364)      3257.3  Rx         0010  8  07 4F 08 62 04 8E 04 DA 
   365)      3269.9  Rx         0005  4  05 FE 08 3D 
   366)      3270.5  Rx         0002  2  0B E2 
   367)      3313.2  Rx         0005  4  05 FF 08 3A 
   368)      3313.8  Rx         0002  2  0B E2 
   369)      3325.5  Rx         0010  8  07 4B 08 5F 04 8D 04 D7 
   370)      3340.2  Rx         0005  4  05 FD 08 3B 
   371)      3340.5  Rx         0002  2  0B E2 
   372)      3376.9  Rx         0005  4  05 FE 08 40 
   373)      3377.6  Rx         0002  2  0B E4 
   374)      3381.0  Rx         0202  1  00 
   375)      3381.6  Rx         0006  2  00 01 
   376)      3381.8  Rx         0011  4  00 C0 00 1F 
   377)      3381.9  Rx         0182  2  00 03 
   378)      3382.0  Rx         0183  2  01 00 
   379)      3409.0  Rx         0010  8  07 4B 08 65 04 90 04 DB 
   380)      3425.1  Rx         0005  4  05 FE 08 3E 
   381)      3425.5  Rx         0002  2  0B E4 
   382)      3461.5  Rx         0005  4  05 FC 08 3A 
   383)      3462.0  Rx         0002  2  0B E4 
   384)      3485.2  Rx         0010  8  07 49 08 65 04 90 04 DB 
   385)      3504.3  Rx         0005  4  05 FF 08 3D 
   386)      3504.9  Rx         0002  2  0B E4 
   387)      3534.0  Rx         0005  4  05 FE 08 39 
   388)      3534.3  Rx         0002  2  0B E4 
   389)      3537.2  Rx         0202  1  00 
   390)      3538.1  Rx         0006  2  00 01 
   391)      3538.3  Rx         0011  4  00 C0 00 1F 
   392)      3538.5  Rx         0182  2  00 03 
   393)      3538.6  Rx         0183  2  01 00 
   394)      3557.5  Rx         0010  8  07 3D 08 5A 04 8F 04 D8 
   395)      3573.7  Rx         0005  4  05 FC 08 3B 
   396)      3574.6  Rx         0002  2  0B E4 
   397)      3601.4  Rx         0005  4  06 00 08 3C 
   398)      3601.8  Rx         0002  2  0B E4 
   399)      3624.5  Rx         0010  8  07 3F 08 58 04 8E 04 D8 
   400)      3629.0  Rx         0005  4  05 FE 08 3A 
   401)      3629.6  Rx         0002  2  0B E2 
   402)      3658.4  Rx         0005  4  05 FD 08 3C 
   403)      3658.9  Rx         0002  2  0B E2 
   404)      3661.7  Rx         0202  1  00 
   405)      3662.3  Rx         0006  2  00 01 
   406)      3662.4  Rx         0011  4  00 C0 00 1F 
   407)      3662.5  Rx         0182  2  00 03 
   408)      3662.6  Rx         0183  2  01 00 
   409)      3681.5  Rx         0010  8  07 3F 08 58 04 8E 04 DB 
   410)      3696.8  Rx         0005  4  05 FF 08 39 
   411)      3697.3  Rx         0002  2  0B E1 
   412)      3735.0  Rx         0005  4  05 FF 08 39 
   413)      3737.5  Rx         0002  2  0B E1 
   414)      3766.4  Rx         0010  8  07 40 08 5A 04 90 04 D6 
   415)      3773.0  Rx         0005  4  05 FD 08 3B 
   416)      3775.1  Rx         0002  2  0B E1 
   417)      3809.7  Rx         0005  4  05 FF 08 3C 
   418)      3810.0  Rx         0002  2  0B E1 
   419)      3814.2  Rx         0202  1  00 
   420)      3815.0  Rx         0006  2  00 01 
   421)      3815.1  Rx         0011  4  00 C0 00 1F 
   422)      3815.2  Rx         0182  2  00 03 
   423)      3815.4  Rx         0183  2  01 00 
   424)      3832.5  Rx         0010  8  07 3E 08 57 04 90 04 D9 
   425)      3846.7  Rx         0005  4  05 FF 08 42 
   426)      3849.8  Rx         0002  2  0B E4 
   427)      3888.8  Rx         0010  8  07 3E 08 5A 04 90 04 D8 
   428)      3902.1  Rx         0005  4  05 FF 08 3C 
   429)      3905.5  Rx         0002  2  0B E4 
   430)      3933.9  Rx         0005  4  05 FE 08 3C 
   431)      3934.5  Rx         0002  2  0B E4 
   432)      3939.9  Rx         0202  1  00 
   433)      3940.5  Rx         0006  2  00 01 
   434)      3940.7  Rx         0011  4  00 C0 00 1F 
   435)      3940.8  Rx         0182  2  00 03 
   436)      3940.9  Rx         0183  2  01 00 
   437)      3957.1  Rx         0010  8  07 3B 08 55 04 8F 04 D9 
   438)      3964.8  Rx         0005  4  05 FF 08 39 
   439)      3968.6  Rx         0002  2  0B E4 
   440)      4003.2  Rx         0005  4  05 FD 08 12 
   441)      4003.7  Rx         0002  2  0B DA 
   442)      4026.1  Rx         0010  8  07 3F 08 50 04 8F 04 D7 
   443)      4032.0  Rx         0005  4  05 FF 07 B6 
   444)      4034.2  Rx         0002  2  0B B2 
   445)      4081.3  Rx         0005  4  06 01 07 5A 
   446)      4081.9  Rx         0002  2  0B 6F 
   447)      4090.9  Rx         0202  1  00 
   448)      4091.7  Rx         0006  2  00 01 
   449)      4092.0  Rx         0011  4  00 C0 00 1F 
   450)      4092.2  Rx         0182  2  00 03 
   451)      4092.3  Rx         0183  2  01 00 
   452)      4111.4  Rx         0010  8  07 3F 08 59 04 8D 04 D9 
   453)      4120.4  Rx         0005  4  05 FE 07 10 
   454)      4122.5  Rx         0002  2  0B 19 
   455)      4129.3  Tx         0202  1  00 
   456)      4130.6  Rx         0006  2  00 01 
   457)      4131.4  Rx         0011  4  00 C0 00 1F 
   458)      4132.1  Rx         0182  2  00 03 
   459)      4132.8  Rx         0183  2  01 00 
   460)      4163.8  Rx         0005  4  05 FF 06 C2 
   461)      4164.4  Rx         0002  2  0A AF 
   462)      4188.6  Rx         0010  8  07 3A 08 52 04 8F 04 DB 
   463)      4199.0  Rx         0005  4  05 FB 06 77 
   464)      4201.2  Rx         0002  2  0A 2C 
   465)      4238.3  Rx         0005  4  05 FF 06 4F 
   466)      4238.8  Rx         0002  2  09 AB 
   467)      4245.0  Rx         0202  1  00 
   468)      4245.6  Rx         0006  2  00 01 
   469)      4245.8  Rx         0011  4  00 C0 00 1F 
   470)      4245.9  Rx         0182  2  00 03 
   471)      4246.0  Rx         0183  2  01 00 
   472)      4260.7  Rx         0010  8  07 23 08 3F 04 8E 04 DA 
   473)      4268.2  Rx         0005  4  05 FE 06 3E 
   474)      4268.8  Rx         0002  2  09 40 
   475)      4295.8  Rx         0005  4  05 FA 06 36 
   476)      4296.1  Rx         0002  2  08 EC 
   477)      4317.1  Rx         0010  8  06 F7 08 0F 04 8E 04 DA 
   478)      4322.2  Rx         0005  4  05 FB 06 28 
   479)      4322.8  Rx         0002  2  08 A9 
   480)      4364.8  Rx         0005  4  06 00 06 0A 
   481)      4365.3  Rx         0002  2  08 75 
   482)      4372.7  Rx         0202  1  00 
   483)      4373.6  Rx         0006  2  00 01 
   484)      4373.8  Rx         0011  4  00 C0 00 1F 
   485)      4373.9  Rx         0182  2  00 03 
   486)      4374.0  Rx         0183  2  01 00 
   487)      4385.2  Rx         0010  8  06 CA 07 E2 04 8E 04 DB 
   488)      4392.0  Rx         0005  4  05 FB 05 EE 
   489)      4392.5  Rx         0002  2  08 4E 
   490)      4430.7  Rx         0005  4  05 FC 05 F0 
   491)      4431.1  Rx         0002  2  08 32 
   492)      4460.7  Rx         0010  8  06 96 07 B0 04 8C 04 D7 
   493)      4472.3  Rx         0005  4  05 FC 05 EF 
   494)      4472.6  Rx         0002  2  08 1C 
   495)      4515.2  Rx         0005  4  05 FC 05 ED 
   496)      4515.8  Rx         0002  2  08 07 
   497)      4524.5  Rx         0202  1  00 
   498)      4524.9  Rx         0006  2  00 01 
   499)      4525.1  Rx         0011  4  00 C0 00 1F 
   500)      4525.3  Rx         0182  2  00 03 
   501)      4525.4  Rx         0183  2  01 00 
   502)      4531.8  Rx         0010  8  06 5B 07 77 04 91 04 DA 
   503)      4546.7  Rx         0005  4  06 00 05 ED 
   504)      4547.4  Rx         0002  2  07 F6 
   505)      4572.8  Rx         0005  4  05 FD 05 EC 
   506)      4573.2  Rx         0002  2  07 ED 
   507)      4594.6  Rx         0010  8  06 2F 07 43 04 8D 04 D8 
   508)      4603.6  Rx         0005  4  05 FD 05 EC 
   509)      4603.9  Rx         0002  2  07 ED 
   510)      4641.8  Rx         0005  4  05 FE 05 EE 
   511)      4642.3  Rx         0002  2  07 EC 
   512)      4650.8  Rx         0202  1  00 
   513)      4651.6  Rx         0006  2  00 01 
   514)      4651.8  Rx         0011  4  00 C0 00 1F 
   515)      4651.9  Rx         0182  2  00 03 
   516)      4652.0  Rx         0183  2  01 00 
   517)      4653.3  Rx         0010  8  05 F3 07 16 04 8F 04 DA 
   518)      4668.7  Rx         0005  4  05 FC 05 EB 
   519)      4669.3  Rx         0002  2  07 EA 
   520)      4698.4  Rx         0005  4  06 00 05 ED 
   521)      4699.1  Rx         0002  2  07 EA 
   522)      4720.4  Rx         0010  8  05 C1 06 DB 04 8C 04 D9 
   523)      4736.0  Rx         0005  4  05 FE 05 EB 
   524)      4736.4  Rx         0002  2  07 EA 
   525)      4773.9  Rx         0005  4  05 FE 05 ED 
   526)      4774.6  Rx         0002  2  07 EA 
   527)      4790.6  Rx         0202  1  00 
   528)      4791.1  Rx         0006  2  00 01 
   529)      4791.3  Rx         0011  4  00 C0 00 1F 
   530)      4791.4  Rx         0182  2  00 03 
   531)      4791.5  Rx         0183  2  01 00 
   532)      4792.6  Rx         0010  8  05 8C 06 AD 04 90 04 D9 
   533)      4814.9  Rx         0005  4  05 FE 05 E9 
   534)      4815.2  Rx         0002  2  07 EA 
   535)      4849.7  Rx         0005  4  05 FD 05 E8 
   536)      4850.1  Rx         0002  2  07 E8 
   537)      4874.4  Rx         0010  8  05 5C 06 75 04 8E 04 D9 
   538)      4886.1  Rx         0005  4  05 FD 05 E5 
   539)      4886.9  Rx         0002  2  07 E7 
   540)      4912.7  Rx         0005  4  05 FD 05 E3 
   541)      4913.1  Rx         0002  2  07 E3 
   542)      4934.2  Rx         0202  1  00 
   543)      4935.0  Rx         0006  2  00 01 
   544)      4935.2  Rx         0011  4  00 C0 00 1F 
   545)      4935.4  Rx         0182  2  00 03 
   546)      4935.6  Rx         0010  8  05 37 06 55 04 8E 04 D7 
   547)      4935.7  Rx         0183  2  01 00 
   548)      4951.3  Rx         0005  4  05 FF 05 B5 
   549)      4952.0  Rx         0002  2  07 D4 
   550)      4980.1  Rx         0005  4  06 03 05 4A 
   551)      4980.5  Rx         0002  2  07 A5 
   552)      5002.0  Rx         0010  8  05 1F 06 38 04 8E 04 DB 
   553)      5007.1  Rx         0005  4  05 FF 04 F3 
   554)      5007.5  Rx         0002  2  07 5F 
   555)      5037.6  Rx         0005  4  05 FF 04 AB 
   556)      5038.1  Rx         0002  2  07 04 
   557)      5059.3  Rx         0010  8  05 03 06 23 04 8C 04 D8 
   558)      5060.0  Rx         0202  1  00 
   559)      5060.6  Rx         0006  2  00 01 
   560)      5060.8  Rx         0011  4  00 C0 00 1F 
   561)      5061.0  Rx         0182  2  00 03 
   562)      5061.1  Rx         0183  2  01 00 
   563)      5076.1  Rx         0005  4  05 FD 04 64 
   564)      5078.1  Rx         0002  2  06 95 
   565)      5113.4  Rx         0005  4  05 FC 04 4B 
   566)      5116.0  Rx         0002  2  06 21 
   567)      5129.8  Tx         0202  1  00 
   568)      5131.1  Rx         0006  2  00 01 
   569)      5131.9  Rx         0011  4  00 C0 00 1F 
   570)      5132.6  Rx         0182  2  00 03 
   571)      5133.3  Rx         0183  2  01 00 
   572)      5141.2  Rx         0010  8  04 F4 06 12 04 90 04 DB 
   573)      5162.0  Rx         0005  4  05 FE 04 47 
   574)      5164.2  Rx         0002  2  05 B8 
   575)      5195.4  Rx         0005  4  05 FE 04 3E 
   576)      5195.9  Rx         0002  2  05 6A 
   577)      5217.0  Rx         0010  8  04 CE 05 EC 04 8C 04 D8 
   578)      5218.4  Rx         0202  1  00 
   579)      5219.7  Rx         0006  2  00 01 
   580)      5220.5  Rx         0011  4  00 C0 00 1F 
   581)      5221.2  Rx         0182  2  00 03 
   582)      5221.9  Rx         0183  2  01 00 
   583)      5236.6  Rx         0005  4  05 FE 04 37 
   584)      5237.1  Rx         0002  2  05 35 
   585)      5264.3  Rx         0005  4  05 FE 04 36 
   586)      5264.9  Rx         0002  2  05 14 
   587)      5285.5  Rx         0010  8  04 9E 05 B6 04 8E 04 D8 
   588)      5290.9  Rx         0005  4  06 02 04 38 
   589)      5291.3  Rx         0002  2  05 06 
   590)      5320.1  Rx         0005  4  05 FA 04 36 
   591)      5320.8  Rx         0002  2  05 01 
   592)      5341.8  Rx         0010  8  04 6A 05 86 04 8F 04 DA 
   593)      5343.9  Rx         0202  1  00 
   594)      5344.6  Rx         0006  2  00 01 
   595)      5344.7  Rx         0011  4  00 C0 00 1F 
   596)      5344.8  Rx         0182  2  00 03 
   597)      5344.9  Rx         0183  2  01 00 
   598)      5354.7  Rx         0005  4  05 FC 04 36 
   599)      5357.3  Rx         0002  2  04 FC 
   600)      5389.1  Rx         0005  4  05 FC 04 42 
   601)      5389.7  Rx         0002  2  04 FC 
   602)      5411.1  Rx         0010  8  04 3A 05 4D 04 8D 04 D7 
   603)      5421.5  Rx         0005  4  05 FF 04 45 
   604)      5424.3  Rx         0002  2  05 01 
   605)      5465.3  Rx         0005  4  05 FF 04 46 
   606)      5465.6  Rx         0002  2  05 06 
   607)      5492.0  Rx         0010  8  04 03 05 1B 04 8E 04 D8 
   608)      5496.8  Rx         0202  1  00 
   609)      5498.1  Rx         0006  2  00 01 
   610)      5499.0  Rx         0011  4  00 C0 00 1F 
   611)      5499.6  Rx         0182  2  00 03 
   612)      5500.0  Rx         0183  2  01 00 
   613)      5506.2  Rx         0005  4  05 FC 04 47 
   614)      5509.4  Rx         0002  2  05 0A 
   615)      5547.5  Rx         0005  4  05 FB 04 4E 
   616)      5547.9  Rx         0002  2  05 11 
   617)      5571.3  Rx         0010  8  03 D2 04 E7 04 92 04 DA 
   618)      5584.3  Rx         0005  4  05 FC 04 5F 
   619)      5587.4  Rx         0002  2  05 1D 
   620)      5622.4  Rx         0005  4  05 FD 04 68 
   621)      5622.9  Rx         0002  2  05 27 
   622)      5641.9  Rx         0010  8  03 AC 04 BF 04 8F 04 DA 
   623)      5647.5  Rx         0202  1  00 
   624)      5648.1  Rx         0006  2  00 01 
   625)      5648.2  Rx         0011  4  00 C0 00 1F 
   626)      5648.4  Rx         0182  2  00 03 
   627)      5648.6  Rx         0183  2  01 00 
   628)      5650.0  Rx         0005  4  05 FE 04 67 
   629)      5651.5  Rx         0002  2  05 31 
   630)      5692.7  Rx         0005  4  05 FD 04 67 
   631)      5693.2  Rx         0002  2  05 3A 
   632)      5710.4  Rx         0010  8  03 99 04 B1 04 8F 04 D9 
   633)      5719.6  Rx         0005  4  05 FF 04 70 
   634)      5720.0  Rx         0002  2  05 46 
   635)      5758.7  Rx         0005  4  05 FE 04 82 
   636)      5759.0  Rx         0002  2  05 56 
   637)      5774.3  Rx         0010  8  03 98 04 B2 04 8E 04 DA 
   638)      5783.9  Rx         0202  1  00 
   639)      5785.2  Rx         0006  2  00 01 
   640)      5786.0  Rx         0011  4  00 C0 00 1F 
   641)      5786.7  Rx         0182  2  00 03 
   642)      5787.2  Rx         0183  2  01 00 
   643)      5788.4  Rx         0005  4  05 FF 04 A8 
   644)      5788.9  Rx         0002  2  05 6A 
   645)      5834.0  Rx         0005  4  05 FE 04 DB 
   646)      5834.5  Rx         0002  2  05 8B 
   647)      5853.4  Rx         0010  8  03 A4 04 B8 04 8D 04 D9 
   648)      5873.9  Rx         0005  4  05 FF 05 0E 
   649)      5874.4  Rx         0002  2  05 BB 
   650)      5904.8  Rx         0005  4  05 FE 05 35 
   651)      5906.1  Rx         0002  2  05 F6 
   652)      5926.7  Rx         0010  8  03 B3 04 C4 04 8F 04 D9 
   653)      5944.0  Rx         0202  1  00 
   654)      5944.6  Rx         0006  2  00 01 
   655)      5944.8  Rx         0011  4  00 C0 00 1F 
   656)      5944.9  Rx         0182  2  00 03 
   657)      5945.0  Rx         0183  2  01 00 
   658)      5945.4  Rx         0005  4  05 FE 05 52 
   659)      5946.2  Rx         0002  2  06 37 
   660)      5982.9  Rx         0005  4  06 00 05 68 
   661)      5983.4  Rx         0002  2  06 78 
   662)      5993.3  Rx         0010  8  03 C1 04 D0 04 90 04 DB 
   663)      6010.1  Rx         0005  4  05 FE 05 7D 
   664)      6010.7  Rx         0002  2  06 B6 
   665)      6039.4  Rx         0005  4  05 FE 05 90 
   666)      6039.8  Rx         0002  2  06 EA 
   667)      6060.2  Rx         0010  8  03 DA 04 F1 04 8D 04 D6 
   668)      6066.2  Rx         0005  4  05 FF 05 A3 
   669)      6066.6  Rx         0202  1  00 
   670)      6067.8  Rx         0006  2  00 01 
   671)      6068.4  Rx         0002  2  07 15 
   672)      6068.7  Rx         0011  4  00 C0 00 1F 
   673)      6070.0  Rx         0182  2  00 03 
   674)      6070.7  Rx         0183  2  01 00 
   675)      6109.4  Rx         0005  4  05 FE 05 AB 
   676)      6109.7  Rx         0002  2  07 37 
   677)      6119.4  Rx         0010  8  03 FD 05 18 04 8D 04 D8 
   678)      6129.4  Tx         0202  1  00 
   679)      6130.7  Rx         0006  2  00 01 
   680)      6131.5  Rx         0011  4  00 C0 00 1F 
   681)      6132.2  Rx         0182  2  00 03 
   682)      6132.9  Rx         0183  2  01 00 
   683)      6138.9  Rx         0005  4  05 FF 05 EA 
   684)      6139.3  Rx         0002  2  07 62 
   685)      6176.3  Rx         0005  4  05 FD 05 E8 
   686)      6176.8  Rx         0002  2  07 86 
   687)      6202.3  Rx         0010  8  04 34 05 4B 04 8E 04 DA 
   688)      6214.3  Rx         0005  4  05 FF 05 EA 
   689)      6214.7  Rx         0002  2  07 A5 
   690)      6215.1  Rx         0202  1  00 
   691)      6216.3  Rx         0006  2  00 01 
   692)      6217.2  Rx         0011  4  00 C0 00 1F 
   693)      6217.7  Rx         0182  2  00 03 
   694)      6217.8  Rx         0183  2  01 00 
   695)      6258.4  Rx         0005  4  05 FD 05 E8 
   696)      6259.7  Rx         0002  2  07 BF 
   697)      6270.6  Rx         0010  8  04 67 05 7E 04 8F 04 DA 
   698)      6288.3  Rx         0005  4  05 FC 05 E9 
   699)      6288.7  Rx         0002  2  07 D4 
   700)      6316.3  Rx         0005  4  05 FE 05 E9 
   701)      6316.7  Rx         0002  2  07 E5 
   702)      6337.1  Rx         0010  8  04 97 05 B0 04 8F 04 DA 
   703)      6354.2  Rx         0005  4  06 02 05 E9 
   704)      6354.7  Rx         0002  2  07 E5 
   705)      6355.7  Rx         0202  1  00 
   706)      6357.0  Rx         0006  2  00 01 
   707)      6357.8  Rx         0011  4  00 C0 00 1F 
   708)      6358.5  Rx         0182  2  00 03 
   709)      6359.0  Rx         0183  2  01 00 
   710)      6394.8  Rx         0005  4  05 FF 05 ED 
   711)      6395.4  Rx         0002  2  07 E7 
   712)      6416.4  Rx         0010  8  04 CA 05 DF 04 91 04 D9 
   713)      6436.3  Rx         0005  4  05 FD 05 F8 
   714)      6437.1  Rx         0002  2  07 EA 
   715)      6463.9  Rx         0005  4  05 FC 06 34 
   716)      6464.1  Rx         0002  2  08 00 
   717)      6485.2  Rx         0010  8  04 E9 06 00 04 8E 04 D9 
   718)      6495.6  Rx         0005  4  05 FD 06 8F 
   719)      6498.1  Rx         0002  2  08 2F 
   720)      6500.0  Rx         0202  1  00 
   721)      6500.5  Rx         0006  2  00 01 
   722)      6500.7  Rx         0011  4  00 C0 00 1F 
   723)      6501.0  Rx         0182  2  00 03 
   724)      6501.6  Rx         0183  2  01 00 
   725)      6541.1  Rx         0005  4  05 FD 06 D0 
   726)      6543.5  Rx         0002  2  08 72 
   727)      6567.8  Rx         0010  8  04 FE 06 14 04 8E 04 D9 
   728)      6593.0  Rx         0005  4  06 00 07 21 
   729)      6594.9  Rx         0002  2  08 CB 
   730)      6624.4  Rx         0005  4  06 00 07 65 
   731)      6625.0  Rx         0002  2  09 38 
   732)      6646.6  Rx         0010  8  05 15 06 2B 04 90 04 D8 
   733)      6664.0  Rx         0005  4  06 00 07 8F 
   734)      6664.3  Rx         0002  2  09 AB 
   735)      6667.0  Rx         0202  1  00 
   736)      6668.3  Rx         0006  2  00 01 
   737)      6669.2  Rx         0011  4  00 C0 00 1F 
   738)      6669.8  Rx         0182  2  00 03 
   739)      6670.5  Rx         0183  2  01 00 
   740)      6704.9  Rx         0005  4  06 02 07 B4 
   741)      6706.3  Rx         0002  2  0A 19 
   742)      6726.4  Rx         0010  8  05 3A 06 52 04 90 04 DB 
   743)      6742.0  Rx         0005  4  05 FF 07 C4 
   744)      6744.1  Rx         0002  2  0A 72 
   745)      6773.9  Rx         0005  4  05 FE 07 C1 
   746)      6774.3  Rx         0002  2  0A B7 
   747)      6794.3  Rx         0010  8  05 6B 06 82 04 90 04 D7 
   748)      6807.9  Rx         0005  4  06 00 07 C1 
   749)      6810.9  Rx         0002  2  0A E6 
   750)      6817.8  Rx         0202  1  00 
   751)      6818.4  Rx         0006  2  00 01 
   752)      6818.5  Rx         0011  4  00 C0 00 1F 
   753)      6818.6  Rx         0182  2  00 03 
   754)      6818.8  Rx         0183  2  01 00 
   755)      6848.4  Rx         0005  4  06 02 07 C2 
   756)      6850.6  Rx         0002  2  0A FF 
   757)      6873.1  Rx         0010  8  05 A1 06 B4 04 91 04 D6 
   758)      6889.5  Rx         0005  4  06 01 07 C5 
   759)      6892.9  Rx         0002  2  0B 0F 
   760)      6932.1  Rx         0005  4  06 00 07 C0 
   761)      6932.6  Rx         0002  2  0B 12 
   762)      6956.1  Rx         0010  8  05 D5 06 E7 04 90 04 D8 
   763)      6973.8  Rx         0005  4  05 FF 07 C2 
   764)      6977.5  Rx         0002  2  0B 12 
   765)      6987.4  Rx         0202  1  00 
   766)      6988.3  Rx         0006  2  00 01 
   767)      6988.4  Rx         0011  4  00 C0 00 1F 
   768)      6989.1  Rx         0182  2  00 03 
   769)      6989.7  Rx         0183  2  01 00 
   770)      7017.2  Rx         0005  4  06 01 07 C4 
   771)      7020.0  Rx         0002  2  0B 12 
   772)      7042.9  Rx         0010  8  06 04 07 19 04 91 04 D8 
   773)      7057.9  Rx         0005  4  06 00 07 C6 
   774)      7059.9  Rx         0002  2  0B 14 
   775)      7096.7  Rx         0005  4  06 01 07 C3 
   776)      7097.3  Rx         0002  2  0B 14 
   777)      7111.8  Rx         0010  8  06 3E 07 54 04 8F 04 D7 
   778)      7123.3  Rx         0005  4  06 00 07 C4 
   779)      7125.5  Rx         0002  2  0B 14 
   780)      7130.3  Tx         0202  1  00 
   781)      7131.6  Rx         0006  2  00 01 
   782)      7132.5  Rx         0011  4  00 C0 00 1F 
   783)      7133.1  Rx         0182  2  00 03 
   784)      7133.8  Rx         0183  2  01 00 
   785)      7140.7  Rx         0202  1  00 
   786)      7141.3  Rx         0006  2  00 01 
   787)      7141.5  Rx         0011  4  00 C0 00 1F 
   788)      7141.7  Rx         0182  2  00 03 
   789)      7141.8  Rx         0183  2  01 00 
   790)      7162.5  Rx         0005  4  05 FF 07 C3 
   791)      7164.7  Rx         0002  2  0B 16 
   792)      7186.4  Rx         0010  8  06 72 07 88 04 90 04 D5 
   793)      7204.7  Rx         0005  4  06 00 07 C2 
   794)      7205.1  Rx         0002  2  0B 16 
   795)      7243.3  Rx         0005  4  05 FF 07 C5 
   796)      7243.9  Rx         0002  2  0B 16 
   797)      7254.2  Rx         0010  8  06 9D 07 B1 04 91 04 D9 
   798)      7275.2  Rx         0005  4  06 00 07 C2 
   799)      7275.7  Rx         0002  2  0B 14 
   800)      7293.6  Rx         0202  1  00 
   801)      7294.5  Rx         0006  2  00 01 
   802)      7294.6  Rx         0011  4  00 C0 00 1F 
   803)      7294.7  Rx         0182  2  00 03 
   804)      7294.9  Rx         0183  2  01 00 
   805)      7321.7  Rx         0005  4  06 00 07 C3 
   806)      7322.1  Rx         0002  2  0B 14 
   807)      7344.6  Rx         0010  8  06 BD 07 D5 04 8F 04 D7 
   808)      7367.0  Rx         0005  4  06 01 07 C2 
   809)      7367.5  Rx         0002  2  0B 14 
   810)      7405.9  Rx         0005  4  05 FF 07 C8 
   811)      7406.5  Rx         0002  2  0B 16 
   812)      7415.1  Rx         0010  8  06 CF 07 E7 04 92 04 D7 
   813)      7432.9  Rx         0005  4  06 00 07 D8 
   814)      7433.4  Rx         0002  2  0B 1B 
   815)      7451.2  Rx         0202  1  00 
   816)      7451.8  Rx         0006  2  00 01 
   817)      7452.0  Rx         0011  4  00 C0 00 1F 
   818)      7452.1  Rx         0182  2  00 03 
   819)      7452.3  Rx         0183  2  01 00 
   820)      7472.1  Rx         0005  4  05 FF 08 0A 
   821)      7472.6  Rx         0002  2  0B 30 
   822)      7492.4  Rx         0010  8  06 E1 07 FC 04 8D 04 D9 
   823)      7500.9  Rx         0005  4  05 FC 08 1D 
   824)      7502.5  Rx         0002  2  0B 49 
   825)      7539.3  Rx         0005  4  05 FF 08 1A 
   826)      7539.8  Rx         0002  2  0B 61 
   827)      7548.9  Rx         0010  8  06 E2 07 FE 04 8E 04 D8 
   828)      7571.2  Rx         0005  4  05 FF 07 E3 
   829)      7571.6  Rx         0002  2  0B 6C 
   830)      7589.1  Rx         0202  1  00 
   831)      7589.9  Rx         0006  2  00 01 
   832)      7590.1  Rx         0011  4  00 C0 00 1F 
   833)      7590.3  Rx         0182  2  00 03 
   834)      7590.3  Rx         0183  2  01 00 
   835)      7609.2  Rx         0005  4  05 FE 07 83 
   836)      7609.8  Rx         0002  2  0B 57 
   837)      7629.5  Rx         0010  8  06 E5 08 00 04 8D 04 DA 
   838)      7680.0  Rx         0005  4  05 FF 07 43 
   839)      7680.3  Rx         0002  2  0B 2E 
   840)      7694.6  Rx         0010  8  06 F0 08 08 04 8E 04 DB 
   841)      7720.7  Rx         0005  4  05 FF 07 48 
   842)      7721.3  Rx         0002  2  0A F5 
   843)      7742.9  Rx         0202  1  00 
   844)      7743.6  Rx         0006  2  00 01 
   845)      7743.8  Rx         0011  4  00 C0 00 1F 
   846)      7743.9  Rx         0182  2  00 03 
   847)      7744.1  Rx         0183  2  01 00 
   848)      7764.9  Rx         0005  4  06 01 07 7D 
   849)      7765.2  Rx         0002  2  0A C8 
   850)      7785.4  Rx         0010  8  06 F4 08 0E 04 8C 04 D8 
   851)      7795.6  Rx         0005  4  05 FF 07 DB 
   852)      7796.1  Rx         0002  2  0A B5 
   853)      7825.1  Rx         0005  4  05 FE 08 1F 
   854)      7825.5  Rx         0002  2  0A C7 
   855)      7833.8  Rx         0010  8  06 EE 08 02 04 8D 04 D9 
   856)      7855.9  Rx         0005  4  05 FF 08 3A 
   857)      7856.2  Rx         0002  2  0A FC 
   858)      7875.4  Rx         0202  1  00 
   859)      7876.4  Rx         0006  2  00 01 
   860)      7876.5  Rx         0011  4  00 C0 00 1F 
   861)      7876.7  Rx         0182  2  00 03 
   862)      7876.8  Rx         0183  2  01 00 
   863)      7893.9  Rx         0005  4  05 FE 08 3A 
   864)      7894.3  Rx         0002  2  0B 42 
   865)      7914.0  Rx         0010  8  06 DD 07 F6 04 8E 04 DA 
   866)      7924.4  Rx         0005  4  05 FE 08 3A 
   867)      7925.2  Rx         0002  2  0B 87 
   868)      7951.5  Rx         0005  4  05 FB 08 38 
   869)      7952.0  Rx         0002  2  0B BD 
   870)      7971.5  Rx         0010  8  06 D6 07 F0 04 90 04 D7 
   871)      7993.5  Rx         0005  4  05 FC 08 3D 
   872)      7995.4  Rx         0002  2  0B DA 
   873)      8011.2  Rx         0202  1  00 
   874)      8011.8  Rx         0006  2  00 01 
   875)      8012.0  Rx         0011  4  00 C0 00 1F 
   876)      8012.0  Rx         0182  2  00 03 
   877)      8012.2  Rx         0183  2  01 00 
   878)      8031.6  Rx         0005  4  06 01 08 3B 
   879)      8033.6  Rx         0002  2  0B E1 
   880)      8056.6  Rx         0010  8  06 E1 07 FA 04 90 04 DB 
   881)      8068.8  Rx         0005  4  05 FE 08 3A 
   882)      8070.3  Rx         0002  2  0B E1 
   883)      8100.6  Rx         0005  4  05 FC 08 39 
   884)      8101.2  Rx         0002  2  0B E1 
   885)      8120.4  Rx         0010  8  06 EB 08 02 04 8E 04 DA 
   886)      8130.1  Tx         0202  1  00 
   887)      8131.4  Rx         0006  2  00 01 
   888)      8132.2  Rx         0011  4  00 C0 00 1F 
   889)      8132.9  Rx         0182  2  00 03 
   890)      8133.6  Rx         0183  2  01 00 
   891)      8139.3  Rx         0005  4  05 FF 08 38 
   892)      8141.2  Rx         0002  2  0B E1 
   893)      8163.0  Rx         0202  1  00 
   894)      8163.8  Rx         0006  2  00 01 
   895)      8164.1  Rx         0011  4  00 C0 00 1F 
   896)      8164.3  Rx         0182  2  00 03 
   897)      8164.4  Rx         0183  2  01 00 
   898)      8179.9  Rx         0005  4  05 FC 08 3A 
   899)      8180.5  Rx         0002  2  0B E1 
   900)      8199.0  Rx         0010  8  06 FE 08 10 04 8F 04 D7 
   901)      8218.1  Rx         0005  4  05 FF 08 38 
   902)      8218.3  Rx         0002  2  0B DF 
   903)      8245.2  Rx         0005  4  06 00 08 3C 
   904)      8245.7  Rx         0002  2  0B E1 
   905)      8264.4  Rx         0010  8  07 08 08 26 04 8B 04 D9 
   906)      8286.7  Rx         0005  4  05 FD 08 3C 
   907)      8287.2  Rx         0002  2  0B E1 
   908)      8308.8  Rx         0202  1  00 
   909)      8309.3  Rx         0006  2  00 01 
   910)      8309.5  Rx         0011  4  00 C0 00 1F 
   911)      8309.7  Rx         0182  2  00 03 
   912)      8309.8  Rx         0183  2  01 00 
   913)      8326.1  Rx         0005  4  06 01 08 3A 
   914)      8326.7  Rx         0002  2  0B E1 
   915)      8344.6  Rx         0010  8  07 1D 08 34 04 8E 04 D9 
   916)      8366.5  Rx         0005  4  05 FE 08 36 
   917)      8367.8  Rx         0002  2  0B E1 
   918)      8404.2  Rx         0005  4  05 FF 08 2B 
   919)      8404.6  Rx         0002  2  0B DC 
   920)      8425.4  Rx         0010  8  07 2B 08 4B 04 91 04 D9 
   921)      8447.1  Rx         0005  4  05 FE 08 0C 
   922)      8450.0  Rx         0002  2  0B D0 
   923)      8477.2  Rx         0202  1  00 
   924)      8477.9  Rx         0006  2  00 01 
   925)      8478.2  Rx         0011  4  00 C0 00 1F 
   926)      8478.3  Rx         0182  2  00 03 
   927)      8478.4  Rx         0183  2  01 00 
   928)      8484.6  Rx         0005  4  05 FF 07 B7 
   929)      8484.9  Rx         0002  2  0B AA 
   930)      8501.0  Rx         0010  8  07 3E 08 56 04 8E 04 D7 
   931)      8518.8  Rx         0005  4  06 00 07 92 
   932)      8522.0  Rx         0002  2  0B 78 
   933)      8551.0  Rx         0005  4  06 00 07 92 
   934)      8551.4  Rx         0002  2  0B 48 
   935)      8564.2  Rx         0010  8  07 3C 08 5A 04 8D 04 D8 
   936)      8584.7  Rx         0005  4  06 01 07 93 
   937)      8588.2  Rx         0002  2  0B 19 
   938)      8614.5  Rx         0202  1  00 
   939)      8615.1  Rx         0006  2  00 01 
   940)      8615.3  Rx         0011  4  00 C0 00 1F 
   941)      8615.4  Rx         0182  2  00 03 
   942)      8615.5  Rx         0183  2  01 00 
   943)      8621.9  Rx         0005  4  05 FF 07 99 
   944)      8624.6  Rx         0002  2  0A F0 
   945)      8639.9  Rx         0010  8  07 34 08 4E 04 8F 04 D8 
   946)      8661.3  Rx         0005  4  05 FF 07 95 
   947)      8665.1  Rx         0002  2  0A CE 
   948)      8697.4  Rx         0005  4  06 01 07 95 
   949)      8697.9  Rx         0002  2  0A C3 
   950)      8705.8  Rx         0010  8  07 27 08 42 04 8C 04 D5 
   951)      8729.1  Rx         0005  4  05 FF 07 9B 
   952)      8731.2  Rx         0002  2  0A C7 
   953)      8770.4  Rx         0202  1  00 
   954)      8771.2  Rx         0006  2  00 01 
   955)      8771.5  Rx         0011  4  00 C0 00 1F 
   956)      8771.7  Rx         0182  2  00 03 
   957)      8771.8  Rx         0183  2  01 00 
   958)      8775.7  Rx         0005  4  05 FE 07 98 
   959)      8778.7  Rx         0002  2  0A C8 
   960)      8798.6  Rx         0010  8  07 06 08 21 04 8E 04 DA 
   961)      8821.3  Rx         0005  4  06 01 07 99 
   962)      8822.5  Rx         0002  2  0A CA 
   963)      8862.3  Rx         0005  4  05 FF 07 98 
   964)      8862.6  Rx         0002  2  0A CA 
   965)      8870.6  Rx         0010  8  06 F1 08 0A 04 8D 04 D7 
   966)      8892.0  Rx         0005  4  06 02 07 96 
   967)      8892.4  Rx         0002  2  0A CA 
   968)      8927.2  Rx         0202  1  00 
   969)      8927.7  Rx         0006  2  00 01 
   970)      8927.9  Rx         0011  4  00 C0 00 1F 
   971)      8928.0  Rx         0182  2  00 03 
   972)      8928.2  Rx         0183  2  01 00 
   973)      8930.1  Rx         0005  4  06 01 07 99 
   974)      8930.4  Rx         0002  2  0A CA 
   975)      8949.1  Rx         0010  8  06 DC 07 F5 04 90 04 DA 
   976)      8970.2  Rx         0005  4  05 FD 07 95 
   977)      8970.9  Rx         0002  2  0A CA 
   978)      8997.7  Rx         0005  4  06 01 07 99 
   979)      8998.1  Rx         0002  2  0A CA 
   980)      9016.7  Rx         0010  8  06 CD 07 EA 04 8F 04 DA 
   981)      9028.2  Rx         0005  4  05 FF 07 BE 
   982)      9028.5  Rx         0002  2  0A D4 
   983)      9064.0  Rx         0202  1  00 
   984)      9064.9  Rx         0006  2  00 01 
   985)      9065.2  Rx         0011  4  00 C0 00 1F 
   986)      9065.2  Rx         0182  2  00 03 
   987)      9065.4  Rx         0183  2  01 00 
   988)      9066.5  Rx         0005  4  05 FB 08 07 
   989)      9066.8  Rx         0002  2  0A F3 
   990)      9084.6  Rx         0010  8  06 B4 07 D3 04 8E 04 D9 
   991)      9108.4  Rx         0005  4  05 FF 08 1D 
   992)      9108.8  Rx         0002  2  0B 1B 
   993)      9130.2  Tx         0202  1  00 
   994)      9131.5  Rx         0006  2  00 01 
   995)      9132.3  Rx         0011  4  00 C0 00 1F 
   996)      9133.0  Rx         0182  2  00 03 
   997)      9133.7  Rx         0183  2  01 00 
   998)      9145.7  Rx         0005  4  06 00 08 2A 
   999)      9146.2  Rx         0002  2  0B 44 
  1000)      9168.8  Rx         0010  8  06 AD 07 D2 04 91 04 D9 
  1001)      9183.0  Rx         0005  4  05 FA 08 6B 
  1002)      9183.4  Rx         0002  2  0B 82 
  1003)      9217.4  Rx         0202  1  00 
  1004)      9218.0  Rx         0006  2  00 01 
  1005)      9218.3  Rx         0011  4  00 C0 00 1F 
  1006)      9218.4  Rx         0182  2  00 03 
  1007)      9218.5  Rx         0183  2  01 00 
  1008)      9218.7  Rx         0005  4  05 FE 08 88 
  1009)      9219.6  Rx         0002  2  0B C5 
  1010)      9240.2  Rx         0010  8  06 B2 07 CD 04 8E 04 D7 
  1011)      9261.8  Rx         0005  4  06 00 08 AA 
  1012)      9262.1  Rx         0002  2  0C 0A 
  1013)      9289.1  Rx         0005  4  06 00 08 ED 
  1014)      9289.5  Rx         0002  2  0C 4B 
  1015)      9307.7  Rx         0010  8  06 C8 07 E3 04 8F 04 DA 
  1016)      9318.6  Rx         0005  4  05 FF 08 F7 
  1017)      9319.0  Rx         0002  2  0C 89 
  1018)      9345.6  Rx         0202  1  00 
  1019)      9345.7  Rx         0005  4  06 00 08 F5 
  1020)      9346.5  Rx         0006  2  00 01 
  1021)      9346.6  Rx         0002  2  0C C4 
  1022)      9346.7  Rx         0011  4  00 C0 00 1F 
  1023)      9347.1  Rx         0182  2  00 03 
  1024)      9347.2  Rx         0183  2  01 00 
  1025)      9364.6  Rx         0010  8  06 EA 08 03 04 8E 04 DC 
  1026)      9387.9  Rx         0005  4  06 00 08 F1 
  1027)      9388.2  Rx         0002  2  0C EB 
  1028)      9416.0  Rx         0005  4  05 FF 08 F7 
  1029)      9416.4  Rx         0002  2  0D 0A 
  1030)      9434.5  Rx         0010  8  07 1C 08 34 04 8E 04 D6 
  1031)      9461.3  Rx         0005  4  05 FE 08 F7 
  1032)      9462.5  Rx         0002  2  0D 21 
  1033)      9500.0  Rx         0005  4  05 FF 08 E7 
  1034)      9501.3  Rx         0002  2  0D 1F 
  1035)      9501.9  Rx         0202  1  00 
  1036)      9502.5  Rx         0006  2  00 01 
  1037)      9502.9  Rx         0011  4  00 C0 00 1F 
  1038)      9503.1  Rx         0182  2  00 03 
  1039)      9503.2  Rx         0183  2  01 00 
  1040)      9522.2  Rx         0010  8  07 4A 08 65 04 90 04 DA 
  1041)      9548.9  Rx         0005  4  05 FF 08 D4 
  1042)      9549.2  Rx         0002  2  0D 15 
  1043)      9576.2  Rx         0005  4  05 FD 08 CE 
  1044)      9576.4  Rx         0002  2  0D 0A 
  1045)      9594.8  Rx         0010  8  07 80 08 9F 04 90 04 DB 
  1046)      9615.1  Rx         0005  4  06 01 08 C5 
  1047)      9615.9  Rx         0002  2  0C FD 
  1048)      9642.5  Rx         0005  4  05 FE 08 BD 
  1049)      9642.9  Rx         0002  2  0C ED 
  1050)      9643.9  Rx         0202  1  00 
  1051)      9644.8  Rx         0006  2  00 01 
  1052)      9645.0  Rx         0011  4  00 C0 00 1F 
  1053)      9645.0  Rx         0182  2  00 03 
  1054)      9645.2  Rx         0183  2  01 00 
  1055)      9661.2  Rx         0010  8  07 A9 08 C7 04 8E 04 D9 
  1056)      9683.8  Rx         0005  4  05 FD 08 BC 
  1057)      9684.3  Rx         0002  2  0C DC 
  1058)      9711.6  Rx         0005  4  06 01 08 B7 
  1059)      9712.1  Rx         0002  2  0C CE 
  1060)      9729.2  Rx         0010  8  07 C2 08 E1 04 8E 04 D8 
  1061)      9752.9  Rx         0005  4  05 FF 08 B7 
  1062)      9753.2  Rx         0002  2  0C C5 
  1063)      9781.1  Rx         0005  4  05 FF 08 B9 
  1064)      9781.6  Rx         0002  2  0C C0 
  1065)      9783.2  Rx         0202  1  00 
  1066)      9783.8  Rx         0006  2  00 01 
  1067)      9784.0  Rx         0011  4  00 C0 00 1F 
  1068)      9784.1  Rx         0182  2  00 03 
  1069)      9784.2  Rx         0183  2  01 00 
  1070)      9798.4  Rx         0010  8  07 CB 08 E3 04 91 04 DA 
  1071)      9824.5  Rx         0005  4  05 FF 08 C3 
  1072)      9824.9  Rx         0002  2  0C BF 
  1073)      9864.7  Rx         0005  4  05 FF 08 DD 
  1074)      9865.4  Rx         0002  2  0C C7 
  1075)      9883.9  Rx         0010  8  07 C9 08 E4 04 8F 04 DA 
  1076)      9912.4  Rx         0005  4  06 00 09 05 
  1077)      9913.1  Rx         0002  2  0C DE 
  1078)      9941.5  Rx         0005  4  06 01 09 26 
  1079)      9941.9  Rx         0002  2  0C FD 
  1080)      9944.3  Rx         0202  1  00 
  1081)      9945.6  Rx         0006  2  00 01 
  1082)      9945.8  Rx         0011  4  00 C0 00 1F 
  1083)      9946.0  Rx         0182  2  00 03 
  1084)      9946.1  Rx         0183  2  01 00 
  1085)      9958.4  Rx         0010  8  07 C2 08 D4 04 91 04 DB 
  1086)      9986.4  Rx         0005  4  05 FF 09 2B 
  1087)      9987.1  Rx         0002  2  0D 1D 
  1088)     10013.5  Rx         0005  4  05 FF 09 2C 
  1089)     10014.2  Rx         0002  2  0D 40 
  1090)     10024.6  Rx         0010  8  07 BC 08 D6 04 92 04 D6 
  1091)     10053.1  Rx         0005  4  06 02 09 2C 
  1092)     10055.6  Rx         0002  2  0D 5D 
  1093)     10082.6  Rx         0005  4  05 FD 09 2B 
  1094)     10083.3  Rx         0002  2  0D 73 
  1095)     10086.0  Rx         0202  1  00 
  1096)     10086.7  Rx         0006  2  00 01 
  1097)     10086.9  Rx         0011  4  00 C0 00 1F 
  1098)     10087.0  Rx         0182  2  00 03 
  1099)     10087.2  Rx         0183  2  01 00 
  1100)     10091.3  Rx         0010  8  07 CC 08 E2 04 8D 04 D9 
  1101)     10118.5  Rx         0005  4  05 FE 09 28 
  1102)     10121.3  Rx         0002  2  0D 7D 
  1103)     10129.1  Tx         0202  1  00 
  1104)     10129.3  Rx         0006  2  00 01 
  1105)     10129.4  Rx         0011  4  00 C0 00 1F 
  1106)     10129.5  Rx         0182  2  00 03 
  1107)     10129.7  Rx         0183  2  01 00 
  1108)     10156.0  Rx         0005  4  05 FE 09 1F 
  1109)     10158.0  Rx         0002  2  0D 7C 
  1110)     10168.5  Rx         0010  8  07 DB 08 F6 04 90 04 DB 
  1111)     10198.4  Rx         0005  4  06 01 09 08 
  1112)     10202.4  Rx         0002  2  0D 71 
  1113)     10244.5  Rx         0005  4  05 FD 08 DF 
  1114)     10245.0  Rx         0002  2  0D 5B 
  1115)     10253.0  Rx         0202  1  00 
  1116)     10253.8  Rx         0006  2  00 01 
  1117)     10254.0  Rx         0011  4  00 C0 00 1F 
  1118)     10254.1  Rx         0182  2  00 03 
  1119)     10254.2  Rx         0183  2  01 00 
  1120)     10257.9  Rx         0010  8  07 E1 09 0C 04 8F 04 D8 
  1121)     10288.4  Rx         0005  4  06 00 08 B4 
  1122)     10290.9  Rx         0002  2  0D 39 
  1123)     10323.4  Rx         0005  4  05 FE 08 7B 
  1124)     10323.9  Rx         0002  2  0D 07 
  1125)     10330.8  Rx         0010  8  07 F4 09 18 04 8D 04 D8 
  1126)     10354.6  Rx         0005  4  06 00 08 57 
  1127)     10355.2  Rx         0002  2  0C CB 
  1128)     10381.7  Rx         0005  4  05 FB 08 3D 
  1129)     10382.7  Rx         0002  2  0C 89 
  1130)     10387.1  Rx         0202  1  00 
  1131)     10387.6  Rx         0006  2  00 01 
  1132)     10387.8  Rx         0011  4  00 C0 00 1F 
  1133)     10388.0  Rx         0182  2  00 03 
  1134)     10388.1  Rx         0183  2  01 00 
  1135)     10389.4  Rx         0010  8  07 F9 09 16 04 8D 04 D6 
  1136)     10411.6  Rx         0005  4  06 00 08 29 
  1137)     10413.8  Rx         0002  2  0C 4A 
  1138)     10449.9  Rx         0005  4  05 FD 08 21 
  1139)     10450.4  Rx         0002  2  0C 14 
  1140)     10456.6  Rx         0010  8  07 EF 09 0F 04 8E 04 DA 
  1141)     10480.2  Rx         0005  4  05 FC 08 24 
  1142)     10480.8  Rx         0002  2  0B EB 
  1143)     10508.2  Rx         0005  4  05 FF 08 21 
  1144)     10508.7  Rx         0002  2  0B D0 
  1145)     10524.6  Rx         0202  1  00 
  1146)     10525.3  Rx         0006  2  00 01 
  1147)     10525.5  Rx         0011  4  00 C0 00 1F 
  1148)     10525.6  Rx         0182  2  00 03 
  1149)     10525.8  Rx         0183  2  01 00 
  1150)     10526.1  Rx         0010  8  07 D3 08 F7 04 8D 04 D8 
  1151)     10555.4  Rx         0005  4  05 FE 08 19 
  1152)     10556.9  Rx         0002  2  0B BE 
  1153)     10604.5  Rx         0005  4  05 FD 08 02 
  1154)     10605.5  Rx         0002  2  0B AD 
  1155)     10617.5  Rx         0010  8  07 AC 08 D2 04 8E 04 D8 
  1156)     10645.3  Rx         0005  4  05 FE 07 EF 
  1157)     10645.7  Rx         0002  2  0B 9E 
  1158)     10674.3  Rx         0005  4  06 01 07 E5 
  1159)     10674.9  Rx         0002  2  0B 8C 
  1160)     10694.8  Rx         0202  1  00 
  1161)     10695.2  Rx         0006  2  00 01 
  1162)     10695.5  Rx         0010  8  07 7D 08 A1 04 8D 04 D9 
  1163)     10695.7  Rx         0011  4  00 C0 00 1F 
  1164)     10695.8  Rx         0182  2  00 03 
  1165)     10695.9  Rx         0183  2  01 00 
  1166)     10718.7  Rx         0005  4  05 FD 07 C4 
  1167)     10719.1  Rx         0002  2  0B 71 
  1168)     10746.3  Rx         0005  4  05 FE 07 A2 
  1169)     10746.8  Rx         0002  2  0B 4D 
  1170)     10752.5  Rx         0010  8  07 5B 08 7F 04 8E 04 D9 
  1171)     10776.0  Rx         0005  4  06 00 07 9C 
  1172)     10776.4  Rx         0002  2  0B 29 
  1173)     10804.0  Rx         0005  4  05 FF 07 8B 
  1174)     10804.6  Rx         0002  2  0B 06 
  1175)     10820.9  Rx         0010  8  07 3B 08 5C 04 8C 04 D8 
  1176)     10821.8  Rx         0202  1  00 
  1177)     10823.1  Rx         0006  2  00 01 
  1178)     10824.0  Rx         0011  4  00 C0 00 1F 
  1179)     10824.6  Rx         0182  2  00 03 
  1180)     10825.3  Rx         0183  2  01 00 
  1181)     10846.9  Rx         0005  4  06 00 07 58 
  1182)     10847.4  Rx         0002  2  0A DB 
  1183)     10874.9  Rx         0005  4  05 FF 07 07 
  1184)     10875.5  Rx         0002  2  0A 9C 
  1185)     10892.9  Rx         0010  8  07 1F 08 3D 04 8D 04 DB 
  1186)     10922.5  Rx         0005  4  05 FE 06 A6 
  1187)     10923.8  Rx         0002  2  0A 49 
  1188)     10960.5  Rx         0005  4  05 FB 06 69 
  1189)     10961.3  Rx         0002  2  09 F0 
  1190)     10982.1  Rx         0010  8  06 FD 08 17 04 8B 04 DA 
  1191)     10985.1  Rx         0202  1  00 
  1192)     10986.2  Rx         0006  2  00 01 
  1193)     10986.4  Rx         0011  4  00 C0 00 1F 
  1194)     10986.6  Rx         0182  2  00 03 
  1195)     10986.7  Rx         0183  2  01 00 
  1196)     11008.7  Rx         0005  4  05 FD 06 3D 
  1197)     11009.4  Rx         0002  2  09 8A 
  1198)     11035.5  Rx         0005  4  05 F9 06 15 
  1199)     11035.9  Rx         0002  2  09 20 
  1200)     11053.4  Rx         0010  8  06 D2 07 EB 04 8D 04 D8 
  1201)     11076.6  Rx         0005  4  06 00 05 EF 
  1202)     11077.2  Rx         0002  2  08 B8 
  1203)     11104.0  Rx         0005  4  05 FD 05 EE 
  1204)     11104.3  Rx         0002  2  08 68 
  1205)     11120.8  Rx         0010  8  06 9B 07 BB 04 8F 04 DC 
  1206)     11123.1  Rx         0202  1  00 
  1207)     11124.4  Rx         0006  2  00 01 
  1208)     11125.2  Rx         0011  4  00 C0 00 1F 
  1209)     11125.9  Rx         0182  2  00 03 
  1210)     11126.6  Rx         0183  2  01 00 
  1211)     11128.9  Tx         0202  1  00 
  1212)     11129.1  Rx         0006  2  00 01 
  1213)     11129.4  Rx         0011  4  00 C0 00 1F 
  1214)     11129.6  Rx         0182  2  00 03 
  1215)     11129.7  Rx         0183  2  01 00 
  1216)     11145.9  Rx         0005  4  05 FD 05 ED 
  1217)     11146.5  Rx         0002  2  08 32 
  1218)     11173.9  Rx         0005  4  05 FE 05 EC 
  1219)     11174.5  Rx         0002  2  08 0E 
  1220)     11189.5  Rx         0010  8  06 6B 07 86 04 8F 04 D7 
  1221)     11214.1  Rx         0005  4  05 FC 05 EE 
  1222)     11215.1  Rx         0002  2  07 F8 
  1223)     11252.5  Rx         0005  4  05 FE 05 EF 
  1224)     11253.2  Rx         0002  2  07 ED 
  1225)     11266.8  Rx         0010  8  06 3A 07 4D 04 8F 04 DC 
  1226)     11275.3  Rx         0202  1  00 
  1227)     11275.8  Rx         0006  2  00 01 
  1228)     11275.9  Rx         0011  4  00 C0 00 1F 
  1229)     11276.0  Rx         0182  2  00 03 
  1230)     11276.4  Rx         0183  2  01 00 
  1231)     11300.7  Rx         0005  4  05 FE 05 F0 
  1232)     11301.0  Rx         0002  2  07 ED 
  1233)     11339.0  Rx         0005  4  05 FD 05 EF 
  1234)     11339.5  Rx         0002  2  07 ED 
  1235)     11354.5  Rx         0010  8  06 03 07 21 04 92 04 D9 
  1236)     11386.8  Rx         0005  4  05 FB 05 EE 
  1237)     11387.4  Rx         0002  2  07 ED 
  1238)     11415.9  Rx         0005  4  05 FC 05 EB 
  1239)     11416.3  Rx         0002  2  07 ED 
  1240)     11427.8  Rx         0010  8  05 D3 06 E9 04 8F 04 DA 
  1241)     11439.4  Rx         0202  1  00 
  1242)     11440.7  Rx         0006  2  00 01 
  1243)     11441.5  Rx         0011  4  00 C0 00 1F 
  1244)     11442.2  Rx         0182  2  00 03 
  1245)     11442.9  Rx         0183  2  01 00 
  1246)     11459.4  Rx         0005  4  05 FE 05 ED 
  1247)     11460.0  Rx         0002  2  07 ED 
  1248)     11486.6  Rx         0005  4  05 FE 05 EB 
  1249)     11486.8  Rx         0002  2  07 EC 
  1250)     11493.3  Rx         0010  8  05 9F 06 B8 04 91 04 D8 
  1251)     11527.3  Rx         0005  4  05 FE 05 ED 
  1252)     11528.1  Rx         0002  2  07 EC 
  1253)     11554.6  Rx         0005  4  05 FD 05 ED 
  1254)     11555.1  Rx         0002  2  07 EA 
  1255)     11560.8  Rx         0010  8  05 6D 06 83 04 8F 04 D8 
  1256)     11576.4  Rx         0202  1  00 
  1257)     11576.9  Rx         0006  2  00 01 
  1258)     11577.0  Rx         0011  4  00 C0 00 1F 
  1259)     11577.2  Rx         0182  2  00 03 
  1260)     11577.4  Rx         0183  2  01 00 
  1261)     11592.0  Rx         0005  4  05 FC 05 EC 
  1262)     11594.2  Rx         0002  2  07 EA 
  1263)     11623.5  Rx         0005  4  06 00 05 EE 
  1264)     11624.0  Rx         0002  2  07 EC 
  1265)     11629.6  Rx         0010  8  05 47 06 61 04 90 04 D8 
  1266)     11665.4  Rx         0005  4  05 FD 05 EC 
  1267)     11667.9  Rx         0002  2  07 EA 
  1268)     11706.6  Rx         0005  4  05 FE 05 ED 
  1269)     11707.2  Rx         0002  2  07 EC 
  1270)     11716.5  Rx         0010  8  05 2E 06 46 04 8F 04 D6 
  1271)     11736.2  Rx         0202  1  00 
  1272)     11737.4  Rx         0006  2  00 01 
  1273)     11738.3  Rx         0011  4  00 C2 00 1F 
  1274)     11738.9  Rx         0182  2  00 03 
  1275)     11739.6  Rx         0183  2  01 00 
  1276)     11750.7  Rx         0005  4  05 FF 05 EC 
  1277)     11753.6  Rx         0002  2  07 EC 
  1278)     11784.1  Rx         0005  4  05 FE 05 EE 
  1279)     11784.5  Rx         0002  2  07 EC 
  1280)     11789.5  Rx         0010  8  05 1F 06 32 04 8E 04 D9 
  1281)     11818.0  Rx         0005  4  05 FD 05 EE 
  1282)     11821.1  Rx         0002  2  07 EC 
  1283)     11851.9  Rx         0005  4  06 00 05 ED 
  1284)     11852.2  Rx         0002  2  07 EC 
  1285)     11857.7  Rx         0010  8  05 19 06 31 04 8C 04 DA 
  1286)     11877.4  Rx         0202  1  00 
  1287)     11878.1  Rx         0006  2  00 01 
  1288)     11878.3  Rx         0011  4  00 C2 00 1F 
  1289)     11878.4  Rx         0182  2  00 03 
  1290)     11878.5  Rx         0183  2  01 00 
  1291)     11882.1  Rx         0005  4  05 FF 05 F0 
  1292)     11882.6  Rx         0002  2  07 ED 
  1293)     11909.5  Rx         0005  4  05 FF 05 EF 
  1294)     11910.1  Rx         0002  2  07 ED 
  1295)     11915.4  Rx         0010  8  05 18 06 2C 04 8E 04 D8 
  1296)     11940.2  Rx         0005  4  05 FE 05 EF 
  1297)     11944.0  Rx         0002  2  07 ED 
  1298)     11977.8  Rx         0005  4  05 FE 05 F1 
  1299)     11978.5  Rx         0002  2  07 EF 
  1300)     11983.8  Rx         0010  8  05 18 06 32 04 92 04 DA 
  1301)     12005.9  Rx         0202  1  00 
  1302)     12007.1  Rx         0006  2  00 01 
  1303)     12008.0  Rx         0011  4  00 C0 00 1F 
  1304)     12008.7  Rx         0182  2  00 03 
  1305)     12009.3  Rx         0183  2  01 00 
  1306)     12014.6  Rx         0005  4  05 FE 05 EB 
  1307)     12014.9  Rx         0002  2  07 ED 
  1308)     12059.9  Rx         0005  4  05 FF 05 EC 
  1309)     12061.5  Rx         0002  2  07 ED 
  1310)     12069.5  Rx         0010  8  05 20 06 36 04 8F 04 D8 
  1311)     12098.2  Rx         0005  4  05 FE 05 EC 
  1312)     12098.7  Rx         0002  2  07 ED 
  1313)     12128.3  Rx         0005  4  06 00 05 ED 
  1314)     12128.9  Rx         0002  2  07 EC 
  1315)     12129.5  Tx         0202  1  00 
  1316)     12130.8  Rx         0006  2  00 01 
  1317)     12131.6  Rx         0011  4  00 C0 00 1F 
  1318)     12132.3  Rx         0182  2  00 03 
  1319)     12132.7  Rx         0183  2  01 00 
  1320)     12136.5  Rx         0010  8  05 1E 06 38 04 8F 04 D9 
  1321)     12156.9  Rx         0202  1  00 
  1322)     12157.5  Rx         0006  2  00 01 
  1323)     12157.6  Rx         0011  4  00 C0 00 1F 
  1324)     12157.7  Rx         0182  2  00 03 
  1325)     12157.9  Rx         0183  2  01 00 
  1326)     12159.5  Rx         0005  4  05 FD 05 EC 
  1327)     12160.0  Rx         0002  2  07 EC 
  1328)     12186.4  Rx         0005  4  06 00 05 EE 
  1329)     12186.9  Rx         0002  2  07 EA 
  1330)     12202.5  Rx         0010  8  05 1D 06 35 04 8F 04 D8 
  1331)     12226.4  Rx         0005  4  06 01 05 EF 
  1332)     12227.7  Rx         0002  2  07 EC 
  1333)     12264.9  Rx         0005  4  05 FF 05 EE 
  1334)     12265.3  Rx         0002  2  07 EC 
  1335)     12270.8  Rx         0010  8  05 20 06 33 04 8E 04 DB 
  1336)     12290.1  Rx         0202  1  00 
  1337)     12291.0  Rx         0006  2  00 01 
  1338)     12291.2  Rx         0011  4  00 C2 00 1F 
  1339)     12291.2  Rx         0182  2  00 03 
  1340)     12291.4  Rx         0183  2  01 00 
  1341)     12292.7  Rx         0005  4  05 FF 05 ED 
  1342)     12293.3  Rx         0002  2  07 ED 
  1343)     12320.5  Rx         0005  4  05 FE 05 F0 
  1344)     12321.0  Rx         0002  2  07 ED 
  1345)     12334.8  Rx         0010  8  05 1E 06 34 04 8D 04 D8 
  1346)     12364.2  Rx         0005  4  06 00 05 EE 
  1347)     12365.1  Rx         0002  2  07 ED 
  1348)     12401.2  Rx         0005  4  05 FF 05 F1 
  1349)     12402.5  Rx         0002  2  07 EF 
  1350)     12415.1  Rx         0010  8  05 1F 06 38 04 8E 04 D9 
  1351)     12446.5  Rx         0202  1  00 
  1352)     12447.1  Rx         0006  2  00 01 
  1353)     12447.3  Rx         0011  4  00 C0 00 1F 
  1354)     12447.4  Rx         0182  2  00 03 
  1355)     12447.5  Rx         0183  2  01 00 
  1356)     12448.3  Rx         0005  4  05 FE 05 ED 
  1357)     12448.7  Rx         0002  2  07 ED 
  1358)     12475.0  Rx         0050  1  00 
  1359)     12475.3  Rx         0050  1  01 
  1360)     12476.8  Rx         0005  4  05 FC 05 EF 
  1361)     12477.5  Rx         0002  2  07 EF 
  1362)     12486.5  Rx         0010  8  05 1D 06 33 04 91 04 D9 
  1363)     12517.7  Rx         0005  4  05 FF 05 ED 
  1364)     12518.3  Rx         0002  2  07 EF 
  1365)     12544.6  Rx         0005  4  05 FF 05 EF 
  1366)     12545.1  Rx         0002  2  07 ED 
  1367)     12552.2  Rx         0010  8  05 1F 06 36 04 91 04 DA 
  1368)     12582.3  Rx         0202  1  00 
  1369)     12583.0  Rx         0006  2  00 01 
  1370)     12583.2  Rx         0011  4  00 C0 00 1F 
  1371)     12583.4  Rx         0005  4  05 FE 05 ED 
  1372)     12583.6  Rx         0182  2  00 03 
  1373)     12583.7  Rx         0183  2  01 00 
  1374)     12584.3  Rx         0002  2  07 ED 
  1375)     12610.5  Rx         0005  4  06 01 05 EC 
  1376)     12610.8  Rx         0002  2  07 ED 
  1377)     12616.0  Rx         0010  8  05 1D 06 35 04 8E 04 D8 
  1378)     12649.3  Rx         0005  4  05 FD 05 EE 
  1379)     12649.9  Rx         0002  2  07 ED 
  1380)     12676.8  Rx         0005  4  05 FF 05 EE 
  1381)     12677.5  Rx         0002  2  07 ED 
  1382)     12684.1  Rx         0010  8  05 21 06 36 04 90 04 D8 
  1383)     12722.7  Rx         0005  4  05 FD 05 EF 
  1384)     12723.0  Rx         0002  2  07 ED 
  1385)     12723.4  Rx         0202  1  00 
  1386)     12724.0  Rx         0006  2  00 01 
  1387)     12724.2  Rx         0011  4  00 C0 00 1F 
  1388)     12724.3  Rx         0182  2  00 03 
  1389)     12724.4  Rx         0183  2  01 00 
  1390)     12760.7  Rx         0005  4  06 01 05 EF 
  1391)     12761.2  Rx         0002  2  07 ED 
  1392)     12769.3  Rx         0010  8  05 20 06 38 04 92 04 DA 
  1393)     12805.7  Rx         0005  4  05 FC 05 EB 
  1394)     12806.0  Rx         0002  2  07 ED 
  1395)     12833.7  Rx         0053  1  00 
  1396)     12834.3  Rx         0053  1  01 
  1397)     12839.5  Rx         0005  4  05 FE 05 F0 
  1398)     12840.0  Rx         0002  2  07 ED 
  1399)     12844.1  Rx         0010  8  05 20 06 35 04 90 04 DA 
  1400)     12875.8  Rx         0005  4  05 FF 05 ED 
  1401)     12877.9  Rx         0002  2  07 ED 
  1402)     12878.6  Rx         0202  1  00 
  1403)     12879.4  Rx         0006  2  00 01 
  1404)     12879.6  Rx         0011  4  00 C0 00 1F 
  1405)     12879.7  Rx         0182  2  00 03 
  1406)     12879.8  Rx         0183  2  01 00 
  1407)     12905.0  Rx         0005  4  05 FE 05 ED 
  1408)     12905.6  Rx         0002  2  07 ED 
  1409)     12910.0  Rx         0010  8  05 1E 06 37 04 8F 04 DA 
  1410)     12932.6  Rx         0005  4  05 FE 05 EC 
  1411)     12933.2  Rx         0002  2  07 EC 
  1412)     12959.3  Rx         0005  4  05 FF 05 EA 
  1413)     12959.6  Rx         0002  2  07 EA 
  1414)     12965.1  Rx         0010  8  05 20 06 35 04 91 04 DB 
  1415)     12995.1  Rx         0005  4  05 FE 05 F0 
  1416)     12998.3  Rx         0002  2  07 EC 
  1417)     13002.6  Rx         0202  1  00 
  1418)     13003.2  Rx         0006  2  00 01 
  1419)     13003.4  Rx         0011  4  00 C0 00 1F 
  1420)     13003.5  Rx         0182  2  00 03 
  1421)     13003.6  Rx         0183  2  01 00 
  1422)     13028.3  Rx         0005  4  05 FB 05 EA 
  1423)     13028.8  Rx         0002  2  07 EA 
  1424)     13035.4  Rx         0010  8  05 21 06 33 04 8F 04 D8 
  1425)     13065.4  Rx         0005  4  05 FF 05 ED 
  1426)     13065.9  Rx         0002  2  07 EA 
  1427)     13102.9  Rx         0005  4  05 FF 05 EE 
  1428)     13103.4  Rx         0002  2  07 EA 
  1429)     13111.4  Rx         0010  8  05 20 06 35 04 8E 04 DA 
  1430)     13128.9  Tx         0202  1  00 
  1431)     13130.1  Rx         0006  2  00 01 
  1432)     13130.3  Rx         0011  4  00 C0 00 1F 
  1433)     13130.3  Rx         0182  2  00 03 
  1434)     13130.5  Rx         0183  2  01 00 
  1435)     13138.3  Rx         0005  4  05 FE 05 EE 
  1436)     13142.1  Rx         0002  2  07 EC 
  1437)     13150.2  Rx         0202  1  00 
  1438)     13151.1  Rx         0006  2  00 01 
  1439)     13151.2  Rx         0011  4  00 C0 00 1F 
  1440)     13151.4  Rx         0182  2  00 03 
  1441)     13151.5  Rx         0183  2  01 00 
  1442)     13175.7  Rx         0005  4  05 FF 05 F0 
  1443)     13176.6  Rx         0002  2  07 ED 
  1444)     13180.4  Rx         0010  8  05 22 06 35 04 90 04 DA 
  1445)     13204.9  Rx         0005  4  05 FF 05 ED 
  1446)     13205.3  Rx         0002  2  07 EC 
  1447)     13232.1  Rx         0005  4  05 FD 05 E7 
  1448)     13232.7  Rx         0002  2  07 EC 
  1449)     13237.5  Rx         0010  8  05 1F 06 35 04 8F 04 D8 
  1450)     13261.0  Rx         0005  4  06 00 05 F0 
  1451)     13261.3  Rx         0002  2  07 EC 
  1452)     13274.9  Rx         0202  1  00 
  1453)     13275.5  Rx         0006  2  00 01 
  1454)     13275.7  Rx         0011  4  00 C0 00 1F 
  1455)     13275.8  Rx         0182  2  00 03 
  1456)     13276.0  Rx         0183  2  01 00 
  1457)     13299.7  Rx         0005  4  05 FF 05 EF 
  1458)     13300.1  Rx         0002  2  07 ED 
  1459)     13305.1  Rx         0010  8  05 1C 06 36 04 8F 04 DB 
  1460)     13327.2  Rx         0005  4  05 FE 05 EF 
  1461)     13327.7  Rx         0002  2  07 ED 
  1462)     13354.8  Rx         0005  4  05 FE 05 F0 
  1463)     13355.7  Rx         0002  2  07 ED 
  1464)     13372.5  Rx         0010  8  05 1C 06 37 04 90 04 D9 
  1465)     13402.6  Rx         0005  4  05 FE 05 ED 
  1466)     13404.1  Rx         0002  2  07 ED 
  1467)     13410.2  Rx         0202  1  00 
  1468)     13411.0  Rx         0006  2  00 01 
  1469)     13411.2  Rx         0011  4  00 C0 00 1F 
  1470)     13411.3  Rx         0182  2  00 03 
  1471)     13411.4  Rx         0183  2  01 00 
  1472)     13449.1  Rx         0010  8  05 1B 06 38 04 90 04 D9 
  1473)     13477.6  Rx         0005  4  06 00 05 EE 
  1474)     13478.3  Rx         0002  2  07 EF 
  1475)     13510.5  Rx         0005  4  05 FF 05 EF 
  1476)     13510.9  Rx         0002  2  07 EF 
  1477)     13525.7  Rx         0010  8  05 1D 06 39 04 8F 04 D8 
  1478)     13554.1  Rx         0005  4  05 FE 05 ED 
  1479)     13554.7  Rx         0002  2  07 ED 
  1480)     13559.0  Rx         0202  1  00 
  1481)     13559.6  Rx         0006  2  00 01 
  1482)     13559.9  Rx         0011  4  00 C0 00 1F 
  1483)     13560.0  Rx         0182  2  00 03 
  1484)     13560.1  Rx         0183  2  01 00 
  1485)     13581.0  Rx         0005  4  05 FD 05 EE 
  1486)     13581.4  Rx         0002  2  07 ED 
  1487)     13585.9  Rx         0010  8  05 1C 06 3B 04 90 04 D9 
  1488)     13611.0  Rx         0005  4  05 FF 05 ED 
  1489)     13611.6  Rx         0002  2  07 ED 
  1490)     13637.3  Rx         0005  4  05 FF 05 EE 
  1491)     13637.8  Rx         0002  2  07 ED 
  1492)     13652.1  Rx         0010  8  05 1B 06 39 04 8D 04 D7 
  1493)     13675.8  Rx         0005  4  06 01 05 EE 
  1494)     13676.1  Rx         0002  2  07 ED 
  1495)     13692.5  Rx         0202  1  00 
  1496)     13693.4  Rx         0006  2  00 01 
  1497)     13693.5  Rx         0011  4  00 C0 00 1F 
  1498)     13693.6  Rx         0182  2  00 03 
  1499)     13693.8  Rx         0183  2  01 00 
  1500)     13715.1  Rx         0005  4  05 FE 05 ED 
  1501)     13715.4  Rx         0002  2  07 ED 
  1502)     13728.7  Rx         0010  8  05 1B 06 38 04 8E 04 D9 
  1503)     13767.2  Rx         0005  4  05 FF 05 EF 
  1504)     13767.6  Rx         0002  2  07 ED 
  1505)     13806.4  Rx         0005  4  05 FC 05 EE 
  1506)     13806.8  Rx         0002  2  07 ED 
  1507)     13818.0  Rx         0010  8  05 1A 06 3A 04 8E 04 DA 
  1508)     13849.0  Rx         0005  4  05 FF 05 EE 
  1509)     13849.4  Rx         0002  2  07 ED 
  1510)     13866.6  Rx         0202  1  00 
  1511)     13867.2  Rx         0006  2  00 01 
  1512)     13867.3  Rx         0011  4  00 C0 00 1F 
  1513)     13867.4  Rx         0182  2  00 03 
  1514)     13867.5  Rx         0183  2  01 00 
  1515)     13889.1  Rx         0005  4  05 FE 05 EF 
  1516)     13889.5  Rx         0002  2  07 ED 
  1517)     13893.0  Rx         0010  8  05 1A 06 3A 04 90 04 DA 
  1518)     13918.8  Rx         0005  4  06 00 05 EC 
  1519)     13919.0  Rx         0002  2  07 ED 
  1520)     13945.2  Rx         0005  4  05 FE 05 EF 
  1521)     13945.8  Rx         0002  2  07 ED 
  1522)     13951.5  Rx         0010  8  05 1E 06 38 04 91 04 D8 
  1523)     13985.1  Rx         0005  4  06 00 05 EB 
  1524)     13985.8  Rx         0002  2  07 ED 
  1525)     14002.7  Rx         0202  1  00 
  1526)     14003.6  Rx         0006  2  00 01 
  1527)     14003.8  Rx         0011  4  00 C0 00 1F 
  1528)     14003.9  Rx         0182  2  00 03 
  1529)     14004.0  Rx         0183  2  01 00 
  1530)     14022.8  Rx         0005  4  05 FF 05 ED 
  1531)     14023.3  Rx         0002  2  07 EC 
  1532)     14028.1  Rx         0010  8  05 1D 06 38 04 91 04 D9 
  1533)     14062.4  Rx         0005  4  05 FC 05 EE 
  1534)     14063.1  Rx         0002  2  07 EC 
  1535)     14090.3  Rx         0005  4  05 FE 05 EE 
  1536)     14090.6  Rx         0002  2  07 EC 
  1537)     14096.0  Rx         0010  8  05 1D 06 37 04 8F 04 D8 
  1538)     14128.9  Tx         0202  1  00 
  1539)     14130.2  Rx         0006  2  00 01 
  1540)     14131.1  Rx         0011  4  00 C0 00 1F 
  1541)     14131.7  Rx         0182  2  00 03 
  1542)     14132.4  Rx         0183  2  01 00 
  1543)     14142.2  Rx         0005  4  05 FD 05 EC 
  1544)     14142.9  Rx         0002  2  07 EC 
  1545)     14167.0  Rx         0202  1  00 
  1546)     14167.5  Rx         0006  2  00 01 
  1547)     14167.7  Rx         0011  4  00 C0 00 1F 
  1548)     14167.9  Rx         0182  2  00 03 
  1549)     14168.0  Rx         0183  2  01 00 
  1550)     14192.3  Rx         0005  4  05 FE 05 ED 
  1551)     14192.8  Rx         0002  2  07 EC 
  1552)     14197.9  Rx         0010  8  05 1C 06 38 04 90 04 D9 
  1553)     14234.5  Rx         0005  4  05 FD 05 EC 
  1554)     14235.0  Rx         0002  2  07 EC 
  1555)     14268.2  Rx         0005  4  05 FB 05 ED 
  1556)     14268.7  Rx         0002  2  07 EC 
  1557)     14271.8  Rx         0010  8  05 1D 06 3A 04 91 04 DB 
  1558)     14296.0  Rx         0005  4  05 FF 05 EB 
  1559)     14296.3  Rx         0002  2  07 EA 
  1560)     14314.9  Rx         0202  1  00 
  1561)     14315.7  Rx         0006  2  00 01 
  1562)     14315.9  Rx         0011  4  00 C0 00 1F 
  1563)     14316.0  Rx         0182  2  00 03 
  1564)     14316.2  Rx         0183  2  01 00 
  1565)     14333.9  Rx         0005  4  05 FF 05 EC 
  1566)     14335.5  Rx         0002  2  07 EA 
  1567)     14339.4  Rx         0010  8  05 1C 06 39 04 8E 04 D8 
  1568)     14373.2  Rx         0005  4  05 FE 05 EB 
  1569)     14373.6  Rx         0002  2  07 EA 
  1570)     14399.4  Rx         0005  4  05 FF 05 EC 
  1571)     14400.6  Rx         0002  2  07 EA 
  1572)     14404.1  Rx         0010  8  05 1B 06 38 04 92 04 D8 
  1573)     14427.9  Rx         0005  4  05 FD 05 ED 
  1574)     14428.4  Rx         0002  2  07 EA 
  1575)     14448.2  Rx         0202  1  00 
  1576)     14448.8  Rx         0006  2  00 01 
  1577)     14448.9  Rx         0011  4  00 C0 00 1F 
  1578)     14449.0  Rx         0182  2  00 03 
  1579)     14449.1  Rx         0183  2  01 00 
  1580)     14465.6  Rx         0005  4  05 FF 05 EC 
  1581)     14467.0  Rx         0002  2  07 EA 
  1582)     14472.7  Rx         0010  8  05 1B 06 39 04 91 04 DB 
  1583)     14511.0  Rx         0005  4  05 FF 05 EA 
  1584)     14513.5  Rx         0002  2  07 EA 
  1585)     14552.1  Rx         0005  4  05 FF 05 EB 
  1586)     14552.6  Rx         0002  2  07 EA 
  1587)     14558.7  Rx         0010  8  05 1C 06 39 04 8F 04 D8 
  1588)     14586.6  Rx         0005  4  05 FE 05 EA 
  1589)     14587.1  Rx         0002  2  07 E8 
  1590)     14607.1  Rx         0202  1  00 
  1591)     14608.3  Rx         0006  2  00 01 
  1592)     14608.6  Rx         0011  4  00 C0 00 1F 
  1593)     14608.7  Rx         0182  2  00 03 
  1594)     14608.8  Rx         0183  2  01 00 
  1595)     14618.7  Rx         0005  4  05 FF 05 EB 
  1596)     14621.4  Rx         0002  2  07 E8 
  1597)     14628.4  Rx         0010  8  05 19 06 3A 04 8F 04 DC 
  1598)     14654.2  Rx         0005  4  05 FE 05 EB 
  1599)     14654.6  Rx         0002  2  07 E8 
  1600)     14681.0  Rx         0005  4  06 00 05 EB 
  1601)     14681.5  Rx         0002  2  07 E8 
  1602)     14685.1  Rx         0010  8  05 1B 06 37 04 91 04 DA 
  1603)     14708.3  Rx         0005  4  05 FF 05 EB 
  1604)     14708.7  Rx         0002  2  07 E8 
  1605)     14729.3  Rx         0202  1  00 
  1606)     14729.7  Rx         0006  2  00 01 
  1607)     14729.9  Rx         0011  4  00 C0 00 1F 
  1608)     14730.1  Rx         0182  2  00 03 
  1609)     14730.3  Rx         0183  2  01 00 
  1610)     14736.1  Rx         0005  4  05 FF 05 EB 
  1611)     14739.4  Rx         0002  2  07 E8 
  1612)     14750.0  Rx         0010  8  05 1C 06 3A 04 8F 04 D8 
  1613)     14773.7  Rx         0005  4  05 FE 05 EC 
  1614)     14774.3  Rx         0002  2  07 E8 
  1615)     14801.1  Rx         0005  4  05 FF 05 EB 
  1616)     14803.7  Rx         0002  2  07 E8 
  1617)     14808.6  Rx         0010  8  05 1B 06 37 04 8C 04 DB 
  1618)     14840.3  Rx         0005  4  05 FF 05 EC 
  1619)     14842.6  Rx         0002  2  07 E8 
  1620)     14870.7  Rx         0202  1  00 
  1621)     14872.0  Rx         0006  2  00 01 
  1622)     14872.7  Rx         0011  4  00 C0 00 1F 
  1623)     14872.7  Rx         0182  2  00 03 
  1624)     14872.9  Rx         0183  2  01 00 
  1625)     14879.7  Rx         0005  4  05 FF 05 EA 
  1626)     14881.7  Rx         0002  2  07 E8 
  1627)     14897.8  Rx         0010  8  05 1C 06 38 04 8F 04 D9 
  1628)     14925.1  Rx         0005  4  06 02 05 EC 
  1629)     14926.9  Rx         0002  2  07 E8 
  1630)     14957.7  Rx         0005  4  05 FF 05 EF 
  1631)     14958.0  Rx         0002  2  07 EA 
  1632)     14961.3  Rx         0010  8  05 1D 06 38 04 8E 04 D9 
  1633)     14985.3  Rx         0005  4  05 FF 05 EC 
  1634)     14985.8  Rx         0002  2  07 EA 
  1635)     15008.5  Rx         0202  1  00 
  1636)     15009.1  Rx         0006  2  00 01 
  1637)     15009.3  Rx         0011  4  00 C0 00 1F 
  1638)     15009.4  Rx         0182  2  00 03 
  1639)     15009.5  Rx         0183  2  01 00 
  1640)     15012.7  Rx         0005  4  05 FE 05 ED 
  1641)     15013.2  Rx         0002  2  07 EA 
  1642)     15026.5  Rx         0010  8  05 1A 06 39 04 92 04 D9 
  1643)     15052.2  Rx         0005  4  05 FE 05 ED 
  1644)     15052.6  Rx         0002  2  07 EA 
  1645)     15078.6  Rx         0005  4  05 FF 05 EC 
  1646)     15079.6  Rx         0002  2  07 EC 
  1647)     15082.4  Rx         0010  8  05 1B 06 36 04 8F 04 D6 
  1648)     15106.6  Rx         0005  4  06 00 05 EB 
  1649)     15107.1  Rx         0002  2  07 EC 
  1650)     15129.3  Tx         0202  1  00 
  1651)     15129.7  Rx         0006  2  00 01 
  1652)     15129.9  Rx         0011  4  00 C0 00 1F 
  1653)     15130.1  Rx         0182  2  00 03 
  1654)     15130.3  Rx         0183  2  01 00 
  1655)     15130.4  Rx         0202  1  00 
  1656)     15131.2  Rx         0006  2  00 01 
  1657)     15131.5  Rx         0011  4  00 C0 00 1F 
  1658)     15131.6  Rx         0182  2  00 03 
  1659)     15131.7  Rx         0183  2  01 00 
  1660)     15136.1  Rx         0005  4  05 FE 05 EC 
  1661)     15136.6  Rx         0002  2  07 EA 
  1662)     15145.1  Rx         0010  8  05 1D 06 39 04 8F 04 DA 
  1663)     15181.7  Rx         0005  4  06 00 05 ED 
  1664)     15182.9  Rx         0002  2  07 EA 
  1665)     15231.0  Rx         0005  4  05 FF 05 EB 
  1666)     15231.5  Rx         0002  2  07 EA 
  1667)     15235.8  Rx         0010  8  05 19 06 38 04 90 04 D9 
  1668)     15261.3  Rx         0005  4  05 FC 05 EA 
  1669)     15261.9  Rx         0002  2  07 EA 
  1670)     15286.5  Rx         0202  1  00 
  1671)     15287.1  Rx         0006  2  00 01 
  1672)     15287.2  Rx         0011  4  00 C0 00 1F 
  1673)     15287.3  Rx         0182  2  00 03 
  1674)     15287.5  Rx         0183  2  01 00 
  1675)     15289.5  Rx         0005  4  05 FF 05 ED 
  1676)     15290.1  Rx         0002  2  07 EA 
  1677)     15294.2  Rx         0010  8  05 1D 06 39 04 90 04 D7 
  1678)     15328.9  Rx         0005  4  06 00 05 E8 
  1679)     15329.6  Rx         0002  2  07 E8 
  1680)     15355.9  Rx         0005  4  06 00 05 E8 
  1681)     15357.1  Rx         0002  2  07 E7 
  1682)     15359.5  Rx         0010  8  05 1C 06 3A 04 90 04 DA 
  1683)     15395.0  Rx         0005  4  06 01 05 E7 
  1684)     15395.4  Rx         0002  2  07 E7 
  1685)     15419.4  Rx         0202  1  00 
  1686)     15420.2  Rx         0006  2  00 01 
  1687)     15420.4  Rx         0011  4  00 C0 00 1F 
  1688)     15420.5  Rx         0182  2  00 03 
  1689)     15420.7  Rx         0183  2  01 00 
  1690)     15422.4  Rx         0005  4  06 00 05 E5 
  1691)     15422.9  Rx         0002  2  07 E3 
  1692)     15425.5  Rx         0010  8  05 1D 06 3B 04 8F 04 DA 
  1693)     15453.6  Rx         0005  4  05 FD 05 E1 
  1694)     15454.2  Rx         0002  2  07 E1 
  1695)     15482.5  Rx         0005  4  05 FE 05 C9 
  1696)     15483.1  Rx         0002  2  07 D7 
  1697)     15487.4  Rx         0010  8  05 1B 06 3A 04 8C 04 D8 
  1698)     15532.3  Rx         0005  4  05 FD 05 8E 
  1699)     15532.8  Rx         0002  2  07 BD 
  1700)     15566.1  Rx         0202  1  00 
  1701)     15567.3  Rx         0006  2  00 01 
  1702)     15568.2  Rx         0011  4  00 C0 00 1F 
  1703)     15568.6  Rx         0182  2  00 03 
  1704)     15568.7  Rx         0183  2  01 00 
  1705)     15569.5  Rx         0005  4  05 FD 05 51 
  1706)     15570.0  Rx         0002  2  07 92 
  1707)     15574.1  Rx         0010  8  05 1B 06 36 04 90 04 D5 
  1708)     15604.7  Rx         0005  4  05 FF 05 25 
  1709)     15605.2  Rx         0002  2  07 5A 
  1710)     15635.3  Rx         0005  4  05 FF 05 20 
  1711)     15635.8  Rx         0002  2  07 22 
  1712)     15638.4  Rx         0010  8  05 0E 06 2C 04 8F 04 DB 
  1713)     15675.4  Rx         0005  4  06 02 05 26 
  1714)     15676.0  Rx         0002  2  06 EB 
  1715)     15702.7  Rx         0202  1  00 
  1716)     15703.5  Rx         0006  2  00 01 
  1717)     15703.6  Rx         0005  4  05 FF 05 3D 
  1718)     15703.9  Rx         0011  4  00 C0 00 1F 
  1719)     15704.1  Rx         0182  2  00 03 
  1720)     15704.2  Rx         0183  2  01 00 
  1721)     15704.6  Rx         0002  2  06 C4 
  1722)     15706.6  Rx         0010  8  04 FC 06 18 04 90 04 D8 
  1723)     15734.2  Rx         0005  4  05 FF 05 5E 
  1724)     15734.5  Rx         0002  2  06 B6 
  1725)     15761.5  Rx         0005  4  05 FD 05 72 
  1726)     15762.1  Rx         0002  2  06 C0 
  1727)     15764.4  Rx         0010  8  04 E4 06 00 04 8F 04 D8 
  1728)     15802.5  Rx         0005  4  05 FD 05 84 
  1729)     15802.8  Rx         0002  2  06 DA 
  1730)     15831.5  Rx         0005  4  05 FC 05 96 
  1731)     15831.6  Rx         0202  1  00 
  1732)     15832.3  Rx         0006  2  00 01 
  1733)     15832.5  Rx         0011  4  00 C0 00 1F 
  1734)     15832.6  Rx         0182  2  00 03 
  1735)     15832.6  Rx         0002  2  06 FD 
  1736)     15832.7  Rx         0183  2  01 00 
  1737)     15836.7  Rx         0010  8  04 C5 05 E3 04 91 04 D9 
  1738)     15871.1  Rx         0005  4  05 FF 05 B6 
  1739)     15871.5  Rx         0002  2  07 26 
  1740)     15908.6  Rx         0005  4  05 FE 05 D1 
  1741)     15908.9  Rx         0002  2  07 51 
  1742)     15912.9  Rx         0010  8  04 B1 05 C9 04 8F 04 D8 
  1743)     15941.6  Rx         0005  4  05 FE 05 E6 
  1744)     15942.3  Rx         0002  2  07 78 
  1745)     15969.7  Rx         0005  4  06 00 05 E8 
  1746)     15970.3  Rx         0002  2  07 99 
  1747)     15970.9  Rx         0202  1  00 
  1748)     15971.6  Rx         0006  2  00 01 
  1749)     15971.8  Rx         0011  4  00 C0 00 1F 
  1750)     15971.8  Rx         0182  2  00 03 
  1751)     15971.9  Rx         0183  2  01 00 
  1752)     15972.7  Rx         0010  8  04 A1 05 C4 04 91 04 DA 
  1753)     16000.5  Rx         0005  4  05 FE 05 E6 
  1754)     16001.2  Rx         0002  2  07 B6 
  1755)     16028.1  Rx         0005  4  06 00 05 E9 
  1756)     16028.4  Rx         0002  2  07 CD 
  1757)     16030.6  Rx         0010  8  04 AB 05 CD 04 91 04 D8 
  1758)     16055.9  Rx         0005  4  05 FE 05 E6 
  1759)     16056.3  Rx         0002  2  07 DB 
  1760)     16083.4  Rx         0005  4  05 FF 05 E6 
  1761)     16083.9  Rx         0002  2  07 E1 
  1762)     16085.2  Rx         0202  1  00 
  1763)     16085.7  Rx         0006  2  00 01 
  1764)     16086.0  Rx         0011  4  00 C0 00 1F 
  1765)     16086.2  Rx         0182  2  00 03 
  1766)     16086.3  Rx         0183  2  01 00 
  1767)     16086.5  Rx         0010  8  04 BD 05 D6 04 8E 04 D9 
  1768)     16111.7  Rx         0005  4  05 FF 05 E8 
  1769)     16112.2  Rx         0002  2  07 E1 
  1770)     16129.8  Tx         0202  1  00 
  1771)     16131.1  Rx         0006  2  00 01 
  1772)     16132.0  Rx         0011  4  00 C0 00 1F 
  1773)     16132.6  Rx         0182  2  00 03 
  1774)     16133.1  Rx         0183  2  01 00 
  1775)     16140.9  Rx         0005  4  06 01 05 E5 
  1776)     16144.1  Rx         0002  2  07 E1 
  1777)     16154.4  Rx         0010  8  04 CB 05 DE 04 90 04 DA 
  1778)     16190.2  Rx         0005  4  05 FD 05 E6 
  1779)     16192.7  Rx         0002  2  07 E1 
  1780)     16229.8  Rx         0005  4  05 FF 05 E8 
  1781)     16231.7  Rx         0002  2  07 E0 
  1782)     16233.5  Rx         0202  1  00 
  1783)     16234.5  Rx         0010  8  04 DB 05 ED 04 90 04 D9 
  1784)     16234.6  Rx         0006  2  00 01 
  1785)     16235.0  Rx         0011  4  00 C0 00 1F 
  1786)     16235.7  Rx         0182  2  00 03 
  1787)     16236.3  Rx         0183  2  01 00 
  1788)     16266.2  Rx         0005  4  05 FC 05 E7 
  1789)     16266.7  Rx         0002  2  07 E1 
  1790)     16295.4  Rx         0005  4  05 FC 05 EB 
  1791)     16296.7  Rx         0002  2  07 E3 
  1792)     16305.9  Rx         0010  8  04 ED 05 F9 04 90 04 DA 
  1793)     16334.5  Rx         0005  4  05 FF 05 E6 
  1794)     16335.0  Rx         0002  2  07 E1 
  1795)     16362.3  Rx         0005  4  05 FD 05 E5 
  1796)     16362.9  Rx         0002  2  07 E1 
  1797)     16364.8  Rx         0010  8  04 FA 06 0B 04 90 04 DC 
  1798)     16365.3  Rx         0202  1  00 
  1799)     16365.9  Rx         0006  2  00 01 
  1800)     16366.1  Rx         0011  4  00 C0 00 1F 
  1801)     16366.1  Rx         0182  2  00 03 
  1802)     16366.3  Rx         0183  2  01 00 
  1803)     16393.5  Rx         0005  4  05 FF 05 E7 
  1804)     16393.9  Rx         0002  2  07 E1 
  1805)     16421.1  Rx         0005  4  05 FE 05 E6 
  1806)     16421.6  Rx         0002  2  07 E1 
  1807)     16426.3  Rx         0010  8  05 05 06 16 04 8E 04 DA 
  1808)     16463.5  Rx         0005  4  06 01 05 E6 
  1809)     16463.9  Rx         0002  2  07 E1 
  1810)     16493.6  Rx         0005  4  05 FF 05 E5 
  1811)     16494.1  Rx         0002  2  07 E0 
  1812)     16496.0  Rx         0010  8  05 16 06 27 04 90 04 D9 
  1813)     16499.7  Rx         0202  1  00 
  1814)     16501.0  Rx         0006  2  00 01 
  1815)     16501.8  Rx         0011  4  00 C0 00 1F 
  1816)     16502.5  Rx         0182  2  00 03 
  1817)     16503.2  Rx         0183  2  01 00 
  1818)     16534.7  Rx         0005  4  06 00 05 E7 
  1819)     16535.2  Rx         0002  2  07 E0 
  1820)     16573.5  Rx         0005  4  06 00 05 E4 
  1821)     16574.0  Rx         0002  2  07 E0 
  1822)     16576.6  Rx         0010  8  05 24 06 36 04 8E 04 DA 
  1823)     16612.7  Rx         0005  4  05 FF 05 E6 
  1824)     16613.3  Rx         0002  2  07 E0 
  1825)     16641.1  Rx         0005  4  05 FF 05 E5 
  1826)     16641.5  Rx         0002  2  07 E0 
  1827)     16642.7  Rx         0010  8  05 2A 06 38 04 90 04 D7 
  1828)     16645.8  Rx         0202  1  00 
  1829)     16646.5  Rx         0006  2  00 01 
  1830)     16646.7  Rx         0011  4  00 C0 00 1F 
  1831)     16646.9  Rx         0182  2  00 03 
  1832)     16647.0  Rx         0183  2  01 00 
  1833)     16670.6  Rx         0005  4  05 FE 05 E7 
  1834)     16670.9  Rx         0002  2  07 E0 
  1835)     16698.7  Rx         0005  4  05 FD 05 E6 
  1836)     16699.1  Rx         0002  2  07 E0 
  1837)     16700.6  Rx         0010  8  05 2A 06 3B 04 8E 04 DA 
  1838)     16727.7  Rx         0005  4  05 FD 05 E6 
  1839)     16728.0  Rx         0002  2  07 E0 
  1840)     16755.9  Rx         0005  4  05 FD 05 E7 
  1841)     16756.3  Rx         0002  2  07 E0 
  1842)     16757.9  Rx         0010  8  05 26 06 32 04 90 04 D9 
  1843)     16761.1  Rx         0202  1  00 
  1844)     16762.4  Rx         0006  2  00 01 
  1845)     16763.2  Rx         0011  4  00 C0 00 1F 
  1846)     16763.9  Rx         0182  2  00 03 
  1847)     16764.6  Rx         0183  2  01 00 
  1848)     16787.2  Rx         0005  4  05 FE 05 E6 
  1849)     16787.6  Rx         0002  2  07 E0 
  1850)     16817.3  Rx         0005  4  05 FB 05 E6 
  1851)     16817.8  Rx         0002  2  07 E0 
  1852)     16821.3  Rx         0010  8  05 27 06 37 04 90 04 D8 
  1853)     16859.0  Rx         0005  4  06 01 05 E8 
  1854)     16859.4  Rx         0002  2  07 E0 
  1855)     16897.3  Rx         0005  4  05 FF 05 E9 
  1856)     16897.5  Rx         0002  2  07 E1 
  1857)     16902.1  Rx         0010  8  05 24 06 37 04 8E 04 D8 
  1858)     16915.1  Rx         0202  1  00 
  1859)     16916.4  Rx         0006  2  00 01 
  1860)     16917.3  Rx         0011  4  00 C0 00 1F 
  1861)     16917.9  Rx         0182  2  00 03 
  1862)     16918.3  Rx         0183  2  01 00 
  1863)     16943.6  Rx         0005  4  05 FC 05 E9 
  1864)     16944.0  Rx         0002  2  07 E3 
  1865)     16974.5  Rx         0005  4  05 FB 05 EB 
  1866)     16974.8  Rx         0002  2  07 E3 
  1867)     16976.0  Rx         0010  8  05 24 06 34 04 91 04 D9 
  1868)     17005.7  Rx         0005  4  05 FF 05 E7 
  1869)     17006.1  Rx         0002  2  07 E3 
  1870)     17033.3  Rx         0005  4  05 FE 05 E7 
  1871)     17033.6  Rx         0002  2  07 E3 
  1872)     17035.0  Rx         0010  8  05 24 06 38 04 8F 04 D9 
  1873)     17047.0  Rx         0202  1  00 
  1874)     17048.2  Rx         0006  2  00 01 
  1875)     17049.1  Rx         0011  4  00 C0 00 1F 
  1876)     17049.8  Rx         0182  2  00 03 
  1877)     17050.4  Rx         0183  2  01 00 
  1878)     17072.0  Rx         0005  4  05 FF 05 E6 
  1879)     17072.4  Rx         0002  2  07 E3 
  1880)     17100.3  Rx         0005  4  05 FE 05 E5 
  1881)     17100.6  Rx         0002  2  07 E3 
  1882)     17102.0  Rx         0010  8  05 26 06 38 04 91 04 DA 
  1883)     17129.1  Tx         0202  1  00 
  1884)     17129.3  Rx         0006  2  00 01 
  1885)     17129.6  Rx         0011  4  00 C0 00 1F 
  1886)     17129.7  Rx         0182  2  00 03 
  1887)     17129.8  Rx         0183  2  01 00 
  1888)     17130.0  Rx         0005  4  05 FF 05 E4 
  1889)     17130.7  Rx         0002  2  07 E1 
  1890)     17161.0  Rx         0005  4  05 FA 05 E6 
  1891)     17161.4  Rx         0002  2  07 E0 
  1892)     17164.6  Rx         0010  8  05 27 06 36 04 8F 04 D8 
  1893)     17182.2  Rx         0202  1  00 
  1894)     17183.4  Rx         0006  2  00 01 
  1895)     17184.3  Rx         0011  4  00 C0 00 1F 
  1896)     17185.0  Rx         0182  2  00 03 
  1897)     17185.6  Rx         0183  2  01 00 
  1898)     17210.6  Rx         0005  4  05 FF 05 E6 
  1899)     17212.1  Rx         0002  2  07 E0 
  1900)     17251.7  Rx         0005  4  05 FB 05 E7 
  1901)     17253.0  Rx         0002  2  07 E0 
  1902)     17254.2  Rx         0010  8  05 28 06 30 04 8F 04 DA 
  1903)     17282.3  Rx         0005  4  06 00 05 E5 
  1904)     17282.8  Rx         0002  2  07 E0 
  1905)     17310.5  Rx         0005  4  05 FD 05 E6 
  1906)     17310.7  Rx         0002  2  07 E0 
  1907)     17311.9  Rx         0010  8  05 25 06 36 04 90 04 D9 
  1908)     17322.3  Rx         0202  1  00 
  1909)     17323.6  Rx         0006  2  00 01 
  1910)     17324.4  Rx         0011  4  00 C0 00 1F 
  1911)     17325.1  Rx         0182  2  00 03 
  1912)     17325.8  Rx         0183  2  01 00 
