     1)        22.2  Rx         0010  8  05 1F 06 2E 04 8F 04 DB 
     2)        29.3  Rx         0005  4  05 FE 05 E7 
     3)        29.7  Rx         0002  2  07 DE 
     4)        54.1  Rx         0005  4  05 FE 05 E5 
     5)        54.7  Rx         0002  2  07 DE 
     6)        65.1  Rx         0202  1  00 
     7)        65.6  Rx         0006  2  00 01 
     8)        65.7  Rx         0011  4  00 C0 00 1F 
     9)        65.9  Rx         0182  2  00 03 
    10)        66.1  Rx         0183  2  01 00 
    11)        71.5  Rx         0010  8  05 1F 06 30 04 90 04 DB 
    12)        75.7  Rx         0005  4  05 FE 05 E4 
    13)        76.4  Rx         0002  2  07 DC 
    14)       102.9  Rx         0005  4  06 00 05 E4 
    15)       104.3  Rx         0002  2  07 DE 
    16)       125.8  Rx         0010  8  05 1F 06 2F 04 8F 04 DB 
    17)       132.9  Rx         0005  4  05 FD 05 E4 
    18)       133.7  Rx         0002  2  07 DC 
    19)       168.6  Rx         0005  4  05 FF 05 E5 
    20)       169.2  Rx         0002  2  07 DE 
    21)       179.1  Rx         0202  1  00 
    22)       180.4  Rx         0006  2  00 01 
    23)       180.5  Rx         0011  4  00 C0 00 1F 
    24)       180.6  Rx         0182  2  00 03 
    25)       180.7  Rx         0183  2  01 00 
    26)       187.3  Rx         0010  8  05 1E 06 31 04 8E 04 D8 
    27)       191.1  Rx         0005  4  06 00 05 E8 
    28)       191.6  Rx         0002  2  07 DE 
    29)       210.9  Rx         0005  4  05 FD 05 E4 
    30)       211.4  Rx         0002  2  07 DE 
    31)       224.8  Rx         0010  8  05 1F 06 2D 04 90 04 DA 
    32)       248.1  Rx         0005  4  05 FD 05 E6 
    33)       249.0  Rx         0002  2  07 DE 
    34)       258.4  Rx         0202  1  00 
    35)       259.0  Rx         0006  2  00 01 
    36)       259.3  Rx         0011  4  00 C0 00 1F 
    37)       259.4  Rx         0182  2  00 03 
    38)       259.5  Rx         0183  2  01 00 
    39)       264.1  Rx         0010  8  05 21 06 2E 04 90 04 DB 
    40)       272.4  Rx         0005  4  05 FF 05 E5 
    41)       273.0  Rx         0002  2  07 DE 
    42)       291.1  Rx         0005  4  05 FF 05 E6 
    43)       291.7  Rx         0002  2  07 E0 
    44)       293.7  Tx         0202  1  00 
    45)       293.9  Rx         0006  2  00 01 
    46)       294.2  Rx         0011  4  00 C0 00 1F 
    47)       294.3  Rx         0182  2  00 03 
    48)       294.4  Rx         0183  2  01 00 
    49)       306.5  Rx         0010  8  05 1F 06 2E 04 8E 04 D8 
    50)       312.9  Rx         0005  4  05 FD 05 E5 
    51)       313.3  Rx         0002  2  07 E0 
    52)       357.9  Rx         0005  4  05 FE 05 E7 
    53)       358.4  Rx         0002  2  07 E0 
    54)       381.6  Rx         0202  1  00 
    55)       382.4  Rx         0006  2  00 01 
    56)       382.7  Rx         0011  4  00 C0 00 1F 
    57)       382.8  Rx         0182  2  00 03 
    58)       383.0  Rx         0183  2  01 00 
    59)       387.4  Rx         0010  8  05 22 06 2C 04 8C 04 DA 
    60)       403.5  Rx         0005  4  05 FD 05 E7 
    61)       403.9  Rx         0002  2  07 E0 
    62)       444.1  Rx         0005  4  05 FE 05 E8 
    63)       444.9  Rx         0002  2  07 E0 
    64)       469.5  Rx         0010  8  05 1D 06 2C 04 91 04 DB 
    65)       486.4  Rx         0005  4  05 FD 05 E8 
    66)       486.9  Rx         0002  2  07 E1 
    67)       518.7  Rx         0005  4  05 FD 05 E4 
    68)       519.3  Rx         0002  2  07 E0 
    69)       539.0  Rx         0202  1  00 
    70)       539.6  Rx         0006  2  00 01 
    71)       539.8  Rx         0011  4  00 C0 00 1F 
    72)       539.9  Rx         0182  2  00 03 
    73)       540.1  Rx         0183  2  01 00 
    74)       541.6  Rx         0010  8  05 1D 06 2D 04 8F 04 DB 
    75)       557.3  Rx         0005  4  05 FE 05 E4 
    76)       557.5  Rx         0002  2  07 E0 
    77)       585.2  Rx         0005  4  06 00 05 E6 
    78)       585.7  Rx         0002  2  07 E0 
    79)       608.3  Rx         0010  8  05 21 06 2D 04 90 04 DA 
    80)       624.1  Rx         0005  4  05 FF 05 E4 
    81)       624.3  Rx         0002  2  07 E0 
    82)       652.1  Rx         0005  4  05 FD 05 E8 
    83)       652.8  Rx         0002  2  07 E0 
    84)       673.3  Rx         0202  1  00 
    85)       674.2  Rx         0006  2  00 01 
    86)       674.4  Rx         0011  4  00 C0 00 1F 
    87)       674.5  Rx         0182  2  00 03 
    88)       674.6  Rx         0183  2  01 00 
    89)       675.3  Rx         0010  8  05 22 06 31 04 91 04 DB 
    90)       690.5  Rx         0005  4  05 FC 05 E5 
    91)       690.8  Rx         0002  2  07 DE 
    92)       724.0  Rx         0005  4  05 FF 05 E6 
    93)       724.2  Rx         0002  2  07 E0 
    94)       752.4  Rx         0010  8  05 20 06 2D 04 8E 04 DA 
    95)       769.1  Rx         0005  4  05 FD 05 E4 
    96)       769.7  Rx         0002  2  07 E0 
    97)       809.2  Rx         0005  4  05 FF 05 E6 
    98)       809.4  Rx         0002  2  07 E0 
    99)       832.7  Rx         0202  1  00 
   100)       833.2  Rx         0006  2  00 01 
   101)       833.4  Rx         0011  4  00 C0 00 1F 
   102)       833.6  Rx         0182  2  00 03 
   103)       833.8  Rx         0010  8  05 20 06 30 04 90 04 D8 
   104)       834.0  Rx         0183  2  01 00 
   105)       846.4  Rx         0005  4  05 FF 05 E6 
   106)       849.8  Rx         0002  2  07 E0 
   107)       880.1  Rx         0005  4  05 FF 05 E5 
   108)       880.7  Rx         0002  2  07 DE 
   109)       905.0  Rx         0010  8  05 20 06 28 04 8E 04 DA 
   110)       920.4  Rx         0005  4  05 FE 05 E2 
   111)       924.1  Rx         0002  2  07 DE 
   112)       954.6  Rx         0005  4  05 FE 05 E8 
   113)       955.4  Rx         0002  2  07 DE 
   114)       977.4  Rx         0010  8  05 1C 06 2D 04 90 04 DD 
   115)       977.7  Rx         0202  1  00 
   116)       978.5  Rx         0006  2  00 01 
   117)       978.6  Rx         0011  4  00 C0 00 1F 
   118)       978.8  Rx         0182  2  00 03 
   119)       978.9  Rx         0183  2  01 00 
   120)       987.3  Rx         0005  4  05 FC 05 E5 
   121)       989.3  Rx         0002  2  07 DE 
   122)      1023.8  Rx         0005  4  05 FF 05 E7 
   123)      1024.4  Rx         0002  2  07 E0 
   124)      1046.7  Rx         0010  8  05 21 06 2E 04 8D 04 DA 
   125)      1054.0  Rx         0005  4  05 FB 05 E3 
   126)      1056.4  Rx         0002  2  07 DE 
   127)      1098.8  Rx         0005  4  05 FE 05 E5 
   128)      1099.9  Rx         0002  2  07 DE 
   129)      1129.6  Rx         0010  8  05 1F 06 2F 04 8F 04 DA 
   130)      1130.9  Rx         0202  1  00 
   131)      1131.5  Rx         0006  2  00 01 
   132)      1131.7  Rx         0011  4  00 C0 00 1F 
   133)      1131.8  Rx         0182  2  00 03 
   134)      1132.0  Rx         0183  2  01 00 
   135)      1137.5  Rx         0005  4  05 FF 05 E4 
   136)      1140.2  Rx         0002  2  07 DE 
   137)      1184.3  Rx         0005  4  05 FE 05 E6 
   138)      1186.6  Rx         0002  2  07 DE 
   139)      1211.6  Rx         0010  8  05 20 06 2F 04 8F 04 D8 
   140)      1249.4  Rx         0005  4  05 FF 05 E4 
   141)      1249.8  Rx         0002  2  07 DE 
   142)      1271.4  Rx         0010  8  05 1E 06 2D 04 8E 04 D8 
   143)      1273.4  Rx         0202  1  00 
   144)      1274.6  Rx         0006  2  00 01 
   145)      1275.5  Rx         0011  4  00 C0 00 1F 
   146)      1276.2  Rx         0182  2  00 03 
   147)      1276.8  Rx         0183  2  01 00 
   148)      1280.2  Rx         0005  4  05 FE 05 E7 
   149)      1280.9  Rx         0002  2  07 DE 
   150)      1293.7  Tx         0202  1  00 
   151)      1294.1  Rx         0006  2  00 01 
   152)      1294.3  Rx         0011  4  00 C0 00 1F 
   153)      1294.5  Rx         0182  2  00 03 
   154)      1294.6  Rx         0183  2  01 00 
   155)      1318.5  Rx         0005  4  05 FE 05 E7 
   156)      1318.9  Rx         0002  2  07 E0 
   157)      1341.7  Rx         0010  8  05 20 06 2C 04 8F 04 DD 
   158)      1347.3  Rx         0005  4  06 00 05 E6 
   159)      1347.8  Rx         0002  2  07 E0 
   160)      1389.4  Rx         0005  4  05 FB 05 E6 
   161)      1389.9  Rx         0002  2  07 E0 
   162)      1411.6  Rx         0010  8  05 1F 06 2E 04 8E 04 D8 
   163)      1414.9  Rx         0202  1  00 
   164)      1415.5  Rx         0006  2  00 01 
   165)      1415.7  Rx         0011  4  00 C0 00 1F 
   166)      1415.8  Rx         0182  2  00 03 
   167)      1416.0  Rx         0183  2  01 00 
   168)      1417.8  Rx         0005  4  05 FA 05 E4 
   169)      1418.2  Rx         0002  2  07 E0 
   170)      1459.9  Rx         0005  4  06 00 05 E6 
   171)      1461.5  Rx         0002  2  07 E0 
   172)      1486.3  Rx         0010  8  05 1F 06 2F 04 8E 04 DA 
   173)      1497.4  Rx         0005  4  05 FD 05 E6 
   174)      1498.1  Rx         0002  2  07 E0 
   175)      1533.8  Rx         0005  4  05 FE 05 E7 
   176)      1534.3  Rx         0002  2  07 E0 
   177)      1551.0  Rx         0010  8  05 20 06 2D 04 91 04 DD 
   178)      1559.3  Rx         0202  1  00 
   179)      1560.5  Rx         0006  2  00 01 
   180)      1561.2  Rx         0011  4  00 C0 00 1F 
   181)      1561.3  Rx         0182  2  00 03 
   182)      1561.5  Rx         0183  2  01 00 
   183)      1562.4  Rx         0005  4  06 00 05 E7 
   184)      1562.8  Rx         0002  2  07 E0 
   185)      1600.5  Rx         0005  4  05 FF 05 E8 
   186)      1601.3  Rx         0002  2  07 E0 
   187)      1614.9  Rx         0010  8  05 21 06 2A 04 8F 04 DC 
   188)      1630.7  Rx         0005  4  05 FB 05 E4 
   189)      1631.3  Rx         0002  2  07 E0 
   190)      1659.2  Rx         0005  4  05 FD 05 E5 
   191)      1660.2  Rx         0002  2  07 E0 
   192)      1682.8  Rx         0010  8  05 20 06 2C 04 90 04 DB 
   193)      1696.6  Rx         0202  1  00 
   194)      1697.2  Rx         0006  2  00 01 
   195)      1697.4  Rx         0011  4  00 C0 00 1F 
   196)      1697.4  Rx         0182  2  00 03 
   197)      1697.6  Rx         0183  2  01 00 
   198)      1697.7  Rx         0005  4  06 01 05 E4 
   199)      1698.9  Rx         0002  2  07 E0 
   200)      1736.3  Rx         0005  4  05 FE 05 E5 
   201)      1736.8  Rx         0002  2  07 E0 
   202)      1747.2  Rx         0010  8  05 20 06 2A 04 8F 04 D6 
   203)      1763.1  Rx         0005  4  05 FE 05 E4 
   204)      1763.7  Rx         0002  2  07 DE 
   205)      1799.4  Rx         0005  4  05 FF 05 E5 
   206)      1799.9  Rx         0002  2  07 DC 
   207)      1828.3  Rx         0010  8  05 1F 06 2D 04 90 04 D9 
   208)      1836.9  Rx         0005  4  05 FD 05 E4 
   209)      1837.0  Rx         0202  1  00 
   210)      1838.3  Rx         0006  2  00 01 
   211)      1838.9  Rx         0002  2  07 DC 
   212)      1839.0  Rx         0011  4  00 C0 00 1F 
   213)      1839.2  Rx         0182  2  00 03 
   214)      1839.4  Rx         0183  2  01 00 
   215)      1883.8  Rx         0005  4  05 FD 05 E5 
   216)      1884.2  Rx         0002  2  07 DC 
   217)      1897.8  Rx         0010  8  05 1D 06 2F 04 90 04 DA 
   218)      1914.4  Rx         0005  4  05 FC 05 E3 
   219)      1914.9  Rx         0002  2  07 DC 
   220)      1941.7  Rx         0005  4  05 FC 05 E4 
   221)      1942.1  Rx         0002  2  07 DC 
   222)      1963.1  Rx         0010  8  05 1E 06 2F 04 8D 04 D8 
   223)      1980.8  Rx         0005  4  06 01 05 E6 
   224)      1981.3  Rx         0002  2  07 DC 
   225)      1981.7  Rx         0202  1  00 
   226)      1982.2  Rx         0006  2  00 01 
   227)      1982.3  Rx         0011  4  00 C0 00 1F 
   228)      1982.5  Rx         0182  2  00 03 
   229)      1982.7  Rx         0183  2  01 00 
   230)      2019.8  Rx         0005  4  05 FE 05 E6 
   231)      2020.2  Rx         0002  2  07 DE 
   232)      2030.3  Rx         0010  8  05 1E 06 2E 04 8E 04 DA 
   233)      2046.0  Rx         0005  4  06 00 05 E4 
   234)      2046.6  Rx         0002  2  07 DE 
   235)      2077.2  Rx         0005  4  05 FF 05 E5 
   236)      2077.5  Rx         0002  2  07 DE 
   237)      2098.5  Rx         0010  8  05 20 06 2D 04 8E 04 DB 
   238)      2114.7  Rx         0005  4  06 01 05 E7 
   239)      2115.3  Rx         0002  2  07 DE 
   240)      2116.2  Rx         0202  1  00 
   241)      2117.1  Rx         0006  2  00 01 
   242)      2117.3  Rx         0011  4  00 C0 00 1F 
   243)      2117.4  Rx         0182  2  00 03 
   244)      2117.5  Rx         0183  2  01 00 
   245)      2157.3  Rx         0005  4  05 FE 05 E7 
   246)      2157.9  Rx         0002  2  07 E0 
   247)      2185.3  Rx         0010  8  05 20 06 2C 04 90 04 DA 
   248)      2232.9  Rx         0005  4  05 FC 05 E5 
   249)      2233.6  Rx         0002  2  07 E0 
   250)      2255.6  Rx         0010  8  05 21 06 2B 04 90 04 DA 
   251)      2274.0  Rx         0005  4  05 FF 05 E4 
   252)      2274.4  Rx         0002  2  07 DE 
   253)      2276.5  Rx         0202  1  00 
   254)      2276.9  Rx         0006  2  00 01 
   255)      2277.1  Rx         0011  4  00 C0 00 1F 
   256)      2277.3  Rx         0182  2  00 03 
   257)      2277.4  Rx         0183  2  01 00 
   258)      2293.8  Tx         0202  1  00 
   259)      2294.1  Rx         0006  2  00 01 
   260)      2294.3  Rx         0011  4  00 C0 00 1F 
   261)      2294.5  Rx         0182  2  00 03 
   262)      2294.6  Rx         0183  2  01 00 
   263)      2311.7  Rx         0005  4  05 FE 05 E5 
   264)      2312.7  Rx         0002  2  07 E0 
   265)      2333.9  Rx         0010  8  05 1E 06 2C 04 90 04 D8 
   266)      2348.9  Rx         0005  4  05 FD 05 E4 
   267)      2351.0  Rx         0002  2  07 DE 
   268)      2378.0  Rx         0005  4  05 FF 05 E6 
   269)      2378.4  Rx         0002  2  07 DE 
   270)      2399.9  Rx         0010  8  05 21 06 30 04 90 04 DA 
   271)      2412.6  Rx         0005  4  05 FF 05 E6 
   272)      2415.7  Rx         0002  2  07 DE 
   273)      2419.0  Rx         0202  1  00 
   274)      2420.0  Rx         0006  2  00 01 
   275)      2420.2  Rx         0011  4  00 C0 00 1F 
   276)      2420.4  Rx         0182  2  00 03 
   277)      2420.5  Rx         0183  2  01 00 
   278)      2450.3  Rx         0005  4  05 FF 05 E5 
   279)      2452.6  Rx         0002  2  07 DE 
   280)      2475.6  Rx         0010  8  05 20 06 2F 04 8F 04 DC 
   281)      2486.4  Rx         0005  4  05 FE 05 E6 
   282)      2489.8  Rx         0002  2  07 DE 
   283)      2523.9  Rx         0005  4  06 00 05 E5 
   284)      2524.3  Rx         0002  2  07 DE 
   285)      2551.5  Rx         0010  8  05 21 06 2E 04 8E 04 D9 
   286)      2565.0  Rx         0005  4  05 FC 05 E6 
   287)      2568.7  Rx         0002  2  07 E0 
   288)      2578.0  Rx         0202  1  00 
   289)      2578.6  Rx         0006  2  00 01 
   290)      2578.8  Rx         0011  4  00 C0 00 1F 
   291)      2578.9  Rx         0182  2  00 03 
   292)      2579.1  Rx         0183  2  01 00 
   293)      2610.6  Rx         0005  4  05 FF 05 E6 
   294)      2613.5  Rx         0002  2  07 E0 
   295)      2641.6  Rx         0010  8  05 1E 06 2C 04 8E 04 DA 
   296)      2650.1  Rx         0005  4  05 FE 05 E5 
   297)      2652.2  Rx         0002  2  07 E0 
   298)      2688.8  Rx         0005  4  05 FD 05 E7 
   299)      2689.2  Rx         0002  2  07 E0 
   300)      2710.0  Rx         0010  8  05 20 06 2E 04 90 04 D9 
   301)      2718.1  Rx         0005  4  05 FF 05 E8 
   302)      2720.1  Rx         0002  2  07 E0 
   303)      2733.0  Rx         0202  1  00 
   304)      2733.8  Rx         0006  2  00 01 
   305)      2733.9  Rx         0011  4  00 C0 00 1F 
   306)      2734.0  Rx         0182  2  00 03 
   307)      2734.2  Rx         0183  2  01 00 
   308)      2756.4  Rx         0005  4  05 FF 05 E7 
   309)      2758.5  Rx         0002  2  07 E0 
   310)      2787.8  Rx         0010  8  05 22 06 2E 04 8F 04 DA 
   311)      2794.0  Rx         0005  4  05 FC 05 E6 
   312)      2794.4  Rx         0002  2  07 E0 
   313)      2832.3  Rx         0005  4  05 FD 05 E6 
   314)      2833.0  Rx         0002  2  07 E0 
   315)      2851.0  Rx         0010  8  05 20 06 2C 04 8E 04 DA 
   316)      2859.0  Rx         0005  4  06 00 05 E7 
   317)      2859.9  Rx         0002  2  07 E1 
   318)      2875.3  Rx         0202  1  00 
   319)      2875.9  Rx         0006  2  00 01 
   320)      2876.1  Rx         0011  4  00 C0 00 1F 
   321)      2876.3  Rx         0182  2  00 03 
   322)      2876.4  Rx         0183  2  01 00 
   323)      2903.2  Rx         0005  4  06 02 05 E6 
   324)      2904.5  Rx         0002  2  07 E1 
   325)      2936.0  Rx         0010  8  05 21 06 28 04 8F 04 DB 
   326)      2952.9  Rx         0005  4  05 FE 05 E4 
   327)      2953.8  Rx         0002  2  07 E0 
   328)      2994.9  Rx         0005  4  06 00 05 E3 
   329)      2995.4  Rx         0002  2  07 DE 
   330)      3010.6  Rx         0010  8  05 1E 06 2F 04 90 04 D9 
   331)      3023.7  Rx         0005  4  05 FF 05 E5 
   332)      3024.3  Rx         0002  2  07 DE 
   333)      3040.4  Rx         0202  1  00 
   334)      3041.2  Rx         0006  2  00 01 
   335)      3041.4  Rx         0011  4  00 C0 00 1F 
   336)      3041.6  Rx         0182  2  00 03 
   337)      3041.7  Rx         0183  2  01 00 
   338)      3061.9  Rx         0005  4  05 FE 05 E7 
   339)      3062.9  Rx         0002  2  07 DE 
   340)      3085.6  Rx         0010  8  05 1F 06 2C 04 90 04 DB 
   341)      3100.4  Rx         0005  4  05 FD 05 E7 
   342)      3100.8  Rx         0002  2  07 DE 
   343)      3142.0  Rx         0005  4  05 FF 05 E5 
   344)      3143.3  Rx         0002  2  07 DE 
   345)      3157.1  Rx         0010  8  05 21 06 2B 04 8E 04 DB 
   346)      3174.2  Rx         0005  4  05 FD 05 E7 
   347)      3174.6  Rx         0002  2  07 E0 
   348)      3191.9  Rx         0202  1  00 
   349)      3192.6  Rx         0006  2  00 01 
   350)      3192.8  Rx         0011  4  00 C0 00 1F 
   351)      3192.8  Rx         0182  2  00 03 
   352)      3193.0  Rx         0183  2  01 00 
   353)      3213.8  Rx         0005  4  05 FE 05 E3 
   354)      3214.5  Rx         0002  2  07 E0 
   355)      3235.3  Rx         0010  8  05 1F 06 2B 04 91 04 D8 
   356)      3287.3  Rx         0005  4  05 FE 05 E4 
   357)      3287.8  Rx         0002  2  07 E0 
   358)      3293.5  Tx         0202  1  00 
   359)      3293.8  Rx         0006  2  00 01 
   360)      3293.9  Rx         0011  4  00 C0 00 1F 
   361)      3294.0  Rx         0182  2  00 03 
   362)      3294.2  Rx         0183  2  01 00 
   363)      3305.5  Rx         0010  8  05 20 06 2D 04 90 04 D7 
   364)      3326.9  Rx         0005  4  05 FF 05 E4 
   365)      3327.8  Rx         0002  2  07 DE 
   366)      3349.7  Rx         0202  1  00 
   367)      3350.6  Rx         0006  2  00 01 
   368)      3350.7  Rx         0011  4  00 C0 00 1F 
   369)      3350.8  Rx         0182  2  00 03 
   370)      3350.9  Rx         0183  2  01 00 
   371)      3372.4  Rx         0005  4  05 FF 05 E8 
   372)      3372.8  Rx         0002  2  07 DE 
   373)      3397.0  Rx         0010  8  05 1C 06 2C 04 8D 04 D8 
   374)      3406.3  Rx         0005  4  05 FE 05 E4 
   375)      3407.2  Rx         0002  2  07 DE 
   376)      3447.3  Rx         0005  4  05 FC 05 E4 
   377)      3447.6  Rx         0002  2  07 DC 
   378)      3458.7  Rx         0010  8  05 21 06 2C 04 90 04 DB 
   379)      3477.7  Rx         0005  4  06 00 05 E5 
   380)      3478.8  Rx         0002  2  07 DE 
   381)      3498.0  Rx         0202  1  00 
   382)      3498.6  Rx         0006  2  00 01 
   383)      3498.8  Rx         0011  4  00 C0 00 1F 
   384)      3498.9  Rx         0182  2  00 03 
   385)      3499.0  Rx         0183  2  01 00 
   386)      3507.2  Rx         0005  4  05 FD 05 E5 
   387)      3507.7  Rx         0002  2  07 DE 
   388)      3528.2  Rx         0010  8  05 1E 06 2F 04 8E 04 D9 
   389)      3545.0  Rx         0005  4  05 FD 05 E7 
   390)      3545.4  Rx         0002  2  07 E0 
   391)      3573.8  Rx         0005  4  05 FF 05 E6 
   392)      3574.5  Rx         0002  2  07 DE 
   393)      3583.7  Rx         0010  8  05 1D 06 2F 04 91 04 DB 
   394)      3604.5  Rx         0005  4  05 FD 05 E7 
   395)      3604.8  Rx         0002  2  07 E0 
   396)      3625.6  Rx         0202  1  00 
   397)      3626.6  Rx         0006  2  00 01 
   398)      3626.7  Rx         0011  4  00 C0 00 1F 
   399)      3626.8  Rx         0182  2  00 03 
   400)      3626.9  Rx         0183  2  01 00 
   401)      3639.4  Rx         0005  4  05 FC 05 E3 
   402)      3640.1  Rx         0002  2  07 E0 
   403)      3667.6  Rx         0010  8  05 1F 06 2E 04 8F 04 DA 
   404)      3689.4  Rx         0005  4  05 FE 05 E5 
   405)      3690.0  Rx         0002  2  07 E0 
   406)      3727.8  Rx         0005  4  05 FD 05 E5 
   407)      3728.5  Rx         0002  2  07 E0 
   408)      3752.1  Rx         0010  8  05 1C 06 2C 04 90 04 D8 
   409)      3775.3  Rx         0005  4  05 FE 05 E8 
   410)      3775.9  Rx         0002  2  07 E0 
   411)      3796.3  Rx         0202  1  00 
   412)      3796.9  Rx         0006  2  00 01 
   413)      3797.1  Rx         0011  4  00 C0 00 1F 
   414)      3797.2  Rx         0182  2  00 03 
   415)      3797.4  Rx         0183  2  01 00 
   416)      3815.4  Rx         0005  4  05 FE 05 E5 
   417)      3815.9  Rx         0002  2  07 E0 
   418)      3837.3  Rx         0010  8  05 21 06 2F 04 8D 04 DB 
   419)      3854.2  Rx         0005  4  05 FD 05 E4 
   420)      3854.9  Rx         0002  2  07 DE 
   421)      3883.8  Rx         0005  4  05 FC 05 E6 
   422)      3884.2  Rx         0002  2  07 E0 
   423)      3904.7  Rx         0010  8  05 20 06 31 04 90 04 DB 
   424)      3921.8  Rx         0005  4  06 00 05 E7 
   425)      3923.8  Rx         0002  2  07 E0 
   426)      3945.4  Rx         0202  1  00 
   427)      3946.2  Rx         0006  2  00 01 
   428)      3946.5  Rx         0011  4  00 C0 00 1F 
   429)      3946.6  Rx         0182  2  00 03 
   430)      3946.7  Rx         0183  2  01 00 
   431)      3961.3  Rx         0005  4  06 01 05 EA 
   432)      3963.2  Rx         0002  2  07 E1 
   433)      3983.9  Rx         0010  8  05 1E 06 2E 04 91 04 D9 
   434)      4000.2  Rx         0005  4  05 FF 05 E6 
   435)      4003.5  Rx         0002  2  07 E0 
   436)      4037.9  Rx         0005  4  05 FF 05 E6 
   437)      4038.3  Rx         0002  2  07 E0 
   438)      4066.1  Rx         0010  8  05 21 06 2F 04 91 04 DB 
   439)      4083.6  Rx         0005  4  06 00 05 E7 
   440)      4087.2  Rx         0002  2  07 E1 
   441)      4117.3  Rx         0202  1  00 
   442)      4118.6  Rx         0006  2  00 01 
   443)      4118.8  Rx         0011  4  00 C0 00 1F 
   444)      4119.0  Rx         0182  2  00 03 
   445)      4119.1  Rx         0183  2  01 00 
   446)      4128.8  Rx         0005  4  05 FE 05 E5 
   447)      4131.6  Rx         0002  2  07 E1 
   448)      4157.0  Rx         0010  8  05 20 06 2B 04 90 04 DE 
   449)      4170.0  Rx         0005  4  05 FD 05 E5 
   450)      4172.0  Rx         0002  2  07 E0 
   451)      4206.0  Rx         0005  4  05 FB 05 E6 
   452)      4206.5  Rx         0002  2  07 E0 
   453)      4226.5  Rx         0010  8  05 21 06 2F 04 8E 04 D9 
   454)      4236.2  Rx         0005  4  05 FD 05 E7 
   455)      4238.6  Rx         0002  2  07 E0 
   456)      4266.4  Rx         0202  1  00 
   457)      4267.2  Rx         0006  2  00 01 
   458)      4267.4  Rx         0011  4  00 C0 00 1F 
   459)      4267.4  Rx         0182  2  00 03 
   460)      4267.6  Rx         0183  2  01 00 
   461)      4271.5  Rx         0005  4  05 FC 05 E4 
   462)      4272.0  Rx         0002  2  07 E0 
   463)      4290.4  Rx         0010  8  05 20 06 2D 04 8C 04 DA 
   464)      4293.7  Tx         0202  1  00 
   465)      4293.9  Rx         0006  2  00 01 
   466)      4294.2  Rx         0011  4  00 C0 00 1F 
   467)      4294.3  Rx         0182  2  00 03 
   468)      4294.4  Rx         0183  2  01 00 
   469)      4301.0  Rx         0005  4  05 FF 05 E5 
   470)      4303.8  Rx         0002  2  07 DE 
   471)      4337.9  Rx         0005  4  05 FE 05 E7 
   472)      4338.4  Rx         0002  2  07 E0 
   473)      4354.4  Rx         0010  8  05 23 06 2C 04 8F 04 DC 
   474)      4367.2  Rx         0005  4  06 00 05 E6 
   475)      4369.3  Rx         0002  2  07 E0 
   476)      4407.1  Rx         0202  1  00 
   477)      4407.6  Rx         0006  2  00 01 
   478)      4407.8  Rx         0011  4  00 C0 00 1F 
   479)      4407.9  Rx         0182  2  00 03 
   480)      4408.0  Rx         0183  2  01 00 
   481)      4414.0  Rx         0005  4  05 FD 05 E7 
   482)      4415.4  Rx         0002  2  07 E0 
   483)      4445.6  Rx         0010  8  05 1F 06 2C 04 90 04 D9 
   484)      4464.0  Rx         0005  4  06 00 05 E6 
   485)      4465.1  Rx         0002  2  07 E0 
   486)      4509.5  Rx         0005  4  05 FE 05 E7 
   487)      4510.0  Rx         0002  2  07 E0 
   488)      4521.6  Rx         0010  8  05 1E 06 2E 04 90 04 D7 
   489)      4538.6  Rx         0005  4  05 FE 05 E6 
   490)      4539.3  Rx         0002  2  07 E0 
   491)      4575.8  Rx         0202  1  00 
   492)      4576.6  Rx         0006  2  00 01 
   493)      4576.8  Rx         0011  4  00 C0 00 1F 
   494)      4577.0  Rx         0182  2  00 03 
   495)      4577.1  Rx         0183  2  01 00 
   496)      4578.8  Rx         0005  4  05 FE 05 E4 
   497)      4579.3  Rx         0002  2  07 E0 
   498)      4600.3  Rx         0010  8  05 1E 06 31 04 8B 04 DA 
   499)      4618.0  Rx         0005  4  06 02 05 E5 
   500)      4618.4  Rx         0002  2  07 E0 
   501)      4647.3  Rx         0005  4  05 FE 05 E8 
   502)      4647.9  Rx         0002  2  07 E0 
   503)      4668.1  Rx         0010  8  05 20 06 2C 04 90 04 DA 
   504)      4688.4  Rx         0005  4  05 FC 05 E5 
   505)      4688.8  Rx         0002  2  07 E0 
   506)      4725.3  Rx         0202  1  00 
   507)      4725.9  Rx         0006  2  00 01 
   508)      4726.2  Rx         0011  4  00 C0 00 1F 
   509)      4726.4  Rx         0182  2  00 03 
   510)      4726.5  Rx         0183  2  01 00 
   511)      4727.9  Rx         0005  4  05 FD 05 E5 
   512)      4728.6  Rx         0002  2  07 E0 
   513)      4747.9  Rx         0010  8  05 22 06 31 04 8F 04 D9 
   514)      4769.3  Rx         0005  4  05 FC 05 E7 
   515)      4769.9  Rx         0002  2  07 E0 
   516)      4806.2  Rx         0005  4  05 FB 05 E8 
   517)      4806.8  Rx         0002  2  07 E0 
   518)      4832.4  Rx         0010  8  05 22 06 2C 04 8E 04 DA 
   519)      4846.4  Rx         0005  4  06 00 05 E4 
   520)      4846.7  Rx         0002  2  07 E0 
   521)      4890.4  Rx         0202  1  00 
   522)      4891.7  Rx         0006  2  00 01 
   523)      4892.4  Rx         0011  4  00 C0 00 1F 
   524)      4892.5  Rx         0182  2  00 03 
   525)      4892.7  Rx         0183  2  01 00 
   526)      4893.7  Rx         0005  4  05 FD 05 E5 
   527)      4894.1  Rx         0002  2  07 E0 
   528)      4915.0  Rx         0010  8  05 20 06 2B 04 90 04 DD 
   529)      4935.1  Rx         0005  4  05 FF 05 E7 
   530)      4936.0  Rx         0002  2  07 E0 
   531)      4963.2  Rx         0005  4  05 FE 05 E5 
   532)      4963.6  Rx         0002  2  07 E0 
   533)      4983.3  Rx         0010  8  05 21 06 2C 04 8F 04 D9 
   534)      4990.5  Rx         0005  4  05 FB 05 E9 
   535)      4991.9  Rx         0002  2  07 E0 
   536)      5029.2  Rx         0202  1  00 
   537)      5029.6  Rx         0006  2  00 01 
   538)      5029.8  Rx         0005  4  05 FF 05 E6 
   539)      5029.9  Rx         0011  4  00 C0 00 1F 
   540)      5030.0  Rx         0182  2  00 03 
   541)      5030.2  Rx         0183  2  01 00 
   542)      5030.5  Rx         0002  2  07 E0 
   543)      5039.5  Rx         0010  8  05 1F 06 2D 04 8E 04 DB 
   544)      5061.2  Rx         0005  4  06 02 05 E5 
   545)      5061.5  Rx         0002  2  07 E0 
   546)      5088.4  Rx         0005  4  06 00 05 E6 
   547)      5089.1  Rx         0002  2  07 E0 
   548)      5108.4  Rx         0010  8  05 1F 06 2B 04 8E 04 DB 
   549)      5120.7  Rx         0005  4  05 FB 05 E2 
   550)      5121.0  Rx         0002  2  07 E0 
   551)      5158.7  Rx         0202  1  00 
   552)      5159.5  Rx         0005  4  06 00 05 E8 
   553)      5159.6  Rx         0006  2  00 01 
   554)      5159.9  Rx         0011  4  00 C0 00 1F 
   555)      5160.0  Rx         0182  2  00 03 
   556)      5160.1  Rx         0183  2  01 00 
   557)      5160.3  Rx         0002  2  07 E0 
   558)      5177.9  Rx         0010  8  05 21 06 30 04 90 04 D9 
   559)      5203.8  Rx         0005  4  06 00 05 E6 
   560)      5204.0  Rx         0002  2  07 E0 
   561)      5237.7  Rx         0005  4  05 FA 05 E3 
   562)      5238.0  Rx         0002  2  07 DE 
   563)      5257.6  Rx         0010  8  05 1F 06 2F 04 91 04 DA 
   564)      5275.1  Rx         0005  4  05 FD 05 EA 
   565)      5275.6  Rx         0002  2  07 E0 
   566)      5293.8  Tx         0202  1  00 
   567)      5295.0  Rx         0006  2  00 01 
   568)      5295.3  Rx         0011  4  00 C0 00 1F 
   569)      5295.3  Rx         0182  2  00 03 
   570)      5295.5  Rx         0183  2  01 00 
   571)      5315.5  Rx         0005  4  05 FD 05 E6 
   572)      5315.8  Rx         0002  2  07 E0 
   573)      5316.4  Rx         0202  1  00 
   574)      5317.0  Rx         0006  2  00 01 
   575)      5317.2  Rx         0011  4  00 C0 00 1F 
   576)      5317.4  Rx         0182  2  00 03 
   577)      5317.5  Rx         0183  2  01 00 
   578)      5336.4  Rx         0010  8  05 21 06 2E 04 91 04 D7 
   579)      5374.3  Rx         0005  4  06 00 05 E6 
   580)      5374.6  Rx         0002  2  07 E0 
   581)      5394.7  Rx         0010  8  05 21 06 2E 04 8F 04 D9 
   582)      5413.0  Rx         0005  4  05 FD 05 E4 
   583)      5413.7  Rx         0002  2  07 E0 
   584)      5440.5  Rx         0005  4  05 FF 05 E5 
   585)      5441.0  Rx         0002  2  07 E0 
   586)      5441.8  Rx         0202  1  00 
   587)      5442.5  Rx         0006  2  00 01 
   588)      5442.7  Rx         0011  4  00 C0 00 1F 
   589)      5442.8  Rx         0182  2  00 03 
   590)      5442.9  Rx         0183  2  01 00 
   591)      5460.4  Rx         0010  8  05 1F 06 2D 04 90 04 DA 
   592)      5480.4  Rx         0005  4  05 FE 05 E6 
   593)      5480.9  Rx         0002  2  07 E0 
   594)      5515.8  Rx         0005  4  06 01 05 E5 
   595)      5516.4  Rx         0002  2  07 DE 
   596)      5540.3  Rx         0010  8  05 20 06 2E 04 91 04 DA 
   597)      5562.5  Rx         0005  4  05 FE 05 E6 
   598)      5563.4  Rx         0002  2  07 DE 
   599)      5599.7  Rx         0005  4  05 FD 05 E0 
   600)      5600.6  Rx         0002  2  07 DC 
   601)      5602.7  Rx         0202  1  00 
   602)      5603.2  Rx         0006  2  00 01 
   603)      5603.4  Rx         0011  4  00 C0 00 1F 
   604)      5604.0  Rx         0182  2  00 03 
   605)      5604.7  Rx         0183  2  01 00 
   606)      5622.0  Rx         0010  8  05 1D 06 2D 04 91 04 D9 
   607)      5638.3  Rx         0005  4  05 FD 05 E6 
   608)      5641.2  Rx         0002  2  07 DE 
   609)      5668.3  Rx         0005  4  05 FF 05 E5 
   610)      5668.6  Rx         0002  2  07 DE 
   611)      5683.5  Rx         0010  8  05 22 06 2F 04 90 04 DB 
   612)      5698.8  Rx         0005  4  05 FD 05 E6 
   613)      5700.0  Rx         0002  2  07 DE 
   614)      5733.3  Rx         0005  4  06 00 05 E6 
   615)      5733.6  Rx         0002  2  07 DE 
   616)      5736.7  Rx         0202  1  00 
   617)      5737.4  Rx         0006  2  00 01 
   618)      5737.5  Rx         0011  4  00 C0 00 1F 
   619)      5737.8  Rx         0182  2  00 03 
   620)      5737.9  Rx         0183  2  01 00 
   621)      5747.2  Rx         0010  8  05 21 06 30 04 8D 04 DC 
   622)      5763.6  Rx         0005  4  06 00 05 E6 
   623)      5765.1  Rx         0002  2  07 DE 
   624)      5800.9  Rx         0005  4  05 FF 05 E5 
   625)      5801.3  Rx         0002  2  07 E0 
   626)      5811.3  Rx         0010  8  05 22 06 2E 04 8E 04 DC 
   627)      5829.1  Rx         0005  4  05 FF 05 E8 
   628)      5830.2  Rx         0002  2  07 E0 
   629)      5877.5  Rx         0005  4  06 01 05 E7 
   630)      5878.5  Rx         0002  2  07 E0 
   631)      5884.1  Rx         0202  1  00 
   632)      5884.7  Rx         0006  2  00 01 
   633)      5884.8  Rx         0011  4  00 C0 00 1F 
   634)      5884.9  Rx         0182  2  00 03 
   635)      5885.1  Rx         0183  2  01 00 
   636)      5892.9  Rx         0010  8  05 1F 06 2A 04 8E 04 DC 
   637)      5917.0  Rx         0005  4  05 FB 05 E5 
   638)      5917.9  Rx         0002  2  07 E0 
   639)      6015.1  Rx         0005  4  05 FC 05 E4 
   640)      6016.5  Rx         0002  2  07 E0 
   641)      6039.4  Rx         0010  8  05 1E 06 2B 04 90 04 DB 
   642)      6058.0  Rx         0005  4  05 FE 05 E5 
   643)      6059.3  Rx         0002  2  07 E0 
   644)      6098.6  Rx         0005  4  05 FE 05 E6 
   645)      6098.9  Rx         0002  2  07 E0 
   646)      6103.2  Rx         0202  1  00 
   647)      6104.2  Rx         0006  2  00 01 
   648)      6104.4  Rx         0011  4  00 C0 00 1F 
   649)      6104.4  Rx         0182  2  00 03 
   650)      6104.6  Rx         0183  2  01 00 
   651)      6107.8  Rx         0010  8  05 21 06 2E 04 8F 04 DA 
   652)      6127.1  Rx         0005  4  05 FD 05 E5 
   653)      6127.3  Rx         0002  2  07 DE 
   654)      6164.7  Rx         0005  4  05 FD 05 E7 
   655)      6165.1  Rx         0002  2  07 DE 
   656)      6173.9  Rx         0010  8  05 21 06 2D 04 91 04 DA 
   657)      6192.7  Rx         0005  4  05 FE 05 EC 
   658)      6193.0  Rx         0002  2  07 E0 
   659)      6231.3  Rx         0005  4  06 00 05 F3 
   660)      6231.9  Rx         0002  2  07 E5 
   661)      6236.4  Rx         0202  1  00 
   662)      6236.9  Rx         0006  2  00 01 
   663)      6237.1  Rx         0011  4  00 C0 00 1F 
   664)      6237.3  Rx         0182  2  00 03 
   665)      6237.4  Rx         0183  2  01 00 
   666)      6239.8  Rx         0010  8  05 21 06 30 04 92 04 D9 
   667)      6259.0  Rx         0005  4  05 FD 06 12 
   668)      6259.3  Rx         0002  2  07 F1 
   669)      6295.0  Tx         0202  1  00 
   670)      6296.3  Rx         0006  2  00 01 
   671)      6297.1  Rx         0011  4  00 C0 00 1F 
   672)      6297.8  Rx         0182  2  00 03 
   673)      6298.2  Rx         0183  2  01 00 
   674)      6306.3  Rx         0005  4  05 FE 06 66 
   675)      6306.7  Rx         0002  2  08 17 
   676)      6331.4  Rx         0010  8  05 21 06 28 04 8F 04 DA 
   677)      6355.2  Rx         0005  4  06 00 06 D3 
   678)      6355.7  Rx         0002  2  08 5C 
   679)      6390.8  Rx         0005  4  05 FF 07 53 
   680)      6391.2  Rx         0002  2  08 C3 
   681)      6409.3  Rx         0202  1  00 
   682)      6410.0  Rx         0006  2  00 01 
   683)      6410.2  Rx         0011  4  00 C0 00 1F 
   684)      6410.3  Rx         0182  2  00 03 
   685)      6410.5  Rx         0183  2  01 00 
   686)      6412.4  Rx         0010  8  05 24 06 32 04 90 04 D8 
   687)      6462.6  Rx         0005  4  05 FD 08 00 
   688)      6463.1  Rx         0002  2  09 5C 
   689)      6471.0  Rx         0010  8  05 31 06 3F 04 90 04 D8 
   690)      6493.7  Rx         0005  4  05 FC 08 15 
   691)      6494.3  Rx         0002  2  09 F8 
   692)      6520.1  Rx         0005  4  06 00 08 0E 
   693)      6520.6  Rx         0002  2  0A 89 
   694)      6538.0  Rx         0202  1  00 
   695)      6538.6  Rx         0006  2  00 01 
   696)      6538.8  Rx         0011  4  00 C0 00 1F 
   697)      6538.9  Rx         0182  2  00 03 
   698)      6539.0  Rx         0183  2  01 00 
   699)      6539.9  Rx         0010  8  05 50 06 61 04 91 04 DD 
   700)      6559.9  Rx         0005  4  06 00 08 10 
   701)      6560.6  Rx         0002  2  0B 05 
   702)      6598.9  Rx         0005  4  05 FD 08 10 
   703)      6599.2  Rx         0002  2  0B 5E 
   704)      6606.3  Rx         0010  8  05 83 06 90 04 90 04 D7 
   705)      6628.9  Rx         0005  4  05 FE 08 10 
   706)      6629.4  Rx         0002  2  0B 95 
   707)      6666.2  Rx         0005  4  05 FE 08 10 
   708)      6666.7  Rx         0002  2  0B 98 
   709)      6688.7  Rx         0202  1  00 
   710)      6689.5  Rx         0006  2  00 01 
   711)      6689.7  Rx         0011  4  00 C0 00 1F 
   712)      6689.9  Rx         0182  2  00 03 
   713)      6690.0  Rx         0183  2  01 00 
   714)      6690.3  Rx         0010  8  05 B1 06 C3 04 8F 04 D7 
   715)      6714.1  Rx         0005  4  05 FE 08 12 
   716)      6714.6  Rx         0002  2  0B 98 
   717)      6748.7  Rx         0005  4  05 FD 08 0C 
   718)      6749.3  Rx         0002  2  0B 98 
   719)      6767.7  Rx         0010  8  05 E6 06 F4 04 90 04 D9 
   720)      6788.8  Rx         0005  4  05 FF 08 0E 
   721)      6789.1  Rx         0002  2  0B 97 
   722)      6815.2  Rx         0005  4  05 FD 08 13 
   723)      6815.7  Rx         0002  2  0B 98 
   724)      6834.0  Rx         0010  8  06 1D 07 2A 04 91 04 DA 
   725)      6834.2  Rx         0202  1  00 
   726)      6834.8  Rx         0006  2  00 01 
   727)      6835.0  Rx         0011  4  00 C0 00 1F 
   728)      6835.2  Rx         0182  2  00 03 
   729)      6835.2  Rx         0183  2  01 00 
   730)      6854.2  Rx         0005  4  05 FE 08 0F 
   731)      6854.9  Rx         0002  2  0B 98 
   732)      6880.1  Rx         0005  4  05 FE 08 0E 
   733)      6880.5  Rx         0002  2  0B 97 
   734)      6899.7  Rx         0010  8  06 50 07 5C 04 90 04 DA 
   735)      6921.0  Rx         0005  4  05 FE 08 0D 
   736)      6921.8  Rx         0002  2  0B 95 
   737)      6948.9  Rx         0005  4  05 FF 08 0F 
   738)      6949.1  Rx         0002  2  0B 97 
   739)      6967.1  Rx         0010  8  06 85 07 96 04 8F 04 DA 
   740)      6968.0  Rx         0202  1  00 
   741)      6969.3  Rx         0006  2  00 01 
   742)      6970.2  Rx         0011  4  00 C0 00 1F 
   743)      6970.8  Rx         0182  2  00 03 
   744)      6971.4  Rx         0183  2  01 00 
   745)      6988.8  Rx         0005  4  05 FE 08 11 
   746)      6989.3  Rx         0002  2  0B 98 
   747)      7025.5  Rx         0005  4  06 01 08 11 
   748)      7026.1  Rx         0002  2  0B 97 
   749)      7046.9  Rx         0010  8  06 B7 07 C7 04 8F 04 DC 
   750)      7071.7  Rx         0005  4  05 FE 08 11 
   751)      7072.1  Rx         0002  2  0B 98 
   752)      7108.6  Rx         0005  4  05 FF 08 12 
   753)      7110.6  Rx         0002  2  0B 98 
   754)      7126.2  Rx         0010  8  06 E7 07 F9 04 8D 04 DA 
   755)      7130.6  Rx         0202  1  00 
   756)      7131.4  Rx         0006  2  00 01 
   757)      7131.6  Rx         0011  4  00 C0 00 1F 
   758)      7131.6  Rx         0182  2  00 03 
   759)      7131.8  Rx         0183  2  01 00 
   760)      7149.7  Rx         0005  4  05 FE 08 0E 
   761)      7152.5  Rx         0002  2  0B 98 
   762)      7179.4  Rx         0005  4  05 FE 08 0F 
   763)      7179.7  Rx         0002  2  0B 98 
   764)      7193.1  Rx         0010  8  07 05 08 1D 04 90 04 D8 
   765)      7216.3  Rx         0005  4  05 FE 08 13 
   766)      7219.5  Rx         0002  2  0B 9A 
   767)      7246.7  Rx         0005  4  05 FF 08 0F 
   768)      7247.2  Rx         0002  2  0B 98 
   769)      7258.5  Rx         0010  8  07 1C 08 27 04 8C 04 D9 
   770)      7268.9  Rx         0202  1  00 
   771)      7270.1  Rx         0006  2  00 01 
   772)      7271.0  Rx         0011  4  00 C0 00 1F 
   773)      7271.6  Rx         0182  2  00 03 
   774)      7272.3  Rx         0183  2  01 00 
   775)      7282.9  Rx         0005  4  05 FE 08 0C 
   776)      7286.5  Rx         0002  2  0B 98 
   777)      7293.5  Tx         0202  1  00 
   778)      7293.8  Rx         0006  2  00 01 
   779)      7294.0  Rx         0011  4  00 C0 00 1F 
   780)      7294.1  Rx         0182  2  00 03 
   781)      7294.3  Rx         0183  2  01 00 
   782)      7320.2  Rx         0005  4  05 FE 08 0E 
   783)      7323.0  Rx         0002  2  0B 97 
   784)      7335.2  Rx         0010  8  07 2F 08 47 04 8E 04 D9 
   785)      7356.9  Rx         0005  4  05 FE 08 0D 
   786)      7358.9  Rx         0002  2  0B 97 
   787)      7400.5  Rx         0005  4  05 FF 08 0E 
   788)      7402.1  Rx         0002  2  0B 95 
   789)      7413.1  Rx         0010  8  07 2E 08 41 04 8D 04 D9 
   790)      7428.6  Rx         0202  1  00 
   791)      7429.3  Rx         0006  2  00 01 
   792)      7429.6  Rx         0011  4  00 C0 00 1F 
   793)      7429.7  Rx         0182  2  00 03 
   794)      7429.9  Rx         0183  2  01 00 
   795)      7437.3  Rx         0005  4  06 00 08 10 
   796)      7439.6  Rx         0002  2  0B 95 
   797)      7477.1  Rx         0005  4  05 FD 08 0E 
   798)      7477.7  Rx         0002  2  0B 95 
   799)      7484.7  Rx         0010  8  07 22 08 37 04 8E 04 DA 
   800)      7507.7  Rx         0005  4  05 FF 08 10 
   801)      7509.7  Rx         0002  2  0B 95 
   802)      7545.2  Rx         0005  4  06 00 08 26 
   803)      7545.9  Rx         0002  2  0B 9C 
   804)      7552.9  Rx         0010  8  07 1C 08 2E 04 8F 04 D9 
   805)      7568.1  Rx         0202  1  00 
   806)      7569.3  Rx         0006  2  00 01 
   807)      7570.2  Rx         0011  4  00 C0 00 1F 
   808)      7570.9  Rx         0182  2  00 03 
   809)      7571.5  Rx         0183  2  01 00 
   810)      7575.2  Rx         0005  4  05 FE 08 44 
   811)      7575.7  Rx         0002  2  0B AD 
   812)      7612.9  Rx         0005  4  05 FE 08 4F 
   813)      7613.3  Rx         0002  2  0B BE 
   814)      7620.5  Rx         0010  8  07 20 08 30 04 90 04 D9 
   815)      7640.7  Rx         0005  4  05 FC 08 51 
   816)      7641.3  Rx         0002  2  0B D1 
   817)      7679.0  Rx         0005  4  05 FF 08 53 
   818)      7679.3  Rx         0002  2  0B E6 
   819)      7686.1  Rx         0010  8  07 18 08 2F 04 8C 04 DA 
   820)      7704.6  Rx         0202  1  00 
   821)      7705.1  Rx         0006  2  00 01 
   822)      7705.3  Rx         0011  4  00 C0 00 1F 
   823)      7705.3  Rx         0182  2  00 03 
   824)      7705.5  Rx         0183  2  01 00 
   825)      7710.3  Rx         0005  4  05 FF 08 4E 
   826)      7710.9  Rx         0002  2  0B F7 
   827)      7756.3  Rx         0005  4  05 FE 08 54 
   828)      7756.8  Rx         0002  2  0C 05 
   829)      7777.2  Rx         0010  8  07 2A 08 3F 04 8E 04 D8 
   830)      7803.4  Rx         0005  4  05 FD 08 50 
   831)      7803.7  Rx         0002  2  0C 08 
   832)      7846.3  Rx         0005  4  05 FE 08 50 
   833)      7847.0  Rx         0002  2  0C 08 
   834)      7854.3  Rx         0010  8  07 38 08 4D 04 91 04 D8 
   835)      7870.8  Rx         0202  1  00 
   836)      7871.6  Rx         0006  2  00 01 
   837)      7871.8  Rx         0011  4  00 C0 00 1F 
   838)      7871.9  Rx         0182  2  00 03 
   839)      7872.0  Rx         0183  2  01 00 
   840)      7877.8  Rx         0005  4  05 FF 08 52 
   841)      7878.1  Rx         0002  2  0C 08 
   842)      7914.9  Rx         0005  4  06 00 08 55 
   843)      7915.6  Rx         0002  2  0C 0A 
   844)      7933.7  Rx         0010  8  07 4C 08 5C 04 90 04 DA 
   845)      7945.3  Rx         0005  4  05 FE 08 52 
   846)      7945.8  Rx         0002  2  0C 0A 
   847)      7982.9  Rx         0005  4  06 00 08 52 
   848)      7983.4  Rx         0002  2  0C 0A 
   849)      7990.3  Rx         0010  8  07 5D 08 6B 04 90 04 DB 
   850)      8010.3  Rx         0202  1  00 
   851)      8010.8  Rx         0006  2  00 01 
   852)      8010.9  Rx         0011  4  00 C0 00 1F 
   853)      8011.1  Rx         0182  2  00 03 
   854)      8011.3  Rx         0183  2  01 00 
   855)      8013.6  Rx         0005  4  05 FB 08 53 
   856)      8014.1  Rx         0002  2  0C 0A 
   857)      8051.0  Rx         0005  4  06 01 08 52 
   858)      8051.4  Rx         0002  2  0C 0C 
   859)      8069.4  Rx         0010  8  07 58 08 72 04 8D 04 DB 
   860)      8080.0  Rx         0005  4  05 FE 08 53 
   861)      8080.5  Rx         0002  2  0C 0C 
   862)      8119.3  Rx         0005  4  05 FD 08 53 
   863)      8119.8  Rx         0002  2  0C 0A 
   864)      8132.5  Rx         0010  8  07 5A 08 72 04 8E 04 DA 
   865)      8154.4  Rx         0202  1  00 
   866)      8155.7  Rx         0006  2  00 01 
   867)      8156.5  Rx         0011  4  00 C0 00 1F 
   868)      8157.2  Rx         0182  2  00 03 
   869)      8157.7  Rx         0183  2  01 00 
   870)      8158.3  Rx         0005  4  05 FB 08 54 
   871)      8159.6  Rx         0002  2  0C 0C 
   872)      8199.2  Rx         0005  4  05 FF 08 52 
   873)      8199.6  Rx         0002  2  0C 0C 
   874)      8217.1  Rx         0010  8  07 5E 08 74 04 8F 04 D7 
   875)      8237.3  Rx         0005  4  05 FE 08 53 
   876)      8238.0  Rx         0002  2  0C 0C 
   877)      8264.4  Rx         0005  4  05 FD 08 53 
   878)      8265.3  Rx         0002  2  0C 0C 
   879)      8282.3  Rx         0010  8  07 5D 08 75 04 91 04 D9 
   880)      8294.0  Tx         0202  1  00 
   881)      8295.3  Rx         0006  2  00 01 
   882)      8296.1  Rx         0011  4  00 C0 00 1F 
   883)      8296.8  Rx         0182  2  00 03 
   884)      8297.5  Rx         0183  2  01 00 
   885)      8304.3  Rx         0202  1  00 
   886)      8304.9  Rx         0006  2  00 01 
   887)      8305.1  Rx         0011  4  00 C0 00 1F 
   888)      8305.3  Rx         0182  2  00 03 
   889)      8305.3  Rx         0183  2  01 00 
   890)      8343.8  Rx         0005  4  05 FE 08 55 
   891)      8344.2  Rx         0002  2  0C 0C 
   892)      8361.5  Rx         0010  8  07 59 08 73 04 90 04 D8 
   893)      8384.8  Rx         0005  4  05 FF 08 52 
   894)      8385.2  Rx         0002  2  0C 0C 
   895)      8411.5  Rx         0005  4  05 FE 08 52 
   896)      8412.0  Rx         0002  2  0C 0C 
   897)      8430.0  Rx         0010  8  07 5D 08 6C 04 8F 04 D7 
   898)      8449.7  Rx         0202  1  00 
   899)      8450.4  Rx         0006  2  00 01 
   900)      8451.0  Rx         0011  4  00 C0 00 1F 
   901)      8451.7  Rx         0182  2  00 03 
   902)      8452.3  Rx         0183  2  01 00 
   903)      8494.7  Rx         0005  4  05 FE 08 51 
   904)      8495.1  Rx         0002  2  0C 0C 
   905)      8515.1  Rx         0010  8  07 58 08 72 04 91 04 D9 
   906)      8541.4  Rx         0005  4  05 FD 08 53 
   907)      8541.8  Rx         0002  2  0C 0C 
   908)      8574.8  Rx         0005  4  05 FE 08 52 
   909)      8575.8  Rx         0002  2  0C 0A 
   910)      8589.6  Rx         0010  8  07 5B 08 6F 04 8E 04 DA 
   911)      8616.1  Rx         0005  4  05 FE 08 52 
   912)      8616.6  Rx         0002  2  0C 0A 
   913)      8617.0  Rx         0202  1  00 
   914)      8617.5  Rx         0006  2  00 01 
   915)      8617.6  Rx         0011  4  00 C0 00 1F 
   916)      8617.7  Rx         0182  2  00 03 
   917)      8617.9  Rx         0183  2  01 00 
   918)      8654.3  Rx         0005  4  05 FE 08 4E 
   919)      8655.2  Rx         0002  2  0C 08 
   920)      8666.5  Rx         0010  8  07 5D 08 70 04 8D 04 D8 
   921)      8695.8  Rx         0005  4  05 FD 08 2E 
   922)      8696.1  Rx         0002  2  0B FE 
   923)      8723.8  Rx         0005  4  06 00 07 D2 
   924)      8724.2  Rx         0002  2  0B DA 
   925)      8733.3  Rx         0010  8  07 60 08 73 04 8F 04 D9 
   926)      8761.5  Rx         0005  4  06 00 07 5B 
   927)      8763.7  Rx         0002  2  0B 93 
   928)      8764.6  Rx         0202  1  00 
   929)      8765.4  Rx         0006  2  00 01 
   930)      8765.6  Rx         0011  4  00 C0 00 1F 
   931)      8765.7  Rx         0182  2  00 03 
   932)      8765.8  Rx         0183  2  01 00 
   933)      8799.0  Rx         0005  4  06 00 06 E2 
   934)      8801.9  Rx         0002  2  0B 2A 
   935)      8809.2  Rx         0010  8  07 60 08 6F 04 8B 04 DA 
   936)      8837.2  Rx         0005  4  05 FB 06 79 
   937)      8840.3  Rx         0002  2  0A A3 
   938)      8876.4  Rx         0005  4  05 FE 06 2D 
   939)      8878.1  Rx         0002  2  0A 06 
   940)      8888.4  Rx         0010  8  07 4A 08 63 04 91 04 D6 
   941)      8919.3  Rx         0005  4  06 01 06 00 
   942)      8922.7  Rx         0002  2  09 66 
   943)      8926.9  Rx         0202  1  00 
   944)      8927.8  Rx         0006  2  00 01 
   945)      8928.0  Rx         0011  4  00 C0 00 1F 
   946)      8928.1  Rx         0182  2  00 03 
   947)      8928.2  Rx         0183  2  01 00 
   948)      8957.3  Rx         0005  4  06 01 05 ED 
   949)      8959.9  Rx         0002  2  08 DB 
   950)      8970.6  Rx         0010  8  07 23 08 3C 04 8E 04 DA 
   951)      8996.4  Rx         0005  4  05 FE 05 EF 
   952)      9000.1  Rx         0002  2  08 72 
   953)      9031.2  Rx         0005  4  05 FE 05 EF 
   954)      9031.7  Rx         0002  2  08 2D 
   955)      9037.6  Rx         0010  8  06 F3 08 03 04 8C 04 DA 
   956)      9061.8  Rx         0005  4  05 FF 05 EF 
   957)      9063.9  Rx         0002  2  08 06 
   958)      9074.2  Rx         0202  1  00 
   959)      9075.4  Rx         0006  2  00 01 
   960)      9076.3  Rx         0011  4  00 C0 00 1F 
   961)      9076.6  Rx         0182  2  00 03 
   962)      9076.8  Rx         0183  2  01 00 
   963)      9100.6  Rx         0005  4  05 FF 05 F0 
   964)      9103.8  Rx         0002  2  07 F4 
   965)      9117.0  Rx         0010  8  06 BF 07 D1 04 8D 04 DB 
   966)      9137.9  Rx         0005  4  05 FE 05 EE 
   967)      9138.4  Rx         0002  2  07 EF 
   968)      9167.0  Rx         0005  4  06 00 05 F0 
   969)      9167.6  Rx         0002  2  07 EF 
   970)      9173.7  Rx         0010  8  06 86 07 9E 04 8E 04 DB 
   971)      9201.7  Rx         0005  4  05 FE 05 F0 
   972)      9202.1  Rx         0002  2  07 EF 
   973)      9216.6  Rx         0202  1  00 
   974)      9217.3  Rx         0006  2  00 01 
   975)      9217.5  Rx         0011  4  00 C0 00 1F 
   976)      9217.6  Rx         0182  2  00 03 
   977)      9217.7  Rx         0183  2  01 00 
   978)      9248.6  Rx         0005  4  05 FD 05 F0 
   979)      9248.9  Rx         0002  2  07 F1 
   980)      9268.2  Rx         0010  8  06 58 07 6F 04 8E 04 D9 
   981)      9294.2  Tx         0202  1  00 
   982)      9295.5  Rx         0006  2  00 01 
   983)      9296.1  Rx         0011  4  00 C0 00 1F 
   984)      9296.3  Rx         0182  2  00 03 
   985)      9296.5  Rx         0183  2  01 00 
   986)      9296.8  Rx         0005  4  05 FC 05 ED 
   987)      9298.0  Rx         0002  2  07 EF 
   988)      9328.6  Rx         0005  4  05 FD 05 EE 
   989)      9329.1  Rx         0002  2  07 EF 
   990)      9346.8  Rx         0010  8  06 24 07 3B 04 8F 04 D8 
   991)      9361.8  Rx         0005  4  05 FD 05 ED 
   992)      9362.3  Rx         0002  2  07 EF 
   993)      9377.1  Rx         0202  1  00 
   994)      9377.9  Rx         0006  2  00 01 
   995)      9378.1  Rx         0011  4  00 C0 00 1F 
   996)      9378.2  Rx         0182  2  00 03 
   997)      9378.3  Rx         0183  2  01 00 
   998)      9400.3  Rx         0005  4  05 FF 05 EF 
   999)      9400.8  Rx         0002  2  07 ED 
  1000)      9417.7  Rx         0010  8  05 F2 07 04 04 8D 04 D9 
  1001)      9440.4  Rx         0005  4  06 02 05 F3 
  1002)      9440.8  Rx         0002  2  07 EF 
  1003)      9467.7  Rx         0005  4  05 FF 05 EF 
  1004)      9468.2  Rx         0002  2  07 EF 
  1005)      9484.6  Rx         0010  8  05 C0 06 D7 04 8C 04 DA 
  1006)      9514.0  Rx         0202  1  00 
  1007)      9514.5  Rx         0006  2  00 01 
  1008)      9514.8  Rx         0011  4  00 C0 00 1F 
  1009)      9514.9  Rx         0182  2  00 03 
  1010)      9515.0  Rx         0183  2  01 00 
  1011)      9535.5  Rx         0005  4  05 FF 05 EE 
  1012)      9536.0  Rx         0002  2  07 EF 
  1013)      9552.9  Rx         0010  8  05 90 06 A1 04 8D 04 DB 
  1014)      9579.3  Rx         0005  4  06 00 05 F1 
  1015)      9579.8  Rx         0002  2  07 F1 
  1016)      9616.2  Rx         0005  4  05 FE 05 F3 
  1017)      9616.7  Rx         0002  2  07 F1 
  1018)      9636.5  Rx         0010  8  05 5E 06 6F 04 8D 04 DA 
  1019)      9666.5  Rx         0005  4  05 FE 05 EC 
  1020)      9667.0  Rx         0002  2  07 F1 
  1021)      9683.8  Rx         0202  1  00 
  1022)      9685.1  Rx         0006  2  00 01 
  1023)      9685.3  Rx         0011  4  00 C2 00 1F 
  1024)      9685.4  Rx         0182  2  00 03 
  1025)      9685.6  Rx         0183  2  01 00 
  1026)      9705.5  Rx         0005  4  05 FD 05 ED 
  1027)      9706.7  Rx         0002  2  07 EF 
  1028)      9722.8  Rx         0010  8  05 3F 06 4E 04 8D 04 DC 
  1029)      9745.2  Rx         0005  4  05 FF 05 EF 
  1030)      9745.8  Rx         0002  2  07 EF 
  1031)      9773.1  Rx         0005  4  06 01 05 EE 
  1032)      9773.6  Rx         0002  2  07 EF 
  1033)      9789.9  Rx         0010  8  05 26 06 39 04 90 04 D8 
  1034)      9812.9  Rx         0005  4  05 FF 05 EF 
  1035)      9813.4  Rx         0002  2  07 EF 
  1036)      9830.4  Rx         0202  1  00 
  1037)      9831.0  Rx         0006  2  00 01 
  1038)      9831.2  Rx         0011  4  00 C2 00 1F 
  1039)      9831.3  Rx         0182  2  00 03 
  1040)      9831.5  Rx         0183  2  01 00 
  1041)      9851.8  Rx         0005  4  06 00 05 EC 
  1042)      9852.3  Rx         0002  2  07 ED 
  1043)      9868.8  Rx         0010  8  05 1B 06 29 04 8D 04 D9 
  1044)      9891.1  Rx         0005  4  05 FF 05 EE 
  1045)      9892.8  Rx         0002  2  07 ED 
  1046)      9918.6  Rx         0005  4  05 FC 05 EB 
  1047)      9919.2  Rx         0002  2  07 ED 
  1048)      9936.2  Rx         0010  8  05 1D 06 2B 04 8F 04 DB 
  1049)      9962.6  Rx         0005  4  06 00 05 E7 
  1050)      9963.0  Rx         0002  2  07 EA 
  1051)      9986.2  Rx         0202  1  00 
  1052)      9987.1  Rx         0006  2  00 01 
  1053)      9987.3  Rx         0011  4  00 C2 00 1F 
  1054)      9987.4  Rx         0182  2  00 03 
  1055)      9987.5  Rx         0183  2  01 00 
  1056)     10010.8  Rx         0005  4  05 FF 05 E5 
  1057)     10011.4  Rx         0002  2  07 E8 
  1058)     10030.1  Rx         0010  8  05 25 06 3A 04 8F 04 DC 
  1059)     10060.1  Rx         0005  4  06 00 05 D0 
  1060)     10060.7  Rx         0002  2  07 E0 
  1061)     10103.1  Rx         0005  4  05 FF 05 7C 
  1062)     10103.7  Rx         0002  2  07 BF 
  1063)     10115.8  Rx         0010  8  05 2A 06 3B 04 8D 04 D8 
  1064)     10145.0  Rx         0005  4  05 FD 04 F8 
  1065)     10145.4  Rx         0002  2  07 78 
  1066)     10164.4  Rx         0202  1  00 
  1067)     10165.1  Rx         0006  2  00 01 
  1068)     10165.3  Rx         0011  4  00 C2 00 1F 
  1069)     10165.5  Rx         0182  2  00 03 
  1070)     10165.6  Rx         0183  2  01 00 
  1071)     10183.6  Rx         0005  4  05 FE 04 9B 
  1072)     10184.3  Rx         0002  2  07 18 
  1073)     10194.3  Rx         0010  8  05 2A 06 3B 04 8D 04 DB 
  1074)     10224.0  Rx         0005  4  05 FF 04 96 
  1075)     10224.5  Rx         0002  2  06 B8 
  1076)     10251.9  Rx         0005  4  05 FC 04 95 
  1077)     10252.5  Rx         0002  2  06 58 
  1078)     10260.5  Rx         0010  8  05 15 06 29 04 90 04 D9 
  1079)     10291.2  Rx         0005  4  05 FF 04 96 
  1080)     10291.7  Rx         0002  2  05 FC 
  1081)     10293.5  Tx         0202  1  00 
  1082)     10293.8  Rx         0006  2  00 01 
  1083)     10293.9  Rx         0011  4  00 C2 00 1F 
  1084)     10294.1  Rx         0182  2  00 03 
  1085)     10294.3  Rx         0183  2  01 00 
  1086)     10311.0  Rx         0202  1  00 
  1087)     10311.9  Rx         0006  2  00 01 
  1088)     10312.0  Rx         0011  4  00 C2 00 1F 
  1089)     10312.1  Rx         0182  2  00 03 
  1090)     10312.3  Rx         0183  2  01 00 
  1091)     10335.9  Rx         0010  8  04 F2 06 03 04 8D 04 DA 
  1092)     10373.7  Rx         0005  4  06 01 04 9B 
  1093)     10376.4  Rx         0002  2  05 BD 
  1094)     10411.9  Rx         0005  4  05 FE 04 A1 
  1095)     10413.9  Rx         0002  2  05 A3 
  1096)     10423.6  Rx         0010  8  04 C0 05 CE 04 90 04 DB 
  1097)     10461.3  Rx         0005  4  05 FE 04 A1 
  1098)     10463.2  Rx         0002  2  05 A5 
  1099)     10483.7  Rx         0202  1  00 
  1100)     10484.2  Rx         0006  2  00 01 
  1101)     10484.3  Rx         0011  4  00 C2 00 1F 
  1102)     10484.4  Rx         0182  2  00 03 
  1103)     10484.6  Rx         0183  2  01 00 
  1104)     10498.8  Rx         0005  4  06 00 04 9F 
  1105)     10502.2  Rx         0002  2  05 A8 
  1106)     10507.4  Rx         0010  8  04 8E 05 9F 04 8E 04 D8 
  1107)     10537.9  Rx         0005  4  05 FD 04 A3 
  1108)     10540.6  Rx         0002  2  05 AC 
  1109)     10568.3  Rx         0005  4  06 01 04 B1 
  1110)     10568.7  Rx         0002  2  05 B4 
  1111)     10574.0  Rx         0010  8  04 5F 05 6D 04 8D 04 DB 
  1112)     10597.8  Rx         0005  4  05 FD 04 B5 
  1113)     10598.8  Rx         0002  2  05 BB 
  1114)     10619.2  Rx         0202  1  00 
  1115)     10620.0  Rx         0006  2  00 01 
  1116)     10620.2  Rx         0011  4  00 C2 00 1F 
  1117)     10620.4  Rx         0182  2  00 03 
  1118)     10620.4  Rx         0183  2  01 00 
  1119)     10630.3  Rx         0005  4  05 FD 04 B9 
  1120)     10632.5  Rx         0002  2  05 C2 
  1121)     10642.1  Rx         0010  8  04 32 05 3E 04 91 04 D9 
  1122)     10671.0  Rx         0005  4  05 FC 04 B8 
  1123)     10674.3  Rx         0002  2  05 C9 
  1124)     10704.7  Rx         0005  4  06 00 04 B7 
  1125)     10705.1  Rx         0002  2  05 D0 
  1126)     10710.7  Rx         0010  8  04 12 05 20 04 8E 04 DA 
  1127)     10741.1  Rx         0005  4  05 FA 04 B8 
  1128)     10741.7  Rx         0002  2  05 D5 
  1129)     10770.7  Rx         0202  1  00 
  1130)     10771.2  Rx         0006  2  00 01 
  1131)     10771.4  Rx         0011  4  00 C0 00 1F 
  1132)     10771.6  Rx         0182  2  00 03 
  1133)     10771.7  Rx         0183  2  01 00 
  1134)     10780.5  Rx         0005  4  05 FE 04 B8 
  1135)     10783.4  Rx         0002  2  05 D8 
  1136)     10800.7  Rx         0010  8  03 FC 05 0F 04 8D 04 DC 
  1137)     10832.0  Rx         0005  4  05 FD 04 B9 
  1138)     10834.0  Rx         0002  2  05 D8 
  1139)     10871.3  Rx         0005  4  05 FC 04 B9 
  1140)     10871.7  Rx         0002  2  05 D8 
  1141)     10879.0  Rx         0010  8  03 F7 05 07 04 8D 04 DA 
  1142)     10902.9  Rx         0005  4  06 00 04 B9 
  1143)     10903.3  Rx         0002  2  05 D8 
  1144)     10925.5  Rx         0202  1  00 
  1145)     10926.3  Rx         0006  2  00 01 
  1146)     10926.6  Rx         0011  4  00 C0 00 1F 
  1147)     10926.7  Rx         0182  2  00 03 
  1148)     10926.9  Rx         0183  2  01 00 
  1149)     10930.6  Rx         0005  4  05 FB 04 B6 
  1150)     10931.2  Rx         0002  2  05 D8 
  1151)     10947.1  Rx         0010  8  03 FE 05 0D 04 8E 04 D8 
  1152)     10971.2  Rx         0005  4  06 00 04 B9 
  1153)     10971.6  Rx         0002  2  05 D8 
  1154)     10998.6  Rx         0005  4  05 FF 04 B9 
  1155)     10999.2  Rx         0002  2  05 D8 
  1156)     11004.2  Rx         0010  8  04 03 05 1E 04 90 04 D9 
  1157)     11028.1  Rx         0005  4  05 FF 04 B7 
  1158)     11028.4  Rx         0002  2  05 D8 
  1159)     11051.6  Rx         0202  1  00 
  1160)     11052.2  Rx         0006  2  00 01 
  1161)     11052.4  Rx         0011  4  00 C0 00 1F 
  1162)     11052.4  Rx         0182  2  00 03 
  1163)     11052.6  Rx         0183  2  01 00 
  1164)     11055.0  Rx         0005  4  05 FF 04 BC 
  1165)     11055.4  Rx         0002  2  05 DA 
  1166)     11071.6  Rx         0010  8  04 08 05 1D 04 90 04 DC 
  1167)     11098.8  Rx         0005  4  05 FE 04 B6 
  1168)     11099.5  Rx         0002  2  05 D8 
  1169)     11146.7  Rx         0005  4  05 FE 04 B7 
  1170)     11147.1  Rx         0002  2  05 D8 
  1171)     11155.9  Rx         0010  8  04 0F 05 1D 04 91 04 DB 
  1172)     11185.0  Rx         0005  4  05 FE 04 B8 
  1173)     11185.7  Rx         0002  2  05 D8 
  1174)     11209.1  Rx         0202  1  00 
  1175)     11209.9  Rx         0006  2  00 01 
  1176)     11210.1  Rx         0011  4  00 C0 00 1F 
  1177)     11210.3  Rx         0182  2  00 03 
  1178)     11210.4  Rx         0183  2  01 00 
  1179)     11212.4  Rx         0005  4  05 FF 04 B9 
  1180)     11212.7  Rx         0002  2  05 D8 
  1181)     11228.5  Rx         0010  8  04 11 05 1F 04 8F 04 DB 
  1182)     11251.6  Rx         0005  4  05 FE 04 BB 
  1183)     11252.0  Rx         0002  2  05 DA 
  1184)     11279.6  Rx         0005  4  05 FE 04 B7 
  1185)     11280.1  Rx         0002  2  05 D8 
  1186)     11285.1  Rx         0010  8  04 0F 05 20 04 8F 04 DB 
  1187)     11294.6  Tx         0202  1  00 
  1188)     11295.9  Rx         0006  2  00 01 
  1189)     11296.7  Rx         0011  4  00 C0 00 1F 
  1190)     11297.4  Rx         0182  2  00 03 
  1191)     11298.1  Rx         0183  2  01 00 
  1192)     11310.3  Rx         0005  4  05 FB 04 B7 
  1193)     11310.9  Rx         0002  2  05 D8 
  1194)     11347.0  Rx         0202  1  00 
  1195)     11347.5  Rx         0006  2  00 01 
  1196)     11347.7  Rx         0011  4  00 C0 00 1F 
  1197)     11347.7  Rx         0182  2  00 03 
  1198)     11347.9  Rx         0183  2  01 00 
  1199)     11349.4  Rx         0005  4  05 FE 04 B8 
  1200)     11351.4  Rx         0002  2  05 D8 
  1201)     11366.8  Rx         0010  8  04 0E 05 1F 04 90 04 DA 
  1202)     11391.9  Rx         0005  4  05 FB 04 B6 
  1203)     11392.2  Rx         0002  2  05 D8 
  1204)     11418.7  Rx         0005  4  05 FE 04 B9 
  1205)     11419.1  Rx         0002  2  05 D8 
  1206)     11433.5  Rx         0010  8  04 0B 05 1E 04 90 04 DB 
  1207)     11462.0  Rx         0005  4  05 FF 04 B9 
  1208)     11462.5  Rx         0002  2  05 D8 
  1209)     11498.6  Rx         0202  1  00 
  1210)     11499.5  Rx         0006  2  00 01 
  1211)     11499.8  Rx         0011  4  00 C0 00 1F 
  1212)     11499.9  Rx         0182  2  00 03 
  1213)     11500.0  Rx         0183  2  01 00 
  1214)     11500.8  Rx         0005  4  05 FE 04 B8 
  1215)     11502.1  Rx         0002  2  05 D8 
  1216)     11516.8  Rx         0010  8  04 10 05 1C 04 8E 04 D7 
  1217)     11550.6  Rx         0005  4  05 FE 04 B7 
  1218)     11551.3  Rx         0002  2  05 D8 
  1219)     11580.6  Rx         0005  4  06 00 04 B8 
  1220)     11581.1  Rx         0002  2  05 D8 
  1221)     11592.8  Rx         0010  8  04 0E 05 1E 04 90 04 DC 
  1222)     11622.1  Rx         0005  4  05 FD 04 B8 
  1223)     11622.8  Rx         0002  2  05 D8 
  1224)     11648.7  Rx         0202  1  00 
  1225)     11649.3  Rx         0006  2  00 01 
  1226)     11649.5  Rx         0005  4  05 FE 04 B8 
  1227)     11649.7  Rx         0011  4  00 C0 00 1F 
  1228)     11649.8  Rx         0182  2  00 03 
  1229)     11650.0  Rx         0183  2  01 00 
  1230)     11650.3  Rx         0002  2  05 D8 
  1231)     11657.6  Rx         0010  8  04 08 05 1E 04 91 04 D7 
  1232)     11688.5  Rx         0005  4  06 00 04 B7 
  1233)     11688.8  Rx         0002  2  05 D8 
  1234)     11715.8  Rx         0005  4  05 FE 04 B7 
  1235)     11716.3  Rx         0002  2  05 D8 
  1236)     11721.2  Rx         0010  8  04 0E 05 1D 04 90 04 DD 
  1237)     11754.0  Rx         0005  4  05 FD 04 B7 
  1238)     11754.4  Rx         0002  2  05 D8 
  1239)     11781.2  Rx         0005  4  05 FE 04 B6 
  1240)     11781.5  Rx         0202  1  00 
  1241)     11782.2  Rx         0006  2  00 01 
  1242)     11782.4  Rx         0002  2  05 D7 
  1243)     11782.5  Rx         0011  4  00 C0 00 1F 
  1244)     11782.7  Rx         0182  2  00 03 
  1245)     11782.9  Rx         0183  2  01 00 
  1246)     11786.6  Rx         0010  8  04 10 05 1E 04 91 04 D6 
  1247)     11824.5  Rx         0005  4  05 FF 04 B7 
  1248)     11826.7  Rx         0002  2  05 D7 
  1249)     11862.4  Rx         0005  4  05 FD 04 B6 
  1250)     11864.3  Rx         0002  2  05 D7 
  1251)     11870.5  Rx         0010  8  04 07 05 20 04 91 04 DE 
  1252)     11911.4  Rx         0005  4  05 FB 04 B6 
  1253)     11912.0  Rx         0002  2  05 D5 
  1254)     11938.8  Rx         0005  4  05 FD 04 B8 
  1255)     11939.2  Rx         0002  2  05 D7 
  1256)     11939.6  Rx         0202  1  00 
  1257)     11940.3  Rx         0006  2  00 01 
  1258)     11940.4  Rx         0011  4  00 C0 00 1F 
  1259)     11940.5  Rx         0182  2  00 03 
  1260)     11940.7  Rx         0183  2  01 00 
  1261)     11944.2  Rx         0010  8  04 06 05 20 04 92 04 DB 
  1262)     11976.1  Rx         0005  4  05 FE 04 B8 
  1263)     11978.2  Rx         0002  2  05 D7 
  1264)     12004.6  Rx         0005  4  05 FC 04 B8 
  1265)     12004.9  Rx         0002  2  05 D7 
  1266)     12009.8  Rx         0010  8  04 0A 05 20 04 90 04 DA 
  1267)     12041.7  Rx         0005  4  05 FD 04 B7 
  1268)     12045.4  Rx         0002  2  05 D7 
  1269)     12072.4  Rx         0005  4  05 FD 04 BF 
  1270)     12073.0  Rx         0002  2  05 DA 
  1271)     12074.2  Rx         0202  1  00 
  1272)     12075.1  Rx         0006  2  00 01 
  1273)     12075.2  Rx         0011  4  00 C0 00 1F 
  1274)     12075.3  Rx         0182  2  00 03 
  1275)     12075.4  Rx         0183  2  01 00 
  1276)     12077.8  Rx         0010  8  04 0F 05 1D 04 91 04 D9 
  1277)     12099.9  Rx         0005  4  06 00 04 E5 
  1278)     12100.6  Rx         0002  2  05 E6 
  1279)     12127.1  Rx         0005  4  05 FD 05 1D 
  1280)     12127.8  Rx         0002  2  06 03 
  1281)     12131.5  Rx         0010  8  04 0F 05 1F 04 91 04 D8 
  1282)     12161.5  Rx         0005  4  05 FF 05 5C 
  1283)     12163.8  Rx         0002  2  06 33 
  1284)     12206.0  Rx         0005  4  05 FD 05 96 
  1285)     12206.6  Rx         0002  2  06 73 
  1286)     12209.4  Rx         0202  1  00 
  1287)     12210.5  Rx         0006  2  00 01 
  1288)     12210.7  Rx         0011  4  00 C0 00 1F 
  1289)     12210.9  Rx         0182  2  00 03 
  1290)     12211.0  Rx         0183  2  01 00 
  1291)     12213.0  Rx         0010  8  04 0F 05 21 04 91 04 DC 
  1292)     12242.7  Rx         0005  4  05 FE 05 C4 
  1293)     12243.3  Rx         0002  2  06 BF 
  1294)     12273.0  Rx         0005  4  05 FD 05 E4 
  1295)     12273.7  Rx         0002  2  07 13 
  1296)     12280.6  Rx         0010  8  04 1A 05 2F 04 90 04 DB 
  1297)     12294.6  Tx         0202  1  00 
  1298)     12295.8  Rx         0006  2  00 01 
  1299)     12296.7  Rx         0011  4  00 C0 00 1F 
  1300)     12297.4  Rx         0182  2  00 03 
  1301)     12298.0  Rx         0183  2  01 00 
  1302)     12306.9  Rx         0005  4  05 FD 05 E7 
  1303)     12308.9  Rx         0002  2  07 5D 
  1304)     12344.8  Rx         0005  4  05 FF 05 E6 
  1305)     12345.4  Rx         0002  2  07 97 
  1306)     12348.0  Rx         0202  1  00 
  1307)     12348.7  Rx         0006  2  00 01 
  1308)     12348.9  Rx         0011  4  00 C0 00 1F 
  1309)     12349.0  Rx         0182  2  00 03 
  1310)     12349.2  Rx         0183  2  01 00 
  1311)     12350.2  Rx         0010  8  04 2F 05 3E 04 8D 04 D9 
  1312)     12376.0  Rx         0005  4  05 FE 05 E6 
  1313)     12376.4  Rx         0002  2  07 BF 
  1314)     12403.3  Rx         0005  4  05 FE 05 E9 
  1315)     12403.9  Rx         0002  2  07 D7 
  1316)     12408.2  Rx         0010  8  04 5A 05 6B 04 8E 04 D9 
  1317)     12433.6  Rx         0005  4  06 02 05 E7 
  1318)     12434.1  Rx         0002  2  07 E0 
  1319)     12460.8  Rx         0005  4  06 01 05 E5 
  1320)     12461.4  Rx         0002  2  07 E1 
  1321)     12464.6  Rx         0202  1  00 
  1322)     12465.1  Rx         0006  2  00 01 
  1323)     12465.3  Rx         0010  8  04 91 05 9D 04 92 04 DA 
  1324)     12465.6  Rx         0011  4  00 C0 00 1F 
  1325)     12465.7  Rx         0182  2  00 03 
  1326)     12465.9  Rx         0183  2  01 00 
  1327)     12495.4  Rx         0005  4  05 FC 05 E4 
  1328)     12495.8  Rx         0002  2  07 E0 
  1329)     12532.4  Rx         0005  4  05 FD 05 E3 
  1330)     12532.8  Rx         0002  2  07 E0 
  1331)     12540.7  Rx         0010  8  04 BC 05 CF 04 91 04 D9 
  1332)     12568.5  Rx         0005  4  05 FE 05 BB 
  1333)     12569.1  Rx         0002  2  07 D2 
  1334)     12596.4  Rx         0005  4  05 F9 05 5B 
  1335)     12596.7  Rx         0002  2  07 AA 
  1336)     12600.9  Rx         0010  8  04 E1 05 F6 04 8F 04 DB 
  1337)     12601.4  Rx         0202  1  00 
  1338)     12602.6  Rx         0006  2  00 01 
  1339)     12603.5  Rx         0011  4  00 C0 00 1F 
  1340)     12604.2  Rx         0182  2  00 03 
  1341)     12604.6  Rx         0183  2  01 00 
  1342)     12626.5  Rx         0005  4  05 FC 04 E8 
  1343)     12627.1  Rx         0002  2  07 60 
  1344)     12653.4  Rx         0005  4  06 00 04 8C 
  1345)     12653.7  Rx         0002  2  06 FE 
  1346)     12658.4  Rx         0010  8  04 FC 06 0C 04 90 04 D9 
  1347)     12683.0  Rx         0005  4  05 FF 04 70 
  1348)     12683.4  Rx         0002  2  06 94 
  1349)     12710.4  Rx         0005  4  05 FD 04 6D 
  1350)     12711.7  Rx         0002  2  06 27 
  1351)     12724.8  Rx         0010  8  04 FD 06 0A 04 8E 04 DA 
  1352)     12726.7  Rx         0202  1  00 
  1353)     12727.4  Rx         0006  2  00 01 
  1354)     12727.6  Rx         0011  4  00 C0 00 1F 
  1355)     12727.8  Rx         0182  2  00 03 
  1356)     12727.9  Rx         0183  2  01 00 
  1357)     12749.5  Rx         0005  4  05 FF 04 6F 
  1358)     12749.8  Rx         0002  2  05 C9 
  1359)     12776.9  Rx         0005  4  05 FF 04 69 
  1360)     12777.6  Rx         0002  2  05 84 
  1361)     12781.1  Rx         0010  8  04 E1 05 EB 04 8E 04 DB 
  1362)     12811.1  Rx         0005  4  05 FE 04 6F 
  1363)     12811.5  Rx         0002  2  05 62 
  1364)     12848.1  Rx         0005  4  05 FF 04 63 
  1365)     12849.2  Rx         0002  2  05 56 
  1366)     12859.8  Rx         0010  8  04 AD 05 B8 04 92 04 DA 
  1367)     12868.5  Rx         0202  1  00 
  1368)     12869.8  Rx         0006  2  00 01 
  1369)     12870.7  Rx         0011  4  00 C0 00 1F 
  1370)     12871.3  Rx         0182  2  00 03 
  1371)     12871.5  Rx         0183  2  01 00 
  1372)     12894.4  Rx         0005  4  06 00 04 32 
  1373)     12895.8  Rx         0002  2  05 44 
  1374)     12924.0  Rx         0005  4  06 02 04 01 
  1375)     12924.4  Rx         0002  2  05 25 
  1376)     12931.1  Rx         0010  8  04 7F 05 84 04 8E 04 DB 
  1377)     12957.6  Rx         0005  4  05 FF 04 01 
  1378)     12958.3  Rx         0002  2  05 05 
  1379)     12984.5  Rx         0005  4  05 FD 03 FF 
  1380)     12984.8  Rx         0002  2  04 E8 
  1381)     12990.4  Rx         0010  8  04 4B 05 50 04 8F 04 D9 
  1382)     13002.5  Rx         0202  1  00 
  1383)     13003.0  Rx         0006  2  00 01 
  1384)     13003.2  Rx         0011  4  00 C0 00 1F 
  1385)     13003.2  Rx         0182  2  00 03 
  1386)     13003.4  Rx         0183  2  01 00 
  1387)     13025.7  Rx         0005  4  05 FE 03 FF 
  1388)     13026.6  Rx         0002  2  04 C7 
  1389)     13064.5  Rx         0005  4  05 FE 03 FF 
  1390)     13065.0  Rx         0002  2  04 AA 
  1391)     13068.2  Rx         0010  8  04 15 05 1E 04 8E 04 DA 
  1392)     13093.6  Rx         0005  4  05 FE 03 FF 
  1393)     13094.1  Rx         0002  2  04 9C 
  1394)     13121.6  Rx         0005  4  05 FD 03 FF 
  1395)     13122.1  Rx         0002  2  04 9A 
  1396)     13125.4  Rx         0010  8  03 E6 04 E9 04 8D 04 D8 
  1397)     13139.5  Rx         0202  1  00 
  1398)     13140.8  Rx         0006  2  00 01 
  1399)     13141.6  Rx         0011  4  00 C0 00 1F 
  1400)     13142.3  Rx         0182  2  00 03 
  1401)     13143.0  Rx         0183  2  01 00 
  1402)     13165.5  Rx         0005  4  06 02 04 06 
  1403)     13167.7  Rx         0002  2  04 9C 
  1404)     13202.8  Rx         0005  4  05 FD 03 FF 
  1405)     13205.0  Rx         0002  2  04 9C 
  1406)     13209.9  Rx         0010  8  03 B5 04 B8 04 8E 04 D7 
  1407)     13248.5  Rx         0005  4  05 FF 03 FF 
  1408)     13248.8  Rx         0002  2  04 9C 
  1409)     13275.0  Rx         0005  4  06 01 03 FF 
  1410)     13275.1  Rx         0002  2  04 9C 
  1411)     13279.7  Rx         0010  8  03 8D 04 95 04 8D 04 DA 
  1412)     13293.7  Tx         0202  1  00 
  1413)     13294.0  Rx         0006  2  00 01 
  1414)     13294.2  Rx         0202  1  00 
  1415)     13294.3  Rx         0011  4  00 C0 00 1F 
  1416)     13294.7  Rx         0182  2  00 03 
  1417)     13294.9  Rx         0183  2  01 00 
  1418)     13295.1  Rx         0006  2  00 01 
  1419)     13295.3  Rx         0011  4  00 C0 00 1F 
  1420)     13295.4  Rx         0182  2  00 03 
  1421)     13295.6  Rx         0183  2  01 00 
  1422)     13314.8  Rx         0005  4  05 FE 04 12 
  1423)     13315.4  Rx         0002  2  04 A1 
  1424)     13341.0  Rx         0005  4  05 FD 04 24 
  1425)     13341.4  Rx         0002  2  04 AD 
  1426)     13345.5  Rx         0010  8  03 73 04 7C 04 8E 04 D6 
  1427)     13382.9  Rx         0005  4  05 FC 04 2A 
  1428)     13383.4  Rx         0002  2  04 B7 
  1429)     13410.2  Rx         0005  4  05 FD 04 2A 
  1430)     13410.6  Rx         0002  2  04 C3 
  1431)     13413.7  Rx         0010  8  03 66 04 72 04 8E 04 D8 
  1432)     13430.3  Rx         0202  1  00 
  1433)     13431.5  Rx         0006  2  00 01 
  1434)     13432.4  Rx         0011  4  00 C0 00 1F 
  1435)     13433.1  Rx         0182  2  00 03 
  1436)     13433.5  Rx         0183  2  01 00 
  1437)     13449.7  Rx         0005  4  06 01 04 2A 
  1438)     13451.2  Rx         0002  2  04 CF 
  1439)     13479.2  Rx         0005  4  05 FD 04 27 
  1440)     13479.8  Rx         0002  2  04 DA 
  1441)     13482.7  Rx         0010  8  03 64 04 72 04 90 04 DA 
  1442)     13520.9  Rx         0005  4  05 FE 04 2D 
  1443)     13523.0  Rx         0002  2  04 E2 
  1444)     13560.6  Rx         0005  4  06 00 04 2B 
  1445)     13561.2  Rx         0002  2  04 E4 
  1446)     13566.1  Rx         0010  8  03 6A 04 7D 04 90 04 DC 
  1447)     13587.8  Rx         0202  1  00 
  1448)     13588.8  Rx         0006  2  00 01 
  1449)     13589.6  Rx         0011  4  00 C0 00 1F 
  1450)     13590.3  Rx         0182  2  00 03 
  1451)     13590.5  Rx         0183  2  01 00 
  1452)     13603.1  Rx         0005  4  05 FE 04 29 
  1453)     13605.6  Rx         0002  2  04 E4 
  1454)     13639.6  Rx         0005  4  05 FE 04 2C 
  1455)     13641.5  Rx         0002  2  04 E4 
  1456)     13645.1  Rx         0010  8  03 76 04 8C 04 8E 04 DA 
  1457)     13674.3  Rx         0005  4  06 00 04 2D 
  1458)     13677.1  Rx         0002  2  04 E6 
  1459)     13708.2  Rx         0005  4  05 FF 04 2B 
  1460)     13709.6  Rx         0002  2  04 E8 
  1461)     13712.8  Rx         0010  8  03 81 04 96 04 8F 04 DB 
  1462)     13730.2  Rx         0202  1  00 
  1463)     13731.5  Rx         0006  2  00 01 
  1464)     13732.3  Rx         0011  4  00 C0 00 1F 
  1465)     13733.0  Rx         0182  2  00 03 
  1466)     13733.5  Rx         0183  2  01 00 
  1467)     13740.5  Rx         0005  4  05 FE 04 29 
  1468)     13743.6  Rx         0002  2  04 E6 
  1469)     13776.5  Rx         0005  4  05 FD 04 2A 
  1470)     13776.9  Rx         0002  2  04 E6 
  1471)     13780.3  Rx         0010  8  03 84 04 93 04 8E 04 DA 
  1472)     13804.6  Rx         0005  4  06 00 04 2B 
  1473)     13807.0  Rx         0002  2  04 E6 
  1474)     13842.1  Rx         0005  4  05 FD 04 2A 
  1475)     13842.8  Rx         0002  2  04 E6 
  1476)     13845.4  Rx         0010  8  03 89 04 93 04 8E 04 D9 
  1477)     13870.0  Rx         0202  1  00 
  1478)     13870.6  Rx         0006  2  00 01 
  1479)     13870.7  Rx         0011  4  00 C0 00 1F 
  1480)     13870.9  Rx         0182  2  00 03 
  1481)     13871.0  Rx         0183  2  01 00 
  1482)     13879.0  Rx         0005  4  05 FF 04 2B 
  1483)     13880.7  Rx         0002  2  04 E4 
  1484)     13924.5  Rx         0005  4  05 FD 04 2A 
  1485)     13924.8  Rx         0002  2  04 E4 
  1486)     13929.8  Rx         0010  8  03 86 04 95 04 91 04 DB 
  1487)     13959.8  Rx         0005  4  05 FE 04 2B 
  1488)     13960.2  Rx         0002  2  04 E4 
  1489)     13986.2  Rx         0005  4  05 FF 04 2A 
  1490)     13986.8  Rx         0002  2  04 E4 
  1491)     13990.4  Rx         0010  8  03 86 04 95 04 8D 04 DA 
  1492)     14008.5  Rx         0202  1  00 
  1493)     14009.8  Rx         0006  2  00 01 
  1494)     14010.7  Rx         0011  4  00 C0 00 1F 
  1495)     14011.3  Rx         0182  2  00 03 
  1496)     14012.0  Rx         0183  2  01 00 
  1497)     14016.7  Rx         0005  4  05 FE 04 2A 
  1498)     14017.3  Rx         0002  2  04 E4 
  1499)     14054.8  Rx         0005  4  05 FF 04 2B 
  1500)     14055.3  Rx         0002  2  04 E4 
  1501)     14058.5  Rx         0010  8  03 85 04 95 04 90 04 DA 
  1502)     14082.7  Rx         0005  4  05 FE 04 2B 
  1503)     14083.1  Rx         0002  2  04 E4 
  1504)     14110.7  Rx         0005  4  05 FC 04 2B 
  1505)     14111.1  Rx         0002  2  04 E6 
  1506)     14114.0  Rx         0010  8  03 85 04 95 04 8E 04 DB 
  1507)     14134.9  Rx         0202  1  00 
  1508)     14135.6  Rx         0006  2  00 01 
  1509)     14135.8  Rx         0011  4  00 C0 00 1F 
  1510)     14136.0  Rx         0182  2  00 03 
  1511)     14136.1  Rx         0183  2  01 00 
  1512)     14138.5  Rx         0005  4  05 FC 04 2A 
  1513)     14139.2  Rx         0002  2  04 E4 
  1514)     14166.0  Rx         0005  4  05 FE 04 2C 
  1515)     14166.4  Rx         0002  2  04 E6 
  1516)     14176.1  Rx         0010  8  03 86 04 94 04 8F 04 DD 
  1517)     14210.8  Rx         0005  4  05 FD 04 2A 
  1518)     14211.4  Rx         0002  2  04 E6 
  1519)     14247.6  Rx         0005  4  05 FC 04 2A 
  1520)     14248.1  Rx         0002  2  04 E6 
  1521)     14252.6  Rx         0010  8  03 86 04 94 04 8D 04 DA 
  1522)     14280.6  Rx         0202  1  00 
  1523)     14281.8  Rx         0006  2  00 01 
  1524)     14282.4  Rx         0011  4  00 C0 00 1F 
  1525)     14282.6  Rx         0182  2  00 03 
  1526)     14282.7  Rx         0183  2  01 00 
  1527)     14284.6  Rx         0005  4  05 FE 04 29 
  1528)     14285.1  Rx         0002  2  04 E4 
  1529)     14293.7  Tx         0202  1  00 
  1530)     14295.0  Rx         0006  2  00 01 
  1531)     14295.8  Rx         0011  4  00 C0 00 1F 
  1532)     14296.5  Rx         0182  2  00 03 
  1533)     14297.2  Rx         0183  2  01 00 
  1534)     14325.0  Rx         0005  4  06 01 04 2A 
  1535)     14325.5  Rx         0002  2  04 E4 
  1536)     14331.7  Rx         0010  8  03 86 04 95 04 8D 04 D9 
  1537)     14364.5  Rx         0005  4  05 FF 04 17 
  1538)     14364.9  Rx         0002  2  04 DF 
  1539)     14391.8  Rx         0005  4  05 FB 03 D3 
  1540)     14392.0  Rx         0002  2  04 C5 
  1541)     14395.1  Rx         0010  8  03 86 04 96 04 90 04 DB 
  1542)     14418.5  Rx         0202  1  00 
  1543)     14419.0  Rx         0006  2  00 01 
  1544)     14419.1  Rx         0011  4  00 C0 00 1F 
  1545)     14419.3  Rx         0182  2  00 03 
  1546)     14419.5  Rx         0183  2  01 00 
  1547)     14420.7  Rx         0005  4  06 00 03 AF 
  1548)     14421.1  Rx         0002  2  04 A3 
  1549)     14448.2  Rx         0005  4  05 FD 03 AE 
  1550)     14448.4  Rx         0002  2  04 7F 
  1551)     14451.8  Rx         0010  8  03 85 04 95 04 8F 04 DA 
  1552)     14486.6  Rx         0005  4  05 FC 03 AE 
  1553)     14487.1  Rx         0002  2  04 5A 
  1554)     14514.6  Rx         0005  4  05 FE 03 A6 
  1555)     14514.9  Rx         0002  2  04 35 
  1556)     14518.9  Rx         0010  8  03 7B 04 89 04 8D 04 DA 
  1557)     14551.7  Rx         0202  1  00 
  1558)     14552.5  Rx         0006  2  00 01 
  1559)     14552.7  Rx         0011  4  00 C0 00 1F 
  1560)     14552.8  Rx         0182  2  00 03 
  1561)     14552.9  Rx         0183  2  01 00 
  1562)     14553.9  Rx         0005  4  06 00 03 71 
  1563)     14556.3  Rx         0002  2  04 06 
  1564)     14600.5  Rx         0005  4  06 02 03 45 
  1565)     14602.1  Rx         0002  2  03 DD 
  1566)     14606.9  Rx         0010  8  03 6C 04 77 04 8F 04 D8 
  1567)     14643.1  Rx         0005  4  05 FE 03 42 
  1568)     14643.3  Rx         0002  2  03 BE 
  1569)     14669.5  Rx         0005  4  05 FC 03 44 
  1570)     14670.1  Rx         0002  2  03 9F 
  1571)     14673.1  Rx         0010  8  03 5A 04 65 04 8D 04 D9 
  1572)     14708.9  Rx         0202  1  00 
  1573)     14709.4  Rx         0006  2  00 01 
  1574)     14709.7  Rx         0011  4  00 C0 00 1F 
  1575)     14709.9  Rx         0182  2  00 03 
  1576)     14709.9  Rx         0183  2  01 00 
  1577)     14710.3  Rx         0005  4  06 00 03 46 
  1578)     14711.2  Rx         0002  2  03 82 
  1579)     14737.4  Rx         0005  4  05 FE 03 46 
  1580)     14738.1  Rx         0002  2  03 66 
  1581)     14740.5  Rx         0010  8  03 40 04 4D 04 8C 04 DA 
  1582)     14767.2  Rx         0005  4  06 00 03 47 
  1583)     14767.6  Rx         0002  2  03 5A 
  1584)     14794.1  Rx         0005  4  05 FE 03 45 
  1585)     14794.4  Rx         0002  2  03 5A 
  1586)     14797.6  Rx         0010  8  03 1F 04 29 04 8D 04 DA 
  1587)     14833.2  Rx         0005  4  05 FC 03 45 
  1588)     14833.5  Rx         0002  2  03 5C 
  1589)     14833.5  Rx         0202  1  00 
  1590)     14834.5  Rx         0006  2  00 01 
  1591)     14834.7  Rx         0011  4  00 C0 00 1F 
  1592)     14834.9  Rx         0182  2  00 03 
  1593)     14835.0  Rx         0183  2  01 00 
  1594)     14861.2  Rx         0005  4  06 00 03 44 
  1595)     14861.7  Rx         0002  2  03 5C 
  1596)     14865.7  Rx         0010  8  03 01 04 05 04 90 04 D9 
  1597)     14903.2  Rx         0005  4  06 02 03 45 
  1598)     14903.4  Rx         0002  2  03 5A 
  1599)     14940.6  Rx         0005  4  05 FF 03 43 
  1600)     14941.1  Rx         0002  2  03 5A 
  1601)     14945.7  Rx         0010  8  02 E7 03 F3 04 91 04 DC 
  1602)     14987.2  Rx         0005  4  06 01 03 46 
  1603)     14987.6  Rx         0002  2  03 5A 
  1604)     14988.4  Rx         0202  1  00 
  1605)     14989.0  Rx         0006  2  00 01 
  1606)     14989.2  Rx         0011  4  00 C0 00 1F 
  1607)     14989.2  Rx         0182  2  00 03 
  1608)     14989.5  Rx         0183  2  01 00 
  1609)     15021.0  Rx         0005  4  06 00 03 45 
  1610)     15021.5  Rx         0002  2  03 5A 
  1611)     15023.7  Rx         0010  8  02 D3 03 DC 04 90 04 DC 
  1612)     15050.0  Rx         0005  4  05 FF 03 45 
  1613)     15050.4  Rx         0002  2  03 5A 
  1614)     15077.7  Rx         0005  4  06 00 03 45 
  1615)     15078.0  Rx         0002  2  03 5A 
  1616)     15080.8  Rx         0010  8  02 BE 03 C7 04 8E 04 DB 
  1617)     15112.6  Rx         0005  4  06 01 03 45 
  1618)     15115.1  Rx         0002  2  03 5A 
  1619)     15118.1  Rx         0202  1  00 
  1620)     15119.0  Rx         0006  2  00 01 
  1621)     15119.2  Rx         0011  4  00 C0 00 1F 
  1622)     15119.3  Rx         0182  2  00 03 
  1623)     15119.4  Rx         0183  2  01 00 
  1624)     15144.2  Rx         0005  4  05 FE 03 46 
  1625)     15144.8  Rx         0002  2  03 5A 
  1626)     15147.4  Rx         0010  8  02 B2 03 C0 04 8D 04 DA 
  1627)     15174.4  Rx         0005  4  05 FE 03 45 
  1628)     15174.9  Rx         0002  2  03 5A 
  1629)     15205.0  Rx         0010  8  02 AF 03 BE 04 8F 04 DA 
  1630)     15241.5  Rx         0005  4  05 FE 03 46 
  1631)     15242.2  Rx         0002  2  03 5A 
  1632)     15246.0  Rx         0202  1  00 
  1633)     15246.5  Rx         0006  2  00 01 
  1634)     15246.8  Rx         0011  4  00 C0 00 1F 
  1635)     15246.9  Rx         0182  2  00 03 
  1636)     15247.0  Rx         0183  2  01 00 
  1637)     15279.6  Rx         0005  4  05 FE 03 45 
  1638)     15280.1  Rx         0002  2  03 5A 
  1639)     15284.0  Rx         0010  8  02 B0 03 BE 04 8E 04 DA 
  1640)     15294.8  Tx         0202  1  00 
  1641)     15296.1  Rx         0006  2  00 01 
  1642)     15297.0  Rx         0011  4  00 C0 00 1F 
  1643)     15297.6  Rx         0182  2  00 03 
  1644)     15298.3  Rx         0183  2  01 00 
  1645)     15315.2  Rx         0005  4  06 00 03 46 
  1646)     15318.7  Rx         0002  2  03 5C 
  1647)     15352.5  Rx         0005  4  06 00 03 45 
  1648)     15353.1  Rx         0002  2  03 5C 
  1649)     15355.1  Rx         0010  8  02 B0 03 BF 04 8D 04 DB 
  1650)     15380.2  Rx         0005  4  06 01 03 45 
  1651)     15380.5  Rx         0002  2  03 5A 
  1652)     15383.0  Rx         0202  1  00 
  1653)     15383.7  Rx         0006  2  00 01 
  1654)     15383.9  Rx         0011  4  00 C0 00 1F 
  1655)     15384.1  Rx         0182  2  00 03 
  1656)     15384.2  Rx         0183  2  01 00 
  1657)     15407.1  Rx         0005  4  06 00 03 45 
  1658)     15407.8  Rx         0002  2  03 5A 
  1659)     15409.7  Rx         0010  8  02 AE 03 BD 04 90 04 D9 
  1660)     15437.2  Rx         0005  4  06 00 03 45 
  1661)     15437.6  Rx         0002  2  03 5A 
  1662)     15464.5  Rx         0005  4  06 01 03 45 
  1663)     15465.0  Rx         0002  2  03 5A 
  1664)     15467.3  Rx         0010  8  02 B0 03 BE 04 8F 04 D8 
  1665)     15495.8  Rx         0005  4  05 FE 03 46 
  1666)     15496.3  Rx         0002  2  03 5A 
  1667)     15499.5  Rx         0202  1  00 
  1668)     15500.1  Rx         0006  2  00 01 
  1669)     15500.3  Rx         0011  4  00 C0 00 1F 
  1670)     15500.4  Rx         0182  2  00 03 
  1671)     15500.6  Rx         0183  2  01 00 
  1672)     15523.7  Rx         0005  4  06 00 03 46 
  1673)     15524.1  Rx         0002  2  03 5A 
  1674)     15527.6  Rx         0010  8  02 AF 03 BD 04 8F 04 DC 
  1675)     15563.3  Rx         0005  4  05 FE 03 45 
  1676)     15563.9  Rx         0002  2  03 5A 
  1677)     15601.5  Rx         0005  4  06 00 03 46 
  1678)     15601.9  Rx         0002  2  03 5C 
  1679)     15610.2  Rx         0010  8  02 AF 03 BF 04 91 04 DA 
  1680)     15645.4  Rx         0005  4  06 01 03 45 
  1681)     15646.7  Rx         0002  2  03 5C 
  1682)     15652.1  Rx         0202  1  00 
  1683)     15652.9  Rx         0011  4  00 C0 00 1F 
  1684)     15653.1  Rx         0006  2  00 01 
  1685)     15653.3  Rx         0182  2  00 03 
  1686)     15653.3  Rx         0183  2  01 00 
  1687)     15678.0  Rx         0005  4  05 FF 03 45 
  1688)     15678.4  Rx         0002  2  03 5C 
  1689)     15680.4  Rx         0010  8  02 AF 03 BE 04 91 04 DD 
  1690)     15706.4  Rx         0005  4  06 00 03 45 
  1691)     15706.7  Rx         0002  2  03 5A 
  1692)     15733.6  Rx         0005  4  05 FF 03 43 
  1693)     15734.1  Rx         0002  2  03 5A 
  1694)     15736.1  Rx         0010  8  02 B0 03 BE 04 8F 04 DB 
  1695)     15771.8  Rx         0005  4  06 00 03 45 
  1696)     15772.1  Rx         0002  2  03 5A 
  1697)     15788.4  Rx         0202  1  00 
  1698)     15788.9  Rx         0006  2  00 01 
  1699)     15789.1  Rx         0011  4  00 C0 00 1F 
  1700)     15789.2  Rx         0182  2  00 03 
  1701)     15789.4  Rx         0183  2  01 00 
  1702)     15799.5  Rx         0005  4  05 FF 03 46 
  1703)     15800.6  Rx         0002  2  03 5A 
  1704)     15802.2  Rx         0010  8  02 AE 03 BF 04 8F 04 D7 
  1705)     15838.4  Rx         0005  4  05 FE 03 44 
  1706)     15838.8  Rx         0002  2  03 5A 
  1707)     15864.9  Rx         0005  4  05 FE 03 4B 
  1708)     15867.4  Rx         0002  2  03 5C 
  1709)     15869.1  Rx         0010  8  02 AD 03 BE 04 8D 04 D9 
  1710)     15904.8  Rx         0005  4  06 04 03 45 
  1711)     15906.7  Rx         0002  2  03 5C 
  1712)     15927.0  Rx         0202  1  00 
  1713)     15927.9  Rx         0006  2  00 01 
  1714)     15928.1  Rx         0011  4  00 C0 00 1F 
  1715)     15928.2  Rx         0182  2  00 03 
  1716)     15928.3  Rx         0183  2  01 00 
  1717)     15955.0  Rx         0005  4  06 00 03 45 
  1718)     15957.1  Rx         0002  2  03 5C 
  1719)     15958.5  Rx         0010  8  02 AC 03 BE 04 8E 04 D9 
  1720)     15985.8  Rx         0005  4  06 00 03 47 
  1721)     15986.3  Rx         0002  2  03 5C 
  1722)     16013.2  Rx         0005  4  05 FE 03 45 
  1723)     16013.6  Rx         0002  2  03 5C 
  1724)     16015.3  Rx         0010  8  02 AD 03 BD 04 8F 04 DA 
  1725)     16039.6  Rx         0005  4  06 00 03 46 
  1726)     16040.0  Rx         0002  2  03 5C 
  1727)     16057.1  Rx         0202  1  00 
  1728)     16057.7  Rx         0006  2  00 01 
  1729)     16057.8  Rx         0011  4  00 C0 00 1F 
  1730)     16057.9  Rx         0182  2  00 03 
  1731)     16058.1  Rx         0183  2  01 00 
  1732)     16078.8  Rx         0005  4  05 FE 03 45 
  1733)     16079.2  Rx         0002  2  03 5C 
  1734)     16080.7  Rx         0010  8  02 AC 03 BF 04 8F 04 DA 
  1735)     16118.5  Rx         0005  4  06 00 03 45 
  1736)     16119.3  Rx         0002  2  03 5C 
  1737)     16147.9  Rx         0010  8  02 AA 03 C1 04 90 04 DB 
  1738)     16176.8  Rx         0005  4  05 FE 03 4E 
  1739)     16177.3  Rx         0002  2  03 5E 
  1740)     16195.2  Rx         0202  1  00 
  1741)     16196.0  Rx         0006  2  00 01 
  1742)     16196.2  Rx         0011  4  00 C0 00 1F 
  1743)     16196.5  Rx         0182  2  00 03 
  1744)     16196.7  Rx         0183  2  01 00 
  1745)     16216.7  Rx         0005  4  05 FD 03 4F 
  1746)     16217.1  Rx         0002  2  03 5F 
  1747)     16219.1  Rx         0010  8  02 AB 03 C1 04 90 04 D9 
  1748)     16265.1  Rx         0005  4  06 00 03 4E 
  1749)     16265.6  Rx         0002  2  03 63 
  1750)     16294.1  Tx         0202  1  00 
  1751)     16294.3  Rx         0006  2  00 01 
  1752)     16294.5  Rx         0011  4  00 C0 00 1F 
  1753)     16294.6  Rx         0182  2  00 03 
  1754)     16294.7  Rx         0183  2  01 00 
  1755)     16304.0  Rx         0005  4  05 FE 03 4E 
  1756)     16304.6  Rx         0002  2  03 65 
  1757)     16337.5  Rx         0005  4  06 00 03 4E 
  1758)     16338.0  Rx         0002  2  03 68 
  1759)     16357.3  Rx         0202  1  00 
  1760)     16357.9  Rx         0006  2  00 01 
  1761)     16358.1  Rx         0011  4  00 C0 00 1F 
  1762)     16358.3  Rx         0182  2  00 03 
  1763)     16358.5  Rx         0183  2  01 00 
  1764)     16379.1  Rx         0005  4  06 00 03 50 
  1765)     16379.8  Rx         0002  2  03 6A 
  1766)     16380.9  Rx         0010  8  02 AD 03 BF 04 8E 04 D9 
  1767)     16405.7  Rx         0005  4  06 01 03 4F 
  1768)     16406.1  Rx         0002  2  03 6B 
  1769)     16433.4  Rx         0005  4  05 FE 03 4F 
  1770)     16433.9  Rx         0002  2  03 6B 
  1771)     16435.3  Rx         0010  8  02 AE 03 C1 04 8F 04 D8 
  1772)     16463.4  Rx         0005  4  06 00 03 4F 
  1773)     16464.4  Rx         0002  2  03 6B 
  1774)     16483.3  Rx         0202  1  00 
  1775)     16484.4  Rx         0006  2  00 01 
  1776)     16484.5  Rx         0011  4  00 C0 00 1F 
  1777)     16484.6  Rx         0182  2  00 03 
  1778)     16484.7  Rx         0183  2  01 00 
  1779)     16500.3  Rx         0005  4  05 FC 03 4E 
  1780)     16502.3  Rx         0002  2  03 6B 
  1781)     16503.7  Rx         0010  8  02 B6 03 CE 04 90 04 D9 
  1782)     16532.3  Rx         0005  4  05 FC 03 50 
  1783)     16532.9  Rx         0002  2  03 6B 
  1784)     16560.5  Rx         0005  4  06 00 03 50 
  1785)     16561.0  Rx         0002  2  03 6B 
  1786)     16563.7  Rx         0010  8  02 BB 03 CE 04 8E 04 DB 
  1787)     16600.8  Rx         0005  4  06 00 03 4E 
  1788)     16601.1  Rx         0002  2  03 6B 
  1789)     16627.4  Rx         0202  1  00 
  1790)     16628.8  Rx         0011  4  00 C0 00 1F 
  1791)     16629.1  Rx         0006  2  00 01 
  1792)     16629.1  Rx         0182  2  00 03 
  1793)     16629.3  Rx         0183  2  01 00 
  1794)     16644.5  Rx         0005  4  05 FF 03 4E 
  1795)     16647.9  Rx         0002  2  03 6B 
  1796)     16652.9  Rx         0010  8  02 BE 03 CF 04 92 04 DC 
  1797)     16680.3  Rx         0005  4  05 FD 03 4D 
  1798)     16680.9  Rx         0002  2  03 6A 
  1799)     16707.4  Rx         0005  4  06 00 03 4F 
  1800)     16708.0  Rx         0002  2  03 6B 
  1801)     16709.0  Rx         0010  8  02 BC 03 CE 04 91 04 DD 
  1802)     16736.5  Rx         0005  4  06 00 03 58 
  1803)     16737.6  Rx         0002  2  03 6D 
  1804)     16758.1  Rx         0202  1  00 
  1805)     16758.9  Rx         0006  2  00 01 
  1806)     16759.2  Rx         0011  4  00 C0 00 1F 
  1807)     16759.4  Rx         0182  2  00 03 
  1808)     16759.5  Rx         0183  2  01 00 
  1809)     16765.7  Rx         0005  4  05 FE 03 7A 
  1810)     16768.7  Rx         0002  2  03 79 
  1811)     16774.6  Rx         0010  8  02 BF 03 CC 04 8F 04 DA 
  1812)     16804.8  Rx         0005  4  05 FF 03 A6 
  1813)     16805.3  Rx         0002  2  03 93 
  1814)     16832.2  Rx         0005  4  05 FF 03 E7 
  1815)     16832.7  Rx         0002  2  03 BE 
  1816)     16833.8  Rx         0010  8  02 BC 03 CE 04 90 04 DA 
  1817)     16863.4  Rx         0005  4  05 FF 04 29 
  1818)     16864.0  Rx         0002  2  03 FE 
  1819)     16885.8  Rx         0202  1  00 
  1820)     16886.3  Rx         0006  2  00 01 
  1821)     16886.4  Rx         0011  4  00 C0 00 1F 
  1822)     16886.6  Rx         0182  2  00 03 
  1823)     16886.8  Rx         0183  2  01 00 
  1824)     16893.6  Rx         0005  4  06 00 04 6F 
  1825)     16894.9  Rx         0002  2  04 50 
  1826)     16899.5  Rx         0010  8  02 C2 03 D3 04 8F 04 DB 
  1827)     16940.4  Rx         0005  4  05 FD 04 BA 
  1828)     16940.9  Rx         0002  2  04 B6 
  1829)     16979.0  Rx         0005  4  05 FF 04 FF 
  1830)     16979.5  Rx         0002  2  05 25 
  1831)     16982.1  Rx         0010  8  02 CF 03 E3 04 8C 04 D9 
  1832)     17014.7  Rx         0005  4  05 FD 05 36 
  1833)     17015.5  Rx         0002  2  05 97 
  1834)     17040.8  Rx         0202  1  00 
  1835)     17041.7  Rx         0006  2  00 01 
  1836)     17041.9  Rx         0011  4  00 C0 00 1F 
  1837)     17042.0  Rx         0182  2  00 03 
  1838)     17042.2  Rx         0183  2  01 00 
  1839)     17045.8  Rx         0005  4  06 00 05 5D 
  1840)     17046.2  Rx         0002  2  06 03 
  1841)     17047.2  Rx         0010  8  02 F1 04 05 04 90 04 DA 
  1842)     17088.9  Rx         0005  4  05 FE 05 77 
  1843)     17089.4  Rx         0002  2  06 62 
  1844)     17117.1  Rx         0010  8  03 21 04 34 04 8F 04 D9 
  1845)     17146.6  Rx         0005  4  05 FF 05 77 
  1846)     17146.9  Rx         0002  2  06 AE 
  1847)     17169.8  Rx         0202  1  00 
  1848)     17170.5  Rx         0006  2  00 01 
  1849)     17170.7  Rx         0011  4  00 C0 00 1F 
  1850)     17170.9  Rx         0182  2  00 03 
  1851)     17170.9  Rx         0183  2  01 00 
  1852)     17174.1  Rx         0005  4  05 FC 05 80 
  1853)     17174.7  Rx         0002  2  06 E6 
  1854)     17175.4  Rx         0010  8  03 56 04 73 04 8E 04 D7 
  1855)     17204.5  Rx         0005  4  05 FC 05 7C 
  1856)     17204.9  Rx         0002  2  07 0A 
  1857)     17232.9  Rx         0005  4  05 FB 05 96 
  1858)     17235.4  Rx         0002  2  07 26 
  1859)     17236.0  Rx         0010  8  03 8A 04 A4 04 90 04 DC 
  1860)     17274.9  Rx         0005  4  05 FE 05 B0 
  1861)     17276.9  Rx         0002  2  07 3E 
  1862)     17294.7  Tx         0202  1  00 
  1863)     17295.4  Rx         0006  2  00 01 
  1864)     17296.3  Rx         0011  4  00 C0 00 1F 
  1865)     17297.0  Rx         0182  2  00 03 
  1866)     17297.6  Rx         0183  2  01 00 
  1867)     17309.2  Rx         0202  1  00 
  1868)     17310.5  Rx         0006  2  00 01 
  1869)     17311.1  Rx         0011  4  00 C0 00 1F 
  1870)     17311.3  Rx         0182  2  00 03 
  1871)     17311.3  Rx         0183  2  01 00 
  1872)     17314.6  Rx         0005  4  05 FC 05 CC 
  1873)     17316.0  Rx         0002  2  07 56 
  1874)     17316.4  Rx         0010  8  03 C0 04 D4 04 91 04 D9 
  1875)     17347.0  Rx         0005  4  05 FC 05 E6 
  1876)     17347.4  Rx         0002  2  07 77 
  1877)     17374.8  Rx         0005  4  05 FD 05 E3 
  1878)     17375.2  Rx         0002  2  07 92 
  1879)     17375.8  Rx         0010  8  03 F5 05 06 04 8D 04 D8 
  1880)     17404.1  Rx         0005  4  05 FF 05 E4 
  1881)     17404.7  Rx         0002  2  07 B0 
  1882)     17429.8  Rx         0202  1  00 
  1883)     17430.4  Rx         0006  2  00 01 
  1884)     17430.5  Rx         0011  4  00 C0 00 1F 
  1885)     17430.7  Rx         0182  2  00 03 
  1886)     17430.9  Rx         0183  2  01 00 
  1887)     17432.2  Rx         0005  4  06 01 05 E3 
  1888)     17432.6  Rx         0002  2  07 C6 
  1889)     17433.1  Rx         0010  8  04 2D 05 3B 04 8F 04 DB 
  1890)     17462.4  Rx         0005  4  05 FF 05 E9 
  1891)     17462.9  Rx         0002  2  07 D7 
  1892)     17489.4  Rx         0005  4  05 FE 05 E6 
  1893)     17489.9  Rx         0002  2  07 DE 
  1894)     17490.4  Rx         0010  8  04 6D 05 6D 04 8F 04 DA 
  1895)     17520.5  Rx         0005  4  06 00 05 E5 
  1896)     17521.0  Rx         0002  2  07 DE 
  1897)     17546.1  Rx         0202  1  00 
  1898)     17546.9  Rx         0006  2  00 01 
  1899)     17547.0  Rx         0011  4  00 C0 00 1F 
  1900)     17547.1  Rx         0182  2  00 03 
  1901)     17547.2  Rx         0183  2  01 00 
  1902)     17549.7  Rx         0005  4  05 FE 05 E3 
  1903)     17550.6  Rx         0002  2  07 DE 
  1904)     17550.6  Rx         0010  8  04 A1 05 A3 04 8F 04 DC 
  1905)     17590.5  Rx         0005  4  05 FD 05 E6 
  1906)     17590.9  Rx         0002  2  07 DE 
  1907)     17628.0  Rx         0005  4  05 FF 05 E4 
  1908)     17628.1  Rx         0002  2  07 E0 
  1909)     17628.6  Rx         0010  8  04 CE 05 D6 04 90 04 DC 
  1910)     17661.7  Rx         0005  4  05 FF 05 E3 
  1911)     17662.7  Rx         0002  2  07 DC 
  1912)     17702.9  Rx         0202  1  00 
  1913)     17703.5  Rx         0005  4  06 04 05 E3 
  1914)     17703.7  Rx         0006  2  00 01 
  1915)     17703.9  Rx         0002  2  07 DC 
  1916)     17703.9  Rx         0011  4  00 C0 00 1F 
  1917)     17704.2  Rx         0182  2  00 03 
  1918)     17704.5  Rx         0183  2  01 00 
  1919)     17704.7  Rx         0010  8  04 FB 06 05 04 8F 04 DA 
  1920)     17733.2  Rx         0005  4  05 FB 05 E6 
  1921)     17733.4  Rx         0002  2  07 DC 
