;$FILEVERSION=1.1
;$STARTTIME=41950.3881027546
;
;   C:\Documents and Settings\Administrator\Desktop\11_07_2014.trc
;
;   Start time: 11/7/2014 09:18:52.078.x
;
;   Message Number
;   |         Time Offset (ms)
;   |         |        Type
;   |         |        |        ID (hex)
;   |         |        |        |     Data Length Code
;   |         |        |        |     |   Data Bytes (hex) ...
;   |         |        |        |     |   |
;---+--   ----+----  --+--  ----+---  +  -+ -- -- -- -- -- -- --
     1)        13.1  Rx         0005  4  05 FC 05 F9 
     2)        16.5  Rx         0002  2  07 EA 
     3)        36.7  Rx         0010  8  04 BF 06 34 04 E4 05 2F 
     4)       113.6  Rx         0005  4  05 FD 05 FE 
     5)       116.1  Rx         0002  2  07 EA 
     6)       214.0  Rx         0005  4  05 FE 05 FC 
     7)       217.6  Rx         0002  2  07 EA 
     8)       237.2  Rx         0010  8  04 BD 06 2F 04 E4 05 33 
     9)       314.5  Rx         0005  4  05 FF 05 FE 
    10)       317.2  Rx         0002  2  07 EC 
    11)       415.0  Rx         0005  4  05 FA 05 FF 
    12)       418.8  Rx         0002  2  07 EC 
    13)       437.8  Rx         0010  8  04 BD 06 31 04 E4 05 32 
    14)       515.4  Rx         0005  4  05 FB 05 FB 
    15)       518.4  Rx         0002  2  07 EC 
    16)       561.4  Tx         0202  1  00 
    17)       562.6  Rx         0006  2  00 01 
    18)       563.5  Rx         0011  4  00 D2 00 10 
    19)       564.2  Rx         0182  2  00 14 
    20)       564.8  Rx         0183  2  01 14 
    21)       615.9  Rx         0005  4  05 F9 05 F8 
    22)       618.0  Rx         0002  2  07 EC 
    23)       638.4  Rx         0010  8  04 BD 06 32 04 E5 05 31 
    24)       716.4  Rx         0005  4  05 FF 05 FD 
    25)       719.6  Rx         0002  2  07 EC 
    26)       816.9  Rx         0005  4  05 FA 05 F9 
    27)       819.2  Rx         0002  2  07 EC 
    28)       839.0  Rx         0010  8  04 BE 06 32 04 E4 05 2F 
    29)       917.3  Rx         0005  4  05 FA 05 F5 
    30)       920.8  Rx         0002  2  07 EA 
    31)      1017.8  Rx         0005  4  06 02 05 FE 
    32)      1020.4  Rx         0002  2  07 EC 
    33)      1039.7  Rx         0010  8  04 BD 06 31 04 E4 05 2F 
    34)      1118.3  Rx         0005  4  05 FA 05 FC 
    35)      1122.0  Rx         0002  2  07 EC 
    36)      1218.8  Rx         0005  4  05 FE 05 FE 
    37)      1221.6  Rx         0002  2  07 ED 
    38)      1240.2  Rx         0010  8  04 BD 06 2F 04 E3 05 32 
    39)      1319.2  Rx         0005  4  05 FC 05 F6 
    40)      1321.2  Rx         0002  2  07 EC 
    41)      1419.7  Rx         0005  4  05 FA 05 FA 
    42)      1422.8  Rx         0002  2  07 EC 
    43)      1440.8  Rx         0010  8  04 BE 06 33 04 E3 05 2F 
    44)      1520.2  Rx         0005  4  05 FC 05 FD 
    45)      1522.4  Rx         0002  2  07 ED 
    46)      1561.4  Tx         0202  1  00 
    47)      1562.7  Rx         0006  2  00 01 
    48)      1563.5  Rx         0011  4  00 D2 00 10 
    49)      1564.2  Rx         0182  2  00 14 
    50)      1564.9  Rx         0183  2  01 14 
    51)      1620.7  Rx         0005  4  05 FE 05 FC 
    52)      1624.0  Rx         0002  2  07 EC 
    53)      1641.4  Rx         0010  8  04 BF 06 30 04 E2 05 2F 
    54)      1721.2  Rx         0005  4  05 F6 05 FA 
    55)      1723.6  Rx         0002  2  07 EA 
    56)      1821.6  Rx         0005  4  05 F8 05 F8 
    57)      1825.1  Rx         0002  2  07 E8 
    58)      1842.0  Rx         0010  8  04 C0 06 33 04 E6 05 31 
    59)      1922.1  Rx         0005  4  05 FE 05 F9 
    60)      1924.8  Rx         0002  2  07 EA 
    61)      2022.6  Rx         0005  4  05 FC 05 F9 
    62)      2026.3  Rx         0002  2  07 EA 
    63)      2042.6  Rx         0010  8  04 BD 06 2E 04 E3 05 30 
    64)      2123.1  Rx         0005  4  05 FD 05 FE 
    65)      2125.9  Rx         0002  2  07 EA 
    66)      2223.6  Rx         0005  4  05 FA 05 FA 
    67)      2227.5  Rx         0002  2  07 E8 
    68)      2243.2  Rx         0010  8  04 C1 06 33 04 E3 05 30 
    69)      2324.0  Rx         0005  4  05 FC 05 FC 
    70)      2327.1  Rx         0002  2  07 EC 
    71)      2424.5  Rx         0005  4  05 FB 05 FF 
    72)      2426.7  Rx         0002  2  07 EC 
    73)      2443.8  Rx         0010  8  04 BF 06 32 04 E6 05 32 
    74)      2525.0  Rx         0005  4  05 F9 05 FB 
    75)      2528.3  Rx         0002  2  07 EA 
    76)      2561.5  Tx         0202  1  00 
    77)      2562.8  Rx         0006  2  00 01 
    78)      2563.6  Rx         0011  4  00 D2 00 10 
    79)      2564.3  Rx         0182  2  00 14 
    80)      2564.9  Rx         0183  2  01 14 
    81)      2625.5  Rx         0005  4  05 F8 05 FB 
    82)      2627.9  Rx         0002  2  07 E8 
    83)      2644.4  Rx         0010  8  04 BF 06 35 04 E3 05 2E 
    84)      2725.9  Rx         0005  4  05 FD 05 FD 
    85)      2729.5  Rx         0002  2  07 E8 
    86)      2826.4  Rx         0005  4  06 00 05 FA 
    87)      2829.1  Rx         0002  2  07 EC 
    88)      2845.0  Rx         0010  8  04 BD 06 34 04 E5 05 2F 
    89)      2926.9  Rx         0005  4  05 FC 05 FB 
    90)      2930.7  Rx         0002  2  07 EC 
    91)      3027.4  Rx         0005  4  05 FD 05 FB 
    92)      3030.3  Rx         0002  2  07 EC 
    93)      3045.6  Rx         0010  8  04 BD 06 31 04 E6 05 31 
    94)      3127.9  Rx         0005  4  05 F9 05 F9 
    95)      3129.9  Rx         0002  2  07 EC 
    96)      3228.3  Rx         0005  4  06 04 05 FF 
    97)      3231.5  Rx         0002  2  07 EF 
    98)      3246.2  Rx         0010  8  04 BE 06 34 04 E5 05 2E 
    99)      3328.8  Rx         0005  4  05 FE 05 FA 
   100)      3331.1  Rx         0002  2  07 EF 
   101)      3429.2  Rx         0005  4  05 FB 05 FA 
   102)      3432.7  Rx         0002  2  07 ED 
   103)      3446.8  Rx         0010  8  04 C2 06 2E 04 E0 05 33 
   104)      3529.7  Rx         0005  4  05 FC 05 FB 
   105)      3532.3  Rx         0002  2  07 ED 
   106)      3561.5  Tx         0202  1  00 
   107)      3562.8  Rx         0006  2  00 01 
   108)      3563.6  Rx         0011  4  00 D2 00 10 
   109)      3564.3  Rx         0182  2  00 14 
   110)      3565.0  Rx         0183  2  01 14 
   111)      3630.2  Rx         0005  4  05 FB 05 FE 
   112)      3633.8  Rx         0002  2  07 ED 
   113)      3647.4  Rx         0010  8  04 BF 06 2F 04 E4 05 33 
   114)      3730.7  Rx         0005  4  05 FB 05 F9 
   115)      3733.5  Rx         0002  2  07 ED 
   116)      3831.1  Rx         0005  4  05 FA 05 F9 
   117)      3835.0  Rx         0002  2  07 EC 
   118)      3847.9  Rx         0010  8  04 BD 06 31 04 E4 05 31 
   119)      3931.6  Rx         0005  4  05 FA 05 F9 
   120)      3934.6  Rx         0002  2  07 EA 
   121)      4032.1  Rx         0005  4  05 FC 05 F8 
   122)      4034.3  Rx         0002  2  07 EA 
   123)      4048.5  Rx         0010  8  04 C1 06 31 04 E2 05 31 
   124)      4132.5  Rx         0005  4  05 FB 05 F8 
   125)      4135.8  Rx         0002  2  07 EA 
   126)      4233.0  Rx         0005  4  05 FF 05 F9 
   127)      4235.4  Rx         0002  2  07 EC 
   128)      4249.1  Rx         0010  8  04 BF 06 32 04 E2 05 2F 
   129)      4333.5  Rx         0005  4  05 FE 05 F5 
   130)      4337.0  Rx         0002  2  07 EC 
   131)      4434.0  Rx         0005  4  05 FA 05 F9 
   132)      4436.6  Rx         0002  2  07 EC 
   133)      4449.7  Rx         0010  8  04 BC 06 2C 04 E2 05 30 
   134)      4534.5  Rx         0005  4  05 F8 05 FB 
   135)      4538.2  Rx         0002  2  07 EC 
   136)      4561.6  Tx         0202  1  00 
   137)      4562.9  Rx         0006  2  00 01 
   138)      4563.7  Rx         0011  4  00 D2 00 10 
   139)      4564.4  Rx         0182  2  00 14 
   140)      4565.0  Rx         0183  2  01 14 
   141)      4634.9  Rx         0005  4  05 FD 05 FD 
   142)      4637.8  Rx         0002  2  07 EC 
   143)      4650.3  Rx         0010  8  04 BF 06 33 04 E7 05 31 
   144)      4735.4  Rx         0005  4  06 01 06 10 
   145)      4737.4  Rx         0002  2  07 ED 
   146)      4835.8  Rx         0005  4  05 FD 06 45 
   147)      4839.0  Rx         0002  2  07 EC 
   148)      4850.9  Rx         0010  8  04 BD 06 2D 04 E5 05 31 
   149)      4936.3  Rx         0005  4  05 F7 06 8B 
   150)      4938.6  Rx         0002  2  07 EA 
   151)      5036.8  Rx         0005  4  05 F9 06 F8 
   152)      5040.2  Rx         0002  2  07 EA 
   153)      5051.5  Rx         0010  8  04 BD 06 32 04 E4 05 31 
   154)      5137.3  Rx         0005  4  05 FC 07 5E 
   155)      5139.8  Rx         0002  2  07 EC 
   156)      5237.8  Rx         0005  4  05 FE 07 C1 
   157)      5241.4  Rx         0002  2  07 EC 
   158)      5252.1  Rx         0010  8  04 BF 06 32 04 E4 05 31 
   159)      5338.2  Rx         0005  4  05 FE 08 03 
   160)      5341.0  Rx         0002  2  07 EC 
   161)      5438.7  Rx         0005  4  05 F8 08 4E 
   162)      5442.5  Rx         0002  2  07 EA 
   163)      5452.7  Rx         0010  8  04 BE 06 32 04 E5 05 30 
   164)      5539.1  Rx         0005  4  05 FD 08 7C 
   165)      5542.2  Rx         0002  2  07 EC 
   166)      5561.7  Tx         0202  1  00 
   167)      5562.9  Rx         0006  2  00 01 
   168)      5563.8  Rx         0011  4  00 D2 00 10 
   169)      5564.4  Rx         0182  2  00 14 
   170)      5565.1  Rx         0183  2  01 14 
   171)      5639.6  Rx         0005  4  05 F9 08 AE 
   172)      5641.8  Rx         0002  2  07 EC 
   173)      5653.3  Rx         0010  8  04 BE 06 32 04 E1 05 30 
   174)      5740.1  Rx         0005  4  05 FE 08 D2 
   175)      5743.3  Rx         0002  2  07 EC 
   176)      5840.6  Rx         0005  4  05 FE 09 06 
   177)      5842.9  Rx         0002  2  07 EC 
   178)      5853.8  Rx         0010  8  04 BD 06 31 04 E4 05 30 
   179)      5941.0  Rx         0005  4  05 FE 09 37 
   180)      5944.5  Rx         0002  2  07 EC 
   181)      6041.5  Rx         0005  4  05 FE 09 4D 
   182)      6044.1  Rx         0002  2  07 ED 
   183)      6054.5  Rx         0010  8  04 BE 06 30 04 E5 05 32 
   184)      6142.0  Rx         0005  4  05 FB 09 71 
   185)      6145.7  Rx         0002  2  07 ED 
   186)      6242.4  Rx         0005  4  05 F7 09 8E 
   187)      6245.3  Rx         0002  2  07 EC 
   188)      6255.1  Rx         0010  8  04 BF 06 32 04 E3 05 30 
   189)      6342.9  Rx         0005  4  06 00 09 AD 
   190)      6344.9  Rx         0002  2  07 ED 
   191)      6443.4  Rx         0005  4  05 FD 09 D2 
   192)      6446.5  Rx         0002  2  07 EC 
   193)      6455.6  Rx         0010  8  04 BC 06 33 04 E6 05 30 
   194)      6543.9  Rx         0005  4  05 F7 09 F4 
   195)      6546.1  Rx         0002  2  07 EA 
   196)      6561.7  Tx         0202  1  00 
   197)      6563.0  Rx         0006  2  00 01 
   198)      6563.8  Rx         0011  4  00 D2 00 10 
   199)      6564.5  Rx         0182  2  00 14 
   200)      6565.2  Rx         0183  2  01 14 
   201)      6644.3  Rx         0005  4  05 F9 0A 24 
   202)      6647.7  Rx         0002  2  07 E8 
   203)      6656.2  Rx         0010  8  04 BE 06 31 04 E5 05 31 
   204)      6744.8  Rx         0005  4  05 FF 0A 56 
   205)      6747.3  Rx         0002  2  07 EA 
   206)      6845.3  Rx         0005  4  05 FD 0A 82 
   207)      6848.9  Rx         0002  2  07 EC 
   208)      6856.8  Rx         0010  8  04 BB 06 2F 04 E7 05 32 
   209)      6945.8  Rx         0005  4  05 FF 0A 88 
   210)      6948.5  Rx         0002  2  07 EC 
   211)      7046.2  Rx         0005  4  05 FB 0A 84 
   212)      7050.1  Rx         0002  2  07 EC 
   213)      7057.4  Rx         0010  8  04 BF 06 32 04 E4 05 30 
   214)      7146.7  Rx         0005  4  05 FB 0A 80 
   215)      7149.7  Rx         0002  2  07 EC 
   216)      7247.2  Rx         0005  4  05 FF 0A 7D 
   217)      7249.3  Rx         0002  2  07 ED 
   218)      7258.0  Rx         0010  8  04 BF 06 35 04 E4 05 2F 
   219)      7347.7  Rx         0005  4  05 FD 0A 8B 
   220)      7350.8  Rx         0002  2  07 ED 
   221)      7448.2  Rx         0005  4  05 FD 0A 82 
   222)      7450.5  Rx         0002  2  07 ED 
   223)      7458.6  Rx         0010  8  04 BF 06 34 04 E4 05 2F 
   224)      7548.6  Rx         0005  4  05 FD 0A 8B 
   225)      7552.0  Rx         0002  2  07 ED 
   226)      7561.8  Tx         0202  1  00 
   227)      7563.0  Rx         0006  2  00 01 
   228)      7563.9  Rx         0011  4  00 D2 00 10 
   229)      7564.6  Rx         0182  2  00 14 
   230)      7565.2  Rx         0183  2  01 14 
   231)      7649.1  Rx         0005  4  05 FC 0A 83 
   232)      7651.6  Rx         0002  2  07 ED 
   233)      7659.2  Rx         0010  8  04 C0 06 31 04 E3 05 31 
   234)      7749.5  Rx         0005  4  05 F9 0A 81 
   235)      7753.2  Rx         0002  2  07 EC 
   236)      7850.0  Rx         0005  4  06 01 0A 71 
   237)      7852.8  Rx         0002  2  07 ED 
   238)      7859.8  Rx         0010  8  04 BF 06 32 04 E3 05 30 
   239)      7950.5  Rx         0005  4  05 F8 0A 51 
   240)      7954.4  Rx         0002  2  07 EC 
   241)      8051.0  Rx         0005  4  05 FC 0A 11 
   242)      8054.0  Rx         0002  2  07 EC 
   243)      8060.3  Rx         0010  8  04 BF 06 34 04 E8 05 33 
   244)      8151.5  Rx         0005  4  05 FC 09 BA 
   245)      8153.6  Rx         0002  2  07 EC 
   246)      8251.9  Rx         0005  4  05 FC 09 3A 
   247)      8255.2  Rx         0002  2  07 EC 
   248)      8260.9  Rx         0010  8  04 BF 06 33 04 E6 05 31 
   249)      8352.4  Rx         0005  4  05 FD 08 7D 
   250)      8354.8  Rx         0002  2  07 EC 
   251)      8452.8  Rx         0005  4  06 00 07 83 
   252)      8456.4  Rx         0002  2  07 EC 
   253)      8461.5  Rx         0010  8  04 BD 06 32 04 E4 05 2F 
   254)      8553.3  Rx         0005  4  06 01 06 B6 
   255)      8556.0  Rx         0002  2  07 EF 
   256)      8561.8  Tx         0202  1  00 
   257)      8563.1  Rx         0006  2  00 01 
   258)      8563.9  Rx         0011  4  00 D2 00 10 
   259)      8564.6  Rx         0182  2  00 14 
   260)      8565.3  Rx         0183  2  01 14 
   261)      8653.8  Rx         0005  4  05 FB 06 1A 
   262)      8657.6  Rx         0002  2  07 EF 
   263)      8662.1  Rx         0010  8  04 C0 06 32 04 E3 05 2F 
   264)      8754.3  Rx         0005  4  05 FA 05 F0 
   265)      8757.2  Rx         0002  2  07 ED 
   266)      8854.7  Rx         0005  4  05 F8 05 F0 
   267)      8856.8  Rx         0002  2  07 EC 
   268)      8862.8  Rx         0010  8  04 BE 06 32 04 E4 05 2F 
   269)      8955.2  Rx         0005  4  05 FC 05 F2 
   270)      8958.4  Rx         0002  2  07 EC 
   271)      9055.7  Rx         0005  4  05 F8 05 F0 
   272)      9058.0  Rx         0002  2  07 EA 
   273)      9063.4  Rx         0010  8  04 BF 06 33 04 E4 05 2F 
   274)      9156.1  Rx         0005  4  06 01 05 F8 
   275)      9159.5  Rx         0002  2  07 EA 
   276)      9256.6  Rx         0005  4  05 FC 05 F5 
   277)      9259.2  Rx         0002  2  07 EA 
   278)      9263.9  Rx         0010  8  04 BD 06 32 04 E6 05 30 
   279)      9357.1  Rx         0005  4  05 FC 05 F3 
   280)      9360.7  Rx         0002  2  07 EC 
   281)      9457.6  Rx         0005  4  05 F9 05 F4 
   282)      9460.3  Rx         0002  2  07 EC 
   283)      9464.5  Rx         0010  8  04 BE 06 30 04 E4 05 32 
   284)      9558.0  Rx         0005  4  06 00 05 F8 
   285)      9561.9  Tx         0202  1  00 
   286)      9561.9  Rx         0002  2  07 EC 
   287)      9563.8  Rx         0006  2  00 01 
   288)      9564.7  Rx         0011  4  00 D2 00 10 
   289)      9565.3  Rx         0182  2  00 14 
   290)      9566.0  Rx         0183  2  01 14 
   291)      9658.5  Rx         0005  4  05 FE 05 EE 
   292)      9661.5  Rx         0002  2  07 ED 
   293)      9665.2  Rx         0010  8  04 BF 06 2F 04 E3 05 31 
   294)      9758.9  Rx         0005  4  05 F9 05 F1 
   295)      9761.1  Rx         0002  2  07 EC 
   296)      9859.4  Rx         0005  4  05 FC 05 EE 
   297)      9862.7  Rx         0002  2  07 EC 
   298)      9865.7  Rx         0010  8  04 BE 06 34 04 E4 05 2F 
   299)      9959.9  Rx         0005  4  05 FF 05 F0 
   300)      9962.3  Rx         0002  2  07 EC 
   301)     10060.4  Rx         0005  4  05 FB 05 F3 
   302)     10063.9  Rx         0002  2  07 ED 
   303)     10066.3  Rx         0010  8  04 BE 06 31 04 E4 05 32 
   304)     10160.8  Rx         0005  4  05 FB 05 F1 
   305)     10163.5  Rx         0002  2  07 EC 
   306)     10261.3  Rx         0005  4  05 F8 05 F4 
   307)     10265.1  Rx         0002  2  07 EA 
   308)     10266.9  Rx         0010  8  04 BC 06 34 04 E5 05 2E 
   309)     10361.8  Rx         0005  4  05 F8 05 F2 
   310)     10364.7  Rx         0002  2  07 EA 
   311)     10462.2  Rx         0005  4  05 FE 05 F5 
   312)     10464.3  Rx         0002  2  07 EA 
   313)     10467.6  Rx         0010  8  04 BE 06 31 04 E4 05 32 
   314)     10562.0  Tx         0202  1  00 
   315)     10562.7  Rx         0005  4  05 FE 05 F5 
   316)     10564.0  Rx         0006  2  00 01 
   317)     10564.8  Rx         0011  4  00 D2 00 10 
   318)     10565.5  Rx         0182  2  00 14 
   319)     10565.9  Rx         0002  2  07 EA 
   320)     10566.2  Rx         0183  2  01 14 
   321)     10663.2  Rx         0005  4  05 FB 05 F2 
   322)     10665.5  Rx         0002  2  07 EA 
   323)     10668.2  Rx         0010  8  04 BE 06 30 04 E2 05 2F 
   324)     10763.7  Rx         0005  4  05 FA 05 F0 
   325)     10767.1  Rx         0002  2  07 EA 
   326)     10864.2  Rx         0005  4  05 FB 05 E8 
   327)     10866.7  Rx         0002  2  07 EA 
   328)     10868.7  Rx         0010  8  04 BD 06 31 04 E5 05 32 
   329)     10964.7  Rx         0005  4  05 FB 05 EC 
   330)     10968.2  Rx         0002  2  07 EC 
   331)     11065.1  Rx         0005  4  05 FA 05 D8 
   332)     11067.9  Rx         0002  2  07 EA 
   333)     11069.7  Rx         0010  8  04 BF 06 2F 04 E6 05 31 
   334)     11165.6  Rx         0005  4  05 FC 05 84 
   335)     11169.4  Rx         0002  2  07 EA 
   336)     11266.1  Rx         0005  4  05 FF 04 E9 
   337)     11269.0  Rx         0002  2  07 EC 
   338)     11270.0  Rx         0010  8  04 BD 06 2F 04 E2 05 2F 
   339)     11366.6  Rx         0005  4  05 FF 04 93 
   340)     11368.7  Rx         0002  2  07 EC 
   341)     11467.0  Rx         0005  4  05 FC 04 8C 
   342)     11470.2  Rx         0002  2  07 EC 
   343)     11470.5  Rx         0010  8  04 BC 06 2E 04 E3 05 32 
   344)     11562.0  Tx         0202  1  00 
   345)     11563.3  Rx         0006  2  00 01 
   346)     11564.1  Rx         0011  4  00 D2 00 10 
   347)     11564.8  Rx         0182  2  00 14 
   348)     11565.5  Rx         0183  2  01 14 
   349)     11567.5  Rx         0005  4  05 FB 04 6F 
   350)     11573.7  Rx         0002  2  07 EC 
   351)     11668.0  Rx         0005  4  05 FE 03 FE 
   352)     11671.1  Rx         0010  8  04 BE 06 33 04 E4 05 2F 
   353)     11671.4  Rx         0002  2  07 ED 
   354)     11768.5  Rx         0005  4  05 FC 03 8B 
   355)     11771.0  Rx         0002  2  07 ED 
   356)     11868.9  Rx         0005  4  05 FF 03 6B 
   357)     11871.8  Rx         0010  8  04 C0 06 31 04 E3 05 2E 
   358)     11872.6  Rx         0002  2  07 ED 
   359)     11969.4  Rx         0005  4  05 FF 03 32 
   360)     11972.2  Rx         0002  2  07 ED 
   361)     12069.9  Rx         0005  4  06 00 02 B2 
   362)     12072.4  Rx         0010  8  04 BE 06 31 04 E5 05 30 
   363)     12073.8  Rx         0002  2  07 EF 
   364)     12170.4  Rx         0005  4  06 00 02 78 
   365)     12173.4  Rx         0002  2  07 F1 
   366)     12270.9  Rx         0005  4  05 FD 02 76 
   367)     12273.0  Rx         0010  8  04 C0 06 30 04 E3 05 31 
   368)     12273.0  Rx         0002  2  07 EF 
   369)     12371.3  Rx         0005  4  05 FA 02 76 
   370)     12374.6  Rx         0002  2  07 EF 
   371)     12471.8  Rx         0005  4  05 FA 02 82 
   372)     12473.6  Rx         0010  8  04 BF 06 33 04 E3 05 2F 
   373)     12474.2  Rx         0002  2  07 ED 
   374)     12560.1  Tx         0202  1  00 
   375)     12561.4  Rx         0006  2  00 01 
   376)     12562.2  Rx         0011  4  00 D2 00 10 
   377)     12562.9  Rx         0182  2  00 14 
   378)     12563.5  Rx         0183  2  01 14 
   379)     12572.3  Rx         0005  4  05 FC 02 9F 
   380)     12575.8  Rx         0002  2  07 ED 
   381)     12672.7  Rx         0005  4  05 FF 02 B6 
   382)     12674.2  Rx         0010  8  04 C0 06 32 04 E2 05 2F 
   383)     12675.4  Rx         0002  2  07 ED 
   384)     12773.2  Rx         0005  4  05 F8 02 CB 
   385)     12776.9  Rx         0002  2  07 EA 
   386)     12873.7  Rx         0005  4  05 FC 02 DD 
   387)     12874.9  Rx         0010  8  04 BE 06 30 04 E3 05 31 
   388)     12876.6  Rx         0002  2  07 EA 
   389)     12974.2  Rx         0005  4  05 FD 02 EE 
   390)     12978.1  Rx         0002  2  07 EC 
   391)     13074.7  Rx         0005  4  05 FF 02 F3 
   392)     13075.8  Rx         0010  8  04 BF 06 2E 04 E3 05 33 
   393)     13077.7  Rx         0002  2  07 EC 
   394)     13175.1  Rx         0005  4  05 FE 02 F6 
   395)     13177.4  Rx         0002  2  07 ED 
   396)     13275.9  Rx         0010  8  04 BE 06 31 04 E3 05 31 
   397)     13276.8  Rx         0005  4  05 F8 02 F2 
   398)     13280.9  Rx         0002  2  07 EC 
   399)     13376.1  Rx         0005  4  05 FF 03 01 
   400)     13378.5  Rx         0002  2  07 ED 
   401)     13476.5  Rx         0010  8  04 C0 06 31 04 E2 05 31 
   402)     13477.4  Rx         0005  4  05 FC 03 06 
   403)     13482.1  Rx         0002  2  07 ED 
   404)     13560.2  Tx         0202  1  00 
   405)     13561.4  Rx         0006  2  00 01 
   406)     13562.3  Rx         0011  4  00 D2 00 10 
   407)     13562.9  Rx         0182  2  00 14 
   408)     13563.6  Rx         0183  2  01 14 
   409)     13577.1  Rx         0005  4  05 F8 03 06 
   410)     13579.7  Rx         0002  2  07 EC 
   411)     13677.1  Rx         0010  8  04 BF 06 2E 04 E1 05 2D 
   412)     13677.9  Rx         0005  4  05 FA 03 16 
   413)     13681.3  Rx         0002  2  07 EA 
   414)     13778.0  Rx         0005  4  05 FD 03 22 
   415)     13780.9  Rx         0002  2  07 EA 
   416)     13877.7  Rx         0010  8  04 BC 06 32 04 E8 05 35 
   417)     13878.5  Rx         0005  4  05 FF 03 2A 
   418)     13882.5  Rx         0002  2  07 EC 
   419)     13978.9  Rx         0005  4  05 F9 03 32 
   420)     13982.1  Rx         0002  2  07 EA 
   421)     14078.2  Rx         0010  8  04 C2 06 35 04 E5 05 32 
   422)     14079.4  Rx         0005  4  05 FD 03 3E 
   423)     14083.7  Rx         0002  2  07 EA 
   424)     14179.9  Rx         0005  4  05 FC 03 4A 
   425)     14183.3  Rx         0002  2  07 EC 
   426)     14278.9  Rx         0010  8  04 C2 06 34 04 E5 05 30 
   427)     14280.3  Rx         0005  4  05 F9 03 53 
   428)     14282.9  Rx         0002  2  07 EC 
   429)     14380.8  Rx         0005  4  05 FB 03 5B 
   430)     14384.4  Rx         0002  2  07 EC 
   431)     14479.5  Rx         0010  8  04 BF 06 33 04 E6 05 34 
   432)     14481.2  Rx         0005  4  05 FA 03 5D 
   433)     14484.1  Rx         0002  2  07 EA 
   434)     14560.2  Tx         0202  1  00 
   435)     14561.5  Rx         0006  2  00 01 
   436)     14562.3  Rx         0011  4  00 D2 00 10 
   437)     14563.0  Rx         0182  2  00 14 
   438)     14563.7  Rx         0183  2  01 14 
   439)     14581.7  Rx         0005  4  05 FD 03 5F 
   440)     14583.7  Rx         0002  2  07 EA 
   441)     14680.1  Rx         0010  8  04 BF 06 32 04 E3 05 2E 
   442)     14682.2  Rx         0005  4  05 FE 03 5F 
   443)     14685.3  Rx         0002  2  07 EC 
   444)     14782.6  Rx         0005  4  05 FE 03 60 
   445)     14784.9  Rx         0002  2  07 EC 
   446)     14880.6  Rx         0010  8  04 BF 06 33 04 E3 05 30 
   447)     14883.1  Rx         0005  4  05 F7 03 5D 
   448)     14886.4  Rx         0002  2  07 EC 
   449)     14983.6  Rx         0005  4  06 02 03 60 
   450)     14986.0  Rx         0002  2  07 ED 
   451)     15081.3  Rx         0010  8  04 BD 06 2E 04 E6 05 31 
   452)     15084.1  Rx         0005  4  05 FD 03 5C 
   453)     15087.6  Rx         0002  2  07 ED 
   454)     15184.5  Rx         0005  4  06 01 03 63 
   455)     15187.2  Rx         0002  2  07 EF 
   456)     15281.9  Rx         0010  8  04 BE 06 33 04 E5 05 2F 
   457)     15285.0  Rx         0005  4  06 03 03 6A 
   458)     15288.8  Rx         0002  2  07 F1 
   459)     15385.5  Rx         0005  4  05 F9 03 6D 
   460)     15388.4  Rx         0002  2  07 EF 
   461)     15482.5  Rx         0010  8  04 C0 06 32 04 E3 05 30 
   462)     15485.9  Rx         0005  4  05 FB 03 6A 
   463)     15488.0  Rx         0002  2  07 EF 
   464)     15560.3  Tx         0202  1  00 
   465)     15561.5  Rx         0006  2  00 01 
   466)     15562.4  Rx         0011  4  00 D2 00 10 
   467)     15563.1  Rx         0182  2  00 14 
   468)     15563.7  Rx         0183  2  01 14 
   469)     15586.4  Rx         0005  4  05 FC 03 6C 
   470)     15589.6  Rx         0002  2  07 EF 
   471)     15683.0  Rx         0010  8  04 BD 06 31 04 E5 05 30 
   472)     15686.9  Rx         0005  4  05 FB 03 6C 
   473)     15689.2  Rx         0002  2  07 ED 
   474)     15787.3  Rx         0005  4  05 FA 03 69 
   475)     15790.8  Rx         0002  2  07 EC 
   476)     15883.6  Rx         0010  8  04 C2 06 34 04 E1 05 2F 
   477)     15887.8  Rx         0005  4  05 FF 03 6C 
   478)     15890.4  Rx         0002  2  07 EA 
   479)     15988.3  Rx         0005  4  05 FB 03 6A 
   480)     15992.0  Rx         0002  2  07 EC 
   481)     16084.2  Rx         0010  8  04 BD 06 30 04 E5 05 32 
   482)     16088.7  Rx         0005  4  05 FB 03 6C 
   483)     16091.6  Rx         0002  2  07 EC 
   484)     16189.2  Rx         0005  4  05 FE 03 6C 
   485)     16193.1  Rx         0002  2  07 EC 
   486)     16284.8  Rx         0010  8  04 C0 06 33 04 E3 05 2F 
   487)     16289.7  Rx         0005  4  05 FF 03 6B 
   488)     16292.8  Rx         0002  2  07 ED 
   489)     16390.2  Rx         0005  4  05 FB 03 69 
   490)     16392.4  Rx         0002  2  07 ED 
   491)     16485.4  Rx         0010  8  04 BE 06 30 04 E3 05 31 
   492)     16490.7  Rx         0005  4  05 F9 03 6A 
   493)     16493.9  Rx         0002  2  07 EC 
   494)     16560.3  Tx         0202  1  00 
   495)     16561.6  Rx         0006  2  00 01 
   496)     16562.4  Rx         0011  4  00 D2 00 10 
   497)     16563.1  Rx         0182  2  00 14 
   498)     16563.8  Rx         0183  2  01 14 
   499)     16591.1  Rx         0005  4  05 FF 03 69 
   500)     16593.6  Rx         0002  2  07 EC 
   501)     16686.0  Rx         0010  8  04 C0 06 30 04 E4 05 2E 
   502)     16691.6  Rx         0005  4  05 FC 03 6C 
   503)     16695.1  Rx         0002  2  07 ED 
   504)     16792.0  Rx         0005  4  05 FA 03 6A 
   505)     16794.7  Rx         0002  2  07 EC 
   506)     16886.6  Rx         0010  8  04 BD 06 32 04 E4 05 2E 
   507)     16892.5  Rx         0005  4  05 FE 03 75 
   508)     16896.3  Rx         0002  2  07 EC 
   509)     16993.0  Rx         0005  4  05 FF 03 7B 
   510)     16995.9  Rx         0002  2  07 EC 
   511)     17087.2  Rx         0010  8  04 BF 06 32 04 E6 05 32 
   512)     17093.5  Rx         0005  4  05 FB 03 7B 
   513)     17095.5  Rx         0002  2  07 ED 
   514)     17194.0  Rx         0005  4  05 FC 03 7C 
   515)     17197.1  Rx         0002  2  07 EC 
   516)     17287.8  Rx         0010  8  04 BE 06 31 04 E4 05 30 
   517)     17294.4  Rx         0005  4  05 F9 03 78 
   518)     17296.7  Rx         0002  2  07 EC 
   519)     17394.9  Rx         0005  4  05 FA 03 79 
   520)     17398.3  Rx         0002  2  07 EC 
   521)     17488.4  Rx         0010  8  04 C2 06 32 04 E3 05 2E 
   522)     17495.3  Rx         0005  4  06 00 03 7B 
   523)     17497.9  Rx         0002  2  07 EC 
   524)     17560.4  Tx         0202  1  00 
   525)     17561.7  Rx         0006  2  00 01 
   526)     17562.5  Rx         0011  4  00 D2 00 10 
   527)     17563.2  Rx         0182  2  00 14 
   528)     17563.8  Rx         0183  2  01 14 
   529)     17595.8  Rx         0005  4  05 F9 03 7C 
   530)     17599.5  Rx         0002  2  07 EA 
   531)     17689.0  Rx         0010  8  04 BC 06 31 04 E3 05 32 
   532)     17696.3  Rx         0005  4  05 FB 03 78 
   533)     17699.1  Rx         0002  2  07 EA 
   534)     17796.8  Rx         0005  4  05 F8 03 80 
   535)     17800.7  Rx         0002  2  07 E8 
   536)     17889.6  Rx         0010  8  04 BC 06 2E 04 E4 05 31 
   537)     17897.2  Rx         0005  4  05 FA 03 85 
   538)     17900.3  Rx         0002  2  07 EA 
