;$FILEVERSION=1.1
;$STARTTIME=41974.4886358796
;
;   C:\Documents and Settings\Administrator\Desktop\before start.trc
;
;   Start time: 12/1/2014 11:43:38.140.x
;
;   Message Number
;   |         Time Offset (ms)
;   |         |        Type
;   |         |        |        ID (hex)
;   |         |        |        |     Data Length Code
;   |         |        |        |     |   Data Bytes (hex) ...
;   |         |        |        |     |   |
;---+--   ----+----  --+--  ----+---  +  -+ -- -- -- -- -- -- --
     1)        13.0  Rx         0005  4  05 F6 05 EB 
     2)        13.4  Rx         0002  2  07 E5 
     3)        25.3  Rx         0202  1  01 
     4)        25.8  Rx         0006  2  00 01 
     5)        26.0  Rx         0011  4  00 C0 00 1F 
     6)        26.0  Rx         0182  2  00 10 
     7)        26.2  Rx         0183  2  01 14 
     8)        35.3  Rx         0010  8  05 6F 06 38 05 D6 05 DC 
     9)        38.8  Rx         0005  4  05 F8 05 EC 
    10)        39.2  Rx         0002  2  07 E5 
    11)        64.4  Rx         0005  4  05 FB 05 EB 
    12)        65.1  Rx         0002  2  07 E5 
    13)        80.8  Rx         0010  8  05 6E 06 34 05 D7 05 DB 
    14)        83.7  Rx         0005  4  05 F9 05 EC 
    15)        84.1  Rx         0002  2  07 E5 
    16)       104.3  Rx         0005  4  05 F6 05 EC 
    17)       104.8  Rx         0002  2  07 E5 
    18)       117.3  Rx         0202  1  01 
    19)       117.9  Rx         0006  2  00 01 
    20)       118.1  Rx         0011  4  00 C0 00 1F 
    21)       118.2  Rx         0182  2  00 10 
    22)       118.3  Rx         0183  2  01 14 
    23)       122.0  Rx         0010  8  05 6F 06 36 05 D8 05 DD 
    24)       127.8  Rx         0005  4  05 F7 05 EA 
    25)       128.2  Rx         0002  2  07 E5 
    26)       149.8  Rx         0005  4  05 F6 05 EA 
    27)       150.8  Rx         0002  2  07 E5 
    28)       168.1  Rx         0010  8  05 70 06 35 05 D6 05 DD 
    29)       172.3  Rx         0005  4  05 F6 05 EA 
    30)       172.8  Rx         0002  2  07 E5 
    31)       193.5  Rx         0005  4  05 F7 05 EC 
    32)       194.4  Rx         0002  2  07 E3 
    33)       206.6  Rx         0202  1  01 
    34)       207.1  Rx         0006  2  00 01 
    35)       207.4  Rx         0011  4  00 C0 00 1F 
    36)       207.5  Rx         0182  2  00 10 
    37)       207.6  Rx         0183  2  01 14 
    38)       210.4  Rx         0010  8  05 70 06 36 05 D9 05 DE 
    39)       215.0  Rx         0005  4  05 F6 05 EC 
    40)       215.6  Rx         0002  2  07 E1 
    41)       236.0  Rx         0005  4  05 F5 05 EA 
    42)       236.1  Rx         0002  2  07 E1 
    43)       250.7  Rx         0010  8  05 70 06 34 05 D4 05 DC 
    44)       254.4  Rx         0005  4  05 F7 05 EC 
    45)       255.2  Rx         0002  2  07 E1 
    46)       273.8  Rx         0005  4  05 F7 05 EC 
    47)       274.4  Rx         0002  2  07 E1 
    48)       293.3  Rx         0202  1  01 
    49)       293.8  Rx         0006  2  00 01 
    50)       294.0  Rx         0011  4  00 C0 00 1F 
    51)       294.1  Rx         0182  2  00 10 
    52)       294.3  Rx         0183  2  01 14 
    53)       296.1  Rx         0010  8  05 6F 06 35 05 D6 05 DD 
    54)       308.8  Rx         0005  4  05 F5 05 EA 
    55)       309.3  Rx         0002  2  07 E1 
    56)       338.5  Rx         0005  4  05 FC 05 EC 
    57)       339.0  Rx         0002  2  07 E3 
    58)       361.3  Rx         0010  8  05 6F 06 37 05 D8 05 DD 
    59)       372.4  Rx         0005  4  05 F6 05 EF 
    60)       374.2  Rx         0002  2  07 E3 
    61)       403.4  Rx         0005  4  05 F9 05 E7 
    62)       403.9  Rx         0002  2  07 E5 
    63)       425.5  Rx         0202  1  01 
    64)       426.1  Rx         0006  2  00 01 
    65)       426.4  Rx         0011  4  00 C0 00 1F 
    66)       426.4  Rx         0182  2  00 10 
    67)       426.6  Rx         0183  2  01 14 
    68)       427.5  Rx         0010  8  05 71 06 35 05 D6 05 DE 
    69)       440.9  Rx         0005  4  05 F6 05 EC 
    70)       443.0  Rx         0002  2  07 E5 
    71)       473.1  Rx         0005  4  05 F5 05 EB 
    72)       473.7  Rx         0002  2  07 E3 
    73)       496.5  Rx         0010  8  05 71 06 33 05 D7 05 DF 
    74)       503.6  Rx         0005  4  05 F8 05 EB 
    75)       506.1  Rx         0002  2  07 E5 
    76)       540.5  Rx         0005  4  05 F6 05 ED 
    77)       541.0  Rx         0002  2  07 E3 
    78)       563.6  Rx         0202  1  01 
    79)       564.5  Rx         0006  2  00 01 
    80)       565.0  Rx         0010  8  05 70 06 34 05 D5 05 D9 
    81)       565.2  Rx         0011  4  00 C0 00 1F 
    82)       565.4  Rx         0182  2  00 10 
    83)       565.5  Rx         0183  2  01 14 
    84)       570.1  Rx         0005  4  05 F7 05 EE 
    85)       573.0  Rx         0002  2  07 E3 
    86)       609.2  Rx         0005  4  05 FD 05 ED 
    87)       609.7  Rx         0002  2  07 E5 
    88)       632.4  Rx         0010  8  05 72 06 37 05 D8 05 DD 
    89)       635.8  Rx         0005  4  05 F8 05 E7 
    90)       638.7  Rx         0002  2  07 E5 
    91)       674.3  Rx         0005  4  05 F6 05 EB 
    92)       675.0  Rx         0002  2  07 E5 
    93)       697.6  Rx         0010  8  05 6E 06 38 05 D8 05 DF 
    94)       698.2  Rx         0202  1  01 
    95)       698.9  Rx         0006  2  00 01 
    96)       699.1  Rx         0011  4  00 C0 00 1F 
    97)       699.2  Rx         0182  2  00 10 
    98)       699.3  Rx         0183  2  01 14 
    99)       704.7  Rx         0005  4  05 FA 05 ED 
   100)       705.9  Rx         0002  2  07 E5 
   101)       742.4  Rx         0005  4  05 F8 05 EB 
   102)       742.8  Rx         0002  2  07 E6 
   103)       760.0  Tx         0202  1  00 
   104)       760.3  Rx         0006  2  00 01 
   105)       760.5  Rx         0011  4  00 C0 00 1F 
   106)       760.7  Rx         0182  2  00 10 
   107)       760.8  Rx         0183  2  01 14 
   108)       765.6  Rx         0010  8  05 6F 06 36 05 D5 05 DD 
   109)       771.1  Rx         0005  4  05 F9 05 EC 
   110)       771.6  Rx         0002  2  07 E6 
   111)       808.4  Rx         0005  4  05 F7 05 F0 
   112)       808.9  Rx         0002  2  07 E5 
   113)       831.4  Rx         0010  8  05 70 06 38 05 D5 05 D8 
   114)       832.5  Rx         0202  1  01 
   115)       833.1  Rx         0006  2  00 01 
   116)       833.3  Rx         0011  4  00 C0 00 1F 
   117)       833.4  Rx         0182  2  00 10 
   118)       833.6  Rx         0183  2  01 14 
   119)       835.7  Rx         0005  4  05 F6 05 E9 
   120)       836.2  Rx         0002  2  07 E5 
   121)       874.8  Rx         0005  4  05 FA 05 EB 
   122)       875.3  Rx         0002  2  07 E5 
   123)       899.0  Rx         0010  8  05 72 06 36 05 D4 05 DB 
   124)       902.3  Rx         0005  4  05 F7 05 EA 
   125)       902.7  Rx         0002  2  07 E5 
   126)       930.8  Rx         0005  4  05 F7 05 EA 
   127)       931.3  Rx         0002  2  07 E5 
   128)       953.6  Rx         0010  8  05 6E 06 35 05 D6 05 DD 
   129)       956.8  Rx         0202  1  01 
   130)       957.3  Rx         0006  2  00 01 
   131)       957.5  Rx         0011  4  00 C0 00 1F 
   132)       957.5  Rx         0182  2  00 10 
   133)       957.7  Rx         0183  2  01 14 
   134)       959.1  Rx         0005  4  05 F9 05 EA 
   135)       960.4  Rx         0002  2  07 E5 
   136)      1000.0  Rx         0005  4  05 F9 05 EC 
   137)      1000.4  Rx         0002  2  07 E5 
   138)      1022.5  Rx         0010  8  05 6E 06 35 05 D6 05 DB 
   139)      1029.3  Rx         0005  4  05 F5 05 ED 
   140)      1029.8  Rx         0002  2  07 E5 
   141)      1057.0  Rx         0005  4  05 F7 05 EA 
   142)      1057.4  Rx         0002  2  07 E3 
   143)      1077.1  Rx         0010  8  05 72 06 36 05 D6 05 DC 
   144)      1084.9  Rx         0202  1  01 
   145)      1085.4  Rx         0006  2  00 01 
   146)      1085.6  Rx         0011  4  00 C0 00 1F 
   147)      1085.8  Rx         0182  2  00 10 
   148)      1085.9  Rx         0183  2  01 14 
   149)      1123.4  Rx         0005  4  05 F6 05 ED 
   150)      1124.3  Rx         0002  2  07 E3 
   151)      1142.3  Rx         0010  8  05 71 06 38 05 D4 05 D9 
   152)      1150.9  Rx         0005  4  05 F7 05 EB 
   153)      1151.6  Rx         0002  2  07 E3 
   154)      1177.4  Rx         0005  4  05 F7 05 EC 
   155)      1178.2  Rx         0002  2  07 E3 
   156)      1205.5  Rx         0010  8  05 71 06 37 05 D3 05 DD 
   157)      1216.3  Rx         0005  4  05 F8 05 EA 
   158)      1216.4  Rx         0202  1  01 
   159)      1217.0  Rx         0006  2  00 01 
   160)      1217.2  Rx         0002  2  07 E3 
   161)      1217.3  Rx         0011  4  00 C0 00 1F 
   162)      1217.5  Rx         0182  2  00 10 
   163)      1217.7  Rx         0183  2  01 14 
   164)      1256.7  Rx         0005  4  05 F8 05 EA 
   165)      1257.1  Rx         0002  2  07 E3 
   166)      1270.4  Rx         0010  8  05 70 06 33 05 D5 05 DC 
   167)      1283.8  Rx         0005  4  05 F6 05 EB 
   168)      1284.2  Rx         0002  2  07 E3 
   169)      1311.0  Rx         0005  4  05 F6 05 E9 
   170)      1311.6  Rx         0002  2  07 E3 
   171)      1333.5  Rx         0010  8  05 70 06 37 05 D5 05 DC 
   172)      1337.9  Rx         0005  4  05 FA 05 EC 
   173)      1338.1  Rx         0202  1  01 
   174)      1338.7  Rx         0002  2  07 E5 
   175)      1338.9  Rx         0006  2  00 01 
   176)      1339.2  Rx         0011  4  00 C0 00 1F 
   177)      1339.4  Rx         0182  2  00 10 
   178)      1339.6  Rx         0183  2  01 14 
   179)      1377.0  Rx         0005  4  05 FA 05 EA 
   180)      1377.3  Rx         0002  2  07 E5 
   181)      1399.3  Rx         0010  8  05 73 06 35 05 D4 05 DE 
   182)      1405.3  Rx         0005  4  05 FA 05 EB 
   183)      1405.8  Rx         0002  2  07 E5 
   184)      1432.2  Rx         0005  4  05 F8 05 EB 
   185)      1432.7  Rx         0002  2  07 E5 
   186)      1454.8  Rx         0010  8  05 6F 06 38 05 D5 05 DD 
   187)      1469.7  Rx         0005  4  05 F6 05 ED 
   188)      1470.3  Rx         0002  2  07 E5 
   189)      1470.7  Rx         0202  1  01 
   190)      1471.3  Rx         0006  2  00 01 
   191)      1471.5  Rx         0011  4  00 C0 00 1F 
   192)      1471.6  Rx         0182  2  00 10 
   193)      1471.7  Rx         0183  2  01 14 
   194)      1507.9  Rx         0005  4  05 F9 05 EA 
   195)      1508.4  Rx         0002  2  07 E6 
   196)      1531.5  Rx         0010  8  05 71 06 38 05 D5 05 DC 
   197)      1546.0  Rx         0005  4  05 F8 05 EB 
   198)      1546.6  Rx         0002  2  07 E5 
   199)      1574.7  Rx         0005  4  05 F7 05 EC 
   200)      1575.0  Rx         0002  2  07 E5 
   201)      1597.4  Rx         0010  8  05 6F 06 33 05 D6 05 DC 
   202)      1613.8  Rx         0005  4  05 F6 05 EB 
   203)      1614.2  Rx         0002  2  07 E3 
   204)      1615.9  Rx         0202  1  01 
   205)      1616.5  Rx         0006  2  00 01 
   206)      1616.8  Rx         0011  4  00 C0 00 1F 
   207)      1617.0  Rx         0182  2  00 10 
   208)      1617.1  Rx         0183  2  01 14 
   209)      1651.3  Rx         0005  4  05 FB 05 EA 
   210)      1652.0  Rx         0002  2  07 E5 
   211)      1673.8  Rx         0010  8  05 6F 06 37 05 D7 05 DB 
   212)      1678.5  Rx         0005  4  05 F5 05 EB 
   213)      1678.9  Rx         0002  2  07 E5 
   214)      1705.5  Rx         0005  4  05 F7 05 ED 
   215)      1706.2  Rx         0002  2  07 E3 
   216)      1728.5  Rx         0010  8  05 72 06 36 05 D9 05 DC 
   217)      1742.3  Rx         0005  4  05 F9 05 EB 
   218)      1743.9  Rx         0002  2  07 E5 
   219)      1746.4  Rx         0202  1  01 
   220)      1746.9  Rx         0006  2  00 01 
   221)      1747.1  Rx         0011  4  00 C0 00 1F 
   222)      1747.3  Rx         0182  2  00 10 
   223)      1747.5  Rx         0183  2  01 14 
   224)      1761.7  Tx         0202  1  00 
   225)      1763.0  Rx         0006  2  00 01 
   226)      1763.8  Rx         0011  4  00 C0 00 1F 
   227)      1764.5  Rx         0182  2  00 10 
   228)      1764.8  Rx         0183  2  01 14 
   229)      1780.3  Rx         0005  4  05 F7 05 EB 
   230)      1782.1  Rx         0002  2  07 E5 
   231)      1804.9  Rx         0010  8  05 73 06 35 05 D7 05 DB 
   232)      1809.6  Rx         0005  4  05 F8 05 EE 
   233)      1810.2  Rx         0002  2  07 E5 
   234)      1836.5  Rx         0005  4  05 FA 05 EA 
   235)      1836.9  Rx         0002  2  07 E5 
   236)      1859.7  Rx         0010  8  05 6E 06 36 05 D6 05 DD 
   237)      1869.4  Rx         0005  4  05 F7 05 EC 
   238)      1870.7  Rx         0002  2  07 E5 
   239)      1878.1  Rx         0202  1  01 
   240)      1878.9  Rx         0006  2  00 01 
   241)      1879.1  Rx         0011  4  00 C0 00 1F 
   242)      1879.2  Rx         0182  2  00 10 
   243)      1879.3  Rx         0183  2  01 14 
   244)      1907.3  Rx         0005  4  05 F4 05 E9 
   245)      1909.7  Rx         0002  2  07 E5 
   246)      1935.3  Rx         0010  8  05 71 06 35 05 D6 05 DD 
   247)      1946.0  Rx         0005  4  05 F7 05 F0 
   248)      1949.5  Rx         0002  2  07 E3 
   249)      1979.9  Rx         0005  4  05 F9 05 EA 
   250)      1980.3  Rx         0002  2  07 E5 
   251)      2002.0  Rx         0010  8  05 71 06 35 05 D2 05 DC 
   252)      2012.3  Rx         0005  4  05 F9 05 ED 
   253)      2016.1  Rx         0002  2  07 E5 
   254)      2025.2  Rx         0202  1  01 
   255)      2025.8  Rx         0006  2  00 01 
   256)      2026.0  Rx         0011  4  00 C0 00 1F 
   257)      2026.2  Rx         0182  2  00 10 
   258)      2026.3  Rx         0183  2  01 14 
   259)      2050.0  Rx         0005  4  05 F8 05 E9 
   260)      2053.0  Rx         0002  2  07 E3 
   261)      2083.2  Rx         0010  8  05 70 06 36 05 D6 05 DD 
   262)      2087.5  Rx         0005  4  05 FA 05 EB 
   263)      2089.6  Rx         0002  2  07 E5 
   264)      2125.1  Rx         0005  4  05 F8 05 EA 
   265)      2125.7  Rx         0002  2  07 E5 
   266)      2148.4  Rx         0010  8  05 71 06 36 05 D5 05 DE 
   267)      2153.3  Rx         0005  4  05 F7 05 E9 
   268)      2153.8  Rx         0002  2  07 E5 
   269)      2170.7  Rx         0202  1  01 
   270)      2171.3  Rx         0006  2  00 01 
   271)      2171.5  Rx         0011  4  00 C0 00 1F 
   272)      2171.7  Rx         0182  2  00 10 
   273)      2171.9  Rx         0183  2  01 14 
   274)      2192.9  Rx         0005  4  05 FC 05 EC 
   275)      2193.5  Rx         0002  2  07 E6 
   276)      2225.9  Rx         0010  8  05 71 06 37 05 D9 05 D9 
   277)      2232.2  Rx         0005  4  05 FA 05 EE 
   278)      2233.7  Rx         0002  2  07 E6 
   279)      2271.5  Rx         0005  4  05 F9 05 E9 
   280)      2272.1  Rx         0002  2  07 E6 
   281)      2293.7  Rx         0010  8  05 6E 06 37 05 D6 05 DE 
   282)      2298.9  Rx         0005  4  05 F6 05 ED 
   283)      2299.4  Rx         0002  2  07 E6 
   284)      2315.0  Rx         0202  1  01 
   285)      2315.6  Rx         0006  2  00 01 
   286)      2315.7  Rx         0011  4  00 C0 00 1F 
   287)      2315.9  Rx         0182  2  00 10 
   288)      2316.1  Rx         0183  2  01 14 
   289)      2337.5  Rx         0005  4  05 F7 05 EB 
   290)      2338.0  Rx         0002  2  07 E5 
   291)      2368.1  Rx         0010  8  05 70 06 37 05 D6 05 DC 
   292)      2375.0  Rx         0005  4  05 FB 05 EB 
   293)      2375.5  Rx         0002  2  07 E6 
   294)      2413.3  Rx         0005  4  05 F5 05 EA 
   295)      2413.9  Rx         0002  2  07 E5 
   296)      2431.7  Rx         0010  8  05 71 06 34 05 D4 05 DB 
   297)      2440.3  Rx         0005  4  05 F4 05 EC 
   298)      2440.8  Rx         0002  2  07 E3 
   299)      2456.9  Rx         0202  1  01 
   300)      2457.5  Rx         0006  2  00 01 
   301)      2457.7  Rx         0011  4  00 C0 00 1F 
   302)      2457.7  Rx         0182  2  00 10 
   303)      2457.9  Rx         0183  2  01 14 
   304)      2478.1  Rx         0005  4  05 F5 05 ED 
   305)      2478.8  Rx         0002  2  07 E1 
   306)      2504.7  Rx         0010  8  05 6F 06 38 05 D6 05 DE 
   307)      2515.8  Rx         0005  4  05 F9 05 EC 
   308)      2516.1  Rx         0002  2  07 E3 
   309)      2553.1  Rx         0005  4  05 F8 05 EB 
   310)      2553.7  Rx         0002  2  07 E3 
   311)      2567.8  Rx         0010  8  05 71 06 35 05 D8 05 DA 
   312)      2581.8  Rx         0005  4  05 F5 05 EB 
   313)      2582.2  Rx         0002  2  07 E1 
   314)      2599.8  Rx         0202  1  01 
   315)      2600.3  Rx         0006  2  00 01 
   316)      2600.5  Rx         0011  4  00 C0 00 1F 
   317)      2600.6  Rx         0182  2  00 10 
   318)      2600.7  Rx         0183  2  01 14 
   319)      2619.5  Rx         0005  4  05 F6 05 E8 
   320)      2620.0  Rx         0002  2  07 E1 
   321)      2641.4  Rx         0010  8  05 71 06 39 05 D8 05 DD 
   322)      2649.0  Rx         0005  4  05 F7 05 EB 
   323)      2649.5  Rx         0002  2  07 E3 
   324)      2686.6  Rx         0005  4  05 F8 05 EA 
   325)      2687.1  Rx         0002  2  07 E3 
   326)      2697.9  Rx         0010  8  05 70 06 35 05 D5 05 E1 
   327)      2713.6  Rx         0005  4  05 F7 05 EF 
   328)      2714.1  Rx         0002  2  07 E3 
   329)      2735.2  Rx         0202  1  01 
   330)      2735.8  Rx         0006  2  00 01 
   331)      2736.0  Rx         0011  4  00 C0 00 1F 
   332)      2736.2  Rx         0182  2  00 10 
   333)      2736.4  Rx         0183  2  01 14 
   334)      2755.3  Rx         0005  4  05 FA 05 EA 
   335)      2755.7  Rx         0002  2  07 E3 
   336)      2760.4  Tx         0202  1  00 
   337)      2761.6  Rx         0006  2  00 01 
   338)      2762.5  Rx         0011  4  00 C0 00 1F 
   339)      2763.2  Rx         0182  2  00 10 
   340)      2763.8  Rx         0183  2  01 14 
   341)      2777.0  Rx         0010  8  05 6F 06 38 05 D8 05 E0 
   342)      2792.3  Rx         0005  4  05 F7 05 EA 
   343)      2792.9  Rx         0002  2  07 E5 
   344)      2831.9  Rx         0005  4  05 F8 05 EE 
   345)      2832.3  Rx         0002  2  07 E5 
   346)      2842.8  Rx         0010  8  05 70 06 35 05 D6 05 DC 
   347)      2858.7  Rx         0005  4  05 F7 05 EA 
   348)      2859.1  Rx         0002  2  07 E5 
   349)      2881.4  Rx         0202  1  01 
   350)      2882.0  Rx         0006  2  00 01 
   351)      2882.2  Rx         0011  4  00 C0 00 1F 
   352)      2882.3  Rx         0182  2  00 10 
   353)      2882.4  Rx         0183  2  01 14 
   354)      2900.2  Rx         0005  4  05 F6 05 E8 
   355)      2900.7  Rx         0002  2  07 E5 
   356)      2922.9  Rx         0010  8  05 6D 06 37 05 D6 05 DC 
   357)      2932.0  Rx         0005  4  05 F8 05 E8 
   358)      2932.6  Rx         0002  2  07 E5 
   359)      2958.8  Rx         0005  4  05 F6 05 EC 
   360)      2959.4  Rx         0002  2  07 E3 
   361)      2981.3  Rx         0010  8  05 70 06 36 05 D6 05 DC 
   362)      2999.6  Rx         0005  4  05 F8 05 EB 
   363)      3000.0  Rx         0002  2  07 E3 
   364)      3019.1  Rx         0202  1  01 
   365)      3019.7  Rx         0006  2  00 01 
   366)      3019.9  Rx         0011  4  00 C0 00 1F 
   367)      3020.0  Rx         0182  2  00 10 
   368)      3020.1  Rx         0183  2  01 14 
   369)      3037.3  Rx         0005  4  05 F6 05 EC 
   370)      3038.5  Rx         0002  2  07 E3 
   371)      3059.5  Rx         0010  8  05 71 06 36 05 D5 05 DB 
   372)      3064.6  Rx         0005  4  05 FB 05 E9 
   373)      3065.0  Rx         0002  2  07 E5 
   374)      3095.5  Rx         0005  4  05 F6 05 EA 
   375)      3096.1  Rx         0002  2  07 E5 
   376)      3116.6  Rx         0010  8  05 70 06 38 05 D3 05 DD 
   377)      3132.9  Rx         0005  4  05 FA 05 EC 
   378)      3133.4  Rx         0002  2  07 E5 
   379)      3155.8  Rx         0202  1  01 
   380)      3156.5  Rx         0006  2  00 01 
   381)      3156.7  Rx         0011  4  00 C0 00 1F 
   382)      3156.9  Rx         0182  2  00 10 
   383)      3157.1  Rx         0183  2  01 14 
   384)      3174.0  Rx         0005  4  05 FB 05 EC 
   385)      3174.3  Rx         0002  2  07 E6 
   386)      3194.7  Rx         0010  8  05 72 06 34 05 D4 05 DF 
   387)      3200.2  Rx         0005  4  05 F9 05 EA 
   388)      3202.4  Rx         0002  2  07 E6 
   389)      3232.5  Rx         0005  4  05 F6 05 EA 
   390)      3233.0  Rx         0002  2  07 E6 
   391)      3254.1  Rx         0010  8  05 71 06 35 05 D7 05 DD 
   392)      3271.5  Rx         0005  4  05 F8 05 EB 
   393)      3272.5  Rx         0002  2  07 E5 
   394)      3293.3  Rx         0202  1  01 
   395)      3293.9  Rx         0006  2  00 01 
   396)      3294.1  Rx         0011  4  00 C0 00 1F 
   397)      3294.2  Rx         0182  2  00 10 
   398)      3294.3  Rx         0183  2  01 14 
   399)      3308.6  Rx         0005  4  05 F7 05 E9 
   400)      3310.4  Rx         0002  2  07 E5 
   401)      3331.3  Rx         0010  8  05 71 06 34 05 D5 05 DC 
   402)      3345.4  Rx         0005  4  05 F9 05 EB 
   403)      3348.4  Rx         0002  2  07 E5 
   404)      3376.2  Rx         0005  4  05 FB 05 EB 
   405)      3376.5  Rx         0002  2  07 E5 
   406)      3397.5  Rx         0010  8  05 6F 06 33 05 D4 05 DE 
   407)      3409.4  Rx         0005  4  05 F7 05 EA 
   408)      3409.6  Rx         0002  2  07 E5 
   409)      3438.6  Rx         0202  1  01 
   410)      3439.2  Rx         0006  2  00 01 
   411)      3439.4  Rx         0011  4  00 C0 00 1F 
   412)      3439.5  Rx         0182  2  00 10 
   413)      3439.7  Rx         0183  2  01 14 
   414)      3449.6  Rx         0005  4  05 F7 05 EA 
   415)      3452.8  Rx         0002  2  07 E5 
   416)      3476.2  Rx         0010  8  05 6F 06 36 05 D8 05 E0 
   417)      3481.9  Rx         0005  4  05 F8 05 EB 
   418)      3482.3  Rx         0002  2  07 E5 
   419)      3510.0  Rx         0005  4  05 F6 05 EA 
   420)      3510.7  Rx         0002  2  07 E5 
   421)      3531.1  Rx         0010  8  05 6F 06 38 05 D5 05 DE 
   422)      3541.3  Rx         0005  4  05 F5 05 EB 
   423)      3544.1  Rx         0002  2  07 E3 
   424)      3571.6  Rx         0202  1  01 
   425)      3572.1  Rx         0006  2  00 01 
   426)      3572.3  Rx         0011  4  00 C0 00 1F 
   427)      3572.5  Rx         0182  2  00 10 
   428)      3572.6  Rx         0183  2  01 14 
   429)      3577.6  Rx         0005  4  05 F7 05 EC 
   430)      3581.5  Rx         0002  2  07 E3 
   431)      3608.4  Rx         0010  8  05 72 06 34 05 D6 05 DF 
   432)      3615.2  Rx         0005  4  05 F7 05 EC 
   433)      3618.2  Rx         0002  2  07 E3 
   434)      3652.5  Rx         0005  4  05 F9 05 EC 
   435)      3653.0  Rx         0002  2  07 E3 
   436)      3673.4  Rx         0010  8  05 71 06 35 05 D7 05 DC 
   437)      3679.9  Rx         0005  4  05 FA 05 EA 
   438)      3682.0  Rx         0002  2  07 E3 
   439)      3713.9  Rx         0202  1  01 
   440)      3714.5  Rx         0006  2  00 01 
   441)      3714.7  Rx         0011  4  00 C0 00 1F 
   442)      3714.9  Rx         0182  2  00 10 
   443)      3715.0  Rx         0183  2  01 14 
   444)      3718.7  Rx         0005  4  05 F8 05 EB 
   445)      3719.0  Rx         0002  2  07 E5 
   446)      3747.0  Rx         0010  8  05 6F 06 36 05 D3 05 DB 
   447)      3755.7  Rx         0005  4  05 F9 05 EB 
   448)      3756.3  Rx         0002  2  07 E5 
   449)      3760.2  Tx         0202  1  00 
   450)      3761.4  Rx         0006  2  00 01 
   451)      3762.3  Rx         0011  4  00 C0 00 1F 
   452)      3763.0  Rx         0182  2  00 10 
   453)      3763.6  Rx         0183  2  01 14 
   454)      3793.7  Rx         0005  4  05 FA 05 EC 
   455)      3794.2  Rx         0002  2  07 E6 
   456)      3809.7  Rx         0010  8  05 6E 06 33 05 D8 05 DD 
   457)      3819.9  Rx         0005  4  05 F9 05 EA 
   458)      3820.2  Rx         0002  2  07 E6 
   459)      3855.7  Rx         0202  1  01 
   460)      3856.3  Rx         0006  2  00 01 
   461)      3856.5  Rx         0011  4  00 C0 00 1F 
   462)      3856.5  Rx         0182  2  00 10 
   463)      3856.7  Rx         0183  2  01 14 
   464)      3858.6  Rx         0005  4  05 F9 05 EB 
   465)      3859.1  Rx         0002  2  07 E6 
   466)      3883.5  Rx         0010  8  05 71 06 37 05 D4 05 D9 
   467)      3900.0  Rx         0005  4  05 F7 05 EB 
   468)      3900.4  Rx         0002  2  07 E6 
   469)      3926.7  Rx         0005  4  05 F8 05 EC 
   470)      3927.3  Rx         0002  2  07 E6 
   471)      3949.6  Rx         0010  8  05 6E 06 36 05 D4 05 DD 
   472)      3969.4  Rx         0005  4  05 F9 05 EA 
   473)      3970.0  Rx         0002  2  07 E6 
   474)      4004.5  Rx         0202  1  01 
   475)      4005.1  Rx         0006  2  00 01 
   476)      4005.3  Rx         0011  4  00 C0 00 1F 
   477)      4005.4  Rx         0182  2  00 10 
   478)      4005.5  Rx         0183  2  01 14 
   479)      4006.9  Rx         0005  4  05 F7 05 EC 
   480)      4008.1  Rx         0002  2  07 E5 
   481)      4027.5  Rx         0010  8  05 6F 06 34 05 D6 05 E1 
   482)      4045.1  Rx         0005  4  05 F2 05 ED 
   483)      4045.6  Rx         0002  2  07 E3 
   484)      4072.5  Rx         0005  4  05 F8 05 EA 
   485)      4072.8  Rx         0002  2  07 E3 
   486)      4093.4  Rx         0010  8  05 6F 06 36 05 D6 05 DA 
   487)      4099.6  Rx         0005  4  05 F8 05 EB 
   488)      4100.1  Rx         0002  2  07 E3 
   489)      4136.4  Rx         0202  1  01 
   490)      4137.0  Rx         0006  2  00 01 
   491)      4137.2  Rx         0011  4  00 C0 00 1F 
   492)      4137.4  Rx         0182  2  00 10 
   493)      4137.5  Rx         0183  2  01 14 
   494)      4138.5  Rx         0005  4  05 F8 05 EB 
   495)      4138.9  Rx         0002  2  07 E3 
   496)      4158.6  Rx         0010  8  05 71 06 36 05 D7 05 DA 
   497)      4176.0  Rx         0005  4  05 F9 05 EB 
   498)      4177.3  Rx         0002  2  07 E3 
   499)      4214.6  Rx         0005  4  05 F7 05 EC 
   500)      4215.2  Rx         0002  2  07 E3 
   501)      4234.8  Rx         0010  8  05 71 06 33 05 D6 05 DE 
   502)      4241.5  Rx         0005  4  05 F7 05 EB 
   503)      4242.1  Rx         0002  2  07 E5 
   504)      4278.4  Rx         0202  1  01 
   505)      4278.9  Rx         0006  2  00 01 
   506)      4279.0  Rx         0011  4  00 C0 00 1F 
   507)      4279.2  Rx         0182  2  00 10 
   508)      4279.4  Rx         0183  2  01 14 
   509)      4279.5  Rx         0005  4  05 F6 05 EF 
   510)      4281.2  Rx         0002  2  07 E5 
   511)      4300.4  Rx         0010  8  05 72 06 35 05 D4 05 DE 
   512)      4318.5  Rx         0005  4  05 F7 05 EA 
   513)      4318.9  Rx         0002  2  07 E3 
   514)      4346.2  Rx         0005  4  05 F7 05 EA 
   515)      4347.1  Rx         0002  2  07 E3 
   516)      4367.0  Rx         0010  8  05 72 06 38 05 D8 05 DB 
   517)      4373.6  Rx         0005  4  05 F6 05 EC 
   518)      4374.1  Rx         0002  2  07 E3 
   519)      4400.7  Rx         0005  4  05 F8 05 E8 
   520)      4400.9  Rx         0202  1  01 
   521)      4401.5  Rx         0006  2  00 01 
   522)      4401.6  Rx         0002  2  07 E3 
   523)      4401.7  Rx         0011  4  00 C0 00 1F 
   524)      4402.0  Rx         0182  2  00 10 
   525)      4402.2  Rx         0183  2  01 14 
   526)      4421.7  Rx         0010  8  05 6F 06 36 05 D6 05 DE 
   527)      4439.0  Rx         0005  4  05 F9 05 EE 
   528)      4439.5  Rx         0002  2  07 E3 
   529)      4470.0  Rx         0005  4  05 F9 05 EC 
   530)      4470.3  Rx         0002  2  07 E5 
   531)      4490.1  Rx         0010  8  05 72 06 37 05 D5 05 DD 
   532)      4498.2  Rx         0005  4  05 FB 05 EC 
   533)      4498.8  Rx         0002  2  07 E5 
   534)      4525.3  Rx         0005  4  05 FC 05 EC 
   535)      4525.8  Rx         0002  2  07 E6 
   536)      4526.5  Rx         0202  1  01 
   537)      4527.1  Rx         0006  2  00 01 
   538)      4527.3  Rx         0011  4  00 C0 00 1F 
   539)      4527.4  Rx         0182  2  00 10 
   540)      4527.5  Rx         0183  2  01 14 
   541)      4545.8  Rx         0010  8  05 6F 06 37 05 D6 05 DE 
   542)      4563.4  Rx         0005  4  05 F7 05 EE 
   543)      4564.1  Rx         0002  2  07 E6 
   544)      4590.4  Rx         0005  4  05 F6 05 E9 
   545)      4591.2  Rx         0002  2  07 E6 
   546)      4611.7  Rx         0010  8  05 6F 06 36 05 D7 05 DD 
   547)      4619.2  Rx         0005  4  05 FA 05 EB 
   548)      4619.6  Rx         0002  2  07 E6 
   549)      4646.5  Rx         0005  4  05 F7 05 EA 
   550)      4647.0  Rx         0002  2  07 E6 
   551)      4648.0  Rx         0202  1  01 
   552)      4648.6  Rx         0006  2  00 01 
   553)      4648.8  Rx         0011  4  00 C0 00 1F 
   554)      4649.1  Rx         0182  2  00 10 
   555)      4649.1  Rx         0183  2  01 14 
   556)      4666.6  Rx         0010  8  05 71 06 35 05 D4 05 DC 
   557)      4683.9  Rx         0005  4  05 F7 05 EB 
   558)      4684.3  Rx         0002  2  07 E5 
   559)      4711.1  Rx         0005  4  05 F9 05 EA 
   560)      4711.6  Rx         0002  2  07 E5 
   561)      4731.5  Rx         0010  8  05 71 06 37 05 D5 05 DA 
   562)      4738.4  Rx         0005  4  05 F7 05 EA 
   563)      4738.8  Rx         0002  2  07 E5 
   564)      4760.5  Tx         0202  1  00 
   565)      4760.9  Rx         0011  4  00 C0 00 1F 
   566)      4761.0  Rx         0006  2  00 01 
   567)      4761.1  Rx         0182  2  00 10 
   568)      4761.3  Rx         0183  2  01 14 
   569)      4775.9  Rx         0005  4  05 FC 05 EC 
   570)      4776.9  Rx         0002  2  07 E6 
   571)      4778.4  Rx         0202  1  01 
   572)      4779.0  Rx         0006  2  00 01 
   573)      4779.2  Rx         0011  4  00 C0 00 1F 
   574)      4779.3  Rx         0182  2  00 10 
   575)      4779.4  Rx         0183  2  01 14 
   576)      4797.1  Rx         0010  8  05 72 06 39 05 D9 05 DB 
   577)      4812.6  Rx         0005  4  05 F5 05 EA 
   578)      4815.4  Rx         0002  2  07 E5 
   579)      4842.5  Rx         0005  4  05 F8 05 EB 
   580)      4842.9  Rx         0002  2  07 E5 
   581)      4862.6  Rx         0010  8  05 6F 06 36 05 D5 05 DC 
   582)      4877.2  Rx         0005  4  05 F8 05 ED 
   583)      4880.3  Rx         0002  2  07 E5 
   584)      4907.7  Rx         0005  4  05 F8 05 EB 
   585)      4908.2  Rx         0002  2  07 E5 
   586)      4911.1  Rx         0202  1  01 
   587)      4911.7  Rx         0006  2  00 01 
   588)      4911.9  Rx         0011  4  00 C0 00 1F 
   589)      4912.4  Rx         0182  2  00 10 
   590)      4912.6  Rx         0183  2  01 14 
   591)      4928.8  Rx         0010  8  05 71 06 34 05 D6 05 DC 
   592)      4944.1  Rx         0005  4  05 F8 05 EB 
   593)      4945.5  Rx         0002  2  07 E5 
   594)      4976.4  Rx         0005  4  05 F6 05 EB 
   595)      4976.8  Rx         0002  2  07 E3 
   596)      4994.7  Rx         0010  8  05 71 06 34 05 D6 05 DB 
   597)      5006.3  Rx         0005  4  05 F8 05 E8 
   598)      5010.0  Rx         0002  2  07 E5 
   599)      5042.7  Rx         0005  4  05 F7 05 EC 
   600)      5043.2  Rx         0002  2  07 E5 
   601)      5047.0  Rx         0202  1  01 
   602)      5047.6  Rx         0006  2  00 01 
   603)      5047.8  Rx         0011  4  00 C0 00 1F 
   604)      5047.9  Rx         0182  2  00 10 
   605)      5048.0  Rx         0183  2  01 14 
   606)      5059.8  Rx         0010  8  05 6F 06 36 05 D7 05 DB 
   607)      5071.7  Rx         0005  4  05 F7 05 EC 
   608)      5073.7  Rx         0002  2  07 E3 
   609)      5108.0  Rx         0005  4  05 F7 05 EA 
   610)      5108.4  Rx         0002  2  07 E3 
   611)      5122.2  Rx         0010  8  05 6F 06 37 05 D4 05 DC 
   612)      5135.8  Rx         0005  4  05 F9 05 EC 
   613)      5137.8  Rx         0002  2  07 E3 
   614)      5173.3  Rx         0005  4  05 FA 05 E9 
   615)      5173.9  Rx         0002  2  07 E5 
   616)      5177.8  Rx         0202  1  01 
   617)      5178.3  Rx         0006  2  00 01 
   618)      5178.6  Rx         0011  4  00 C0 00 1F 
   619)      5178.7  Rx         0182  2  00 10 
   620)      5178.9  Rx         0183  2  01 14 
   621)      5185.3  Rx         0010  8  05 70 06 36 05 D7 05 DF 
   622)      5200.3  Rx         0005  4  05 F7 05 EC 
   623)      5200.8  Rx         0002  2  07 E5 
   624)      5237.8  Rx         0005  4  05 F8 05 EC 
   625)      5239.0  Rx         0002  2  07 E5 
   626)      5248.3  Rx         0010  8  05 71 06 37 05 D7 05 E0 
   627)      5266.4  Rx         0005  4  05 FB 05 E9 
   628)      5266.7  Rx         0002  2  07 E6 
   629)      5304.1  Rx         0005  4  05 F4 05 EB 
   630)      5304.6  Rx         0002  2  07 E5 
   631)      5319.6  Rx         0202  1  01 
   632)      5320.3  Rx         0006  2  00 01 
   633)      5320.5  Rx         0011  4  00 C0 00 1F 
   634)      5320.5  Rx         0182  2  00 10 
   635)      5320.7  Rx         0183  2  01 14 
   636)      5324.5  Rx         0010  8  05 72 06 37 05 D7 05 DD 
   637)      5342.4  Rx         0005  4  05 FB 05 EB 
   638)      5343.0  Rx         0002  2  07 E5 
   639)      5380.1  Rx         0005  4  05 F7 05 EA 
   640)      5380.6  Rx         0002  2  07 E5 
   641)      5389.1  Rx         0010  8  05 72 06 37 05 D3 05 DE 
   642)      5411.1  Rx         0005  4  05 F7 05 E9 
   643)      5411.7  Rx         0002  2  07 E5 
   644)      5448.7  Rx         0005  4  05 F5 05 E8 
   645)      5449.2  Rx         0002  2  07 E5 
   646)      5465.6  Rx         0202  1  01 
   647)      5466.2  Rx         0006  2  00 01 
   648)      5466.4  Rx         0011  4  00 C0 00 1F 
   649)      5466.5  Rx         0182  2  00 10 
   650)      5466.5  Rx         0183  2  01 14 
   651)      5468.8  Rx         0010  8  05 72 06 36 05 D7 05 DC 
   652)      5486.8  Rx         0005  4  05 F7 05 EC 
   653)      5487.1  Rx         0002  2  07 E3 
   654)      5524.2  Rx         0005  4  05 F7 05 EA 
   655)      5524.8  Rx         0002  2  07 E3 
   656)      5533.3  Rx         0010  8  05 71 06 36 05 D6 05 E0 
   657)      5552.0  Rx         0005  4  05 F8 05 ED 
   658)      5552.3  Rx         0002  2  07 E3 
   659)      5590.9  Rx         0005  4  05 F4 05 EA 
   660)      5591.5  Rx         0002  2  07 E1 
   661)      5609.2  Rx         0202  1  01 
   662)      5609.8  Rx         0006  2  00 01 
   663)      5610.0  Rx         0011  4  00 C0 00 1F 
   664)      5610.1  Rx         0182  2  00 10 
   665)      5610.2  Rx         0183  2  01 14 
   666)      5611.3  Rx         0010  8  05 71 06 35 05 D6 05 DE 
   667)      5630.5  Rx         0005  4  05 F8 05 EE 
   668)      5631.1  Rx         0002  2  07 E1 
   669)      5669.5  Rx         0005  4  05 FD 05 E9 
   670)      5670.1  Rx         0002  2  07 E5 
   671)      5679.1  Rx         0010  8  05 70 06 39 05 D5 05 E0 
   672)      5696.9  Rx         0005  4  05 F7 05 E8 
   673)      5697.3  Rx         0002  2  07 E5 
   674)      5727.1  Rx         0005  4  05 F8 05 EC 
   675)      5727.7  Rx         0002  2  07 E5 
   676)      5746.3  Rx         0202  1  01 
   677)      5746.8  Rx         0006  2  00 01 
   678)      5746.9  Rx         0011  4  00 C0 00 1F 
   679)      5747.1  Rx         0182  2  00 10 
   680)      5747.2  Rx         0183  2  01 14 
   681)      5747.5  Rx         0010  8  05 71 06 35 05 D8 05 DD 
   682)      5760.0  Tx         0202  1  00 
   683)      5761.2  Rx         0006  2  00 01 
   684)      5762.1  Rx         0011  4  00 C0 00 1F 
   685)      5762.8  Rx         0182  2  00 10 
   686)      5763.0  Rx         0183  2  01 14 
   687)      5769.0  Rx         0005  4  05 F5 05 EC 
   688)      5769.6  Rx         0002  2  07 E5 
   689)      5795.5  Rx         0005  4  05 F9 05 EC 
   690)      5795.8  Rx         0002  2  07 E5 
   691)      5804.1  Rx         0010  8  05 6F 06 35 05 D7 05 E0 
   692)      5823.1  Rx         0005  4  05 F7 05 EB 
   693)      5823.7  Rx         0002  2  07 E5 
   694)      5850.8  Rx         0005  4  05 FD 05 EB 
   695)      5852.1  Rx         0002  2  07 E5 
   696)      5870.0  Rx         0202  1  01 
   697)      5870.1  Rx         0010  8  05 71 06 36 05 D8 05 DC 
   698)      5870.5  Rx         0006  2  00 01 
   699)      5870.7  Rx         0011  4  00 C0 00 1F 
   700)      5870.9  Rx         0182  2  00 10 
   701)      5871.0  Rx         0183  2  01 14 
   702)      5889.9  Rx         0005  4  05 F8 05 EB 
   703)      5890.6  Rx         0002  2  07 E5 
   704)      5918.0  Rx         0005  4  05 F8 05 EB 
   705)      5918.5  Rx         0002  2  07 E5 
   706)      5937.9  Rx         0010  8  05 71 06 35 05 D8 05 DF 
   707)      5956.1  Rx         0005  4  05 F7 05 EB 
   708)      5956.6  Rx         0002  2  07 E6 
   709)      5994.8  Rx         0005  4  05 F5 05 EB 
   710)      5995.5  Rx         0002  2  07 E5 
   711)      6014.0  Rx         0010  8  05 70 06 3A 05 D3 05 DC 
   712)      6014.5  Rx         0202  1  01 
   713)      6015.2  Rx         0006  2  00 01 
   714)      6015.4  Rx         0011  4  00 C0 00 1F 
   715)      6015.6  Rx         0182  2  00 10 
   716)      6015.6  Rx         0183  2  01 14 
   717)      6032.8  Rx         0005  4  05 F8 05 EB 
   718)      6035.3  Rx         0002  2  07 E5 
   719)      6062.8  Rx         0005  4  05 FB 05 EC 
   720)      6063.5  Rx         0002  2  07 E5 
   721)      6082.1  Rx         0010  8  05 70 06 38 05 D6 05 DC 
   722)      6103.1  Rx         0005  4  05 F7 05 EC 
   723)      6103.6  Rx         0002  2  07 E5 
   724)      6129.5  Rx         0005  4  05 F7 05 EA 
   725)      6130.0  Rx         0002  2  07 E5 
   726)      6149.1  Rx         0010  8  05 72 06 33 05 D4 05 DC 
   727)      6150.8  Rx         0202  1  01 
   728)      6151.4  Rx         0006  2  00 01 
   729)      6151.6  Rx         0011  4  00 C0 00 1F 
   730)      6151.8  Rx         0182  2  00 10 
   731)      6151.9  Rx         0183  2  01 14 
   732)      6169.5  Rx         0005  4  05 F7 05 EA 
   733)      6170.1  Rx         0002  2  07 E5 
   734)      6196.2  Rx         0005  4  05 F6 05 EC 
   735)      6197.3  Rx         0002  2  07 E5 
   736)      6215.6  Rx         0010  8  05 6E 06 33 05 D5 05 DC 
   737)      6235.5  Rx         0005  4  05 F9 05 EB 
   738)      6236.1  Rx         0002  2  07 E5 
   739)      6263.2  Rx         0005  4  05 F8 05 E9 
   740)      6263.8  Rx         0002  2  07 E3 
   741)      6282.3  Rx         0010  8  05 71 06 34 05 D8 05 DB 
   742)      6284.0  Rx         0202  1  01 
   743)      6284.9  Rx         0006  2  00 01 
   744)      6285.0  Rx         0011  4  00 C0 00 1F 
   745)      6285.1  Rx         0182  2  00 10 
   746)      6285.2  Rx         0183  2  01 14 
   747)      6300.6  Rx         0005  4  05 F7 05 E9 
   748)      6301.9  Rx         0002  2  07 E3 
   749)      6328.4  Rx         0005  4  05 F9 05 EA 
   750)      6328.9  Rx         0002  2  07 E5 
   751)      6345.5  Rx         0010  8  05 72 06 34 05 D6 05 DC 
   752)      6362.9  Rx         0005  4  05 F7 05 EA 
   753)      6364.1  Rx         0002  2  07 E5 
   754)      6394.8  Rx         0005  4  05 F8 05 EC 
   755)      6395.2  Rx         0002  2  07 E5 
   756)      6409.8  Rx         0010  8  05 73 06 3A 05 D8 05 DE 
   757)      6416.9  Rx         0202  1  01 
   758)      6417.5  Rx         0006  2  00 01 
   759)      6417.7  Rx         0011  4  00 C0 00 1F 
   760)      6417.8  Rx         0182  2  00 10 
   761)      6418.0  Rx         0183  2  01 14 
   762)      6430.4  Rx         0005  4  05 F5 05 EA 
   763)      6433.9  Rx         0002  2  07 E3 
   764)      6461.7  Rx         0005  4  05 F5 05 EA 
   765)      6462.0  Rx         0002  2  07 E3 
   766)      6474.1  Rx         0010  8  05 6F 06 37 05 D4 05 DB 
   767)      6492.9  Rx         0005  4  05 FA 05 EC 
   768)      6496.6  Rx         0002  2  07 E3 
   769)      6526.6  Rx         0005  4  05 F9 05 E7 
   770)      6526.8  Rx         0002  2  07 E3 
   771)      6536.0  Rx         0010  8  05 72 06 35 05 D8 05 DF 
   772)      6550.7  Rx         0202  1  01 
   773)      6551.2  Rx         0006  2  00 01 
   774)      6551.5  Rx         0011  4  00 C0 00 1F 
   775)      6551.7  Rx         0182  2  00 10 
   776)      6551.8  Rx         0183  2  01 14 
   777)      6557.4  Rx         0005  4  05 F5 05 EB 
   778)      6559.6  Rx         0002  2  07 E3 
   779)      6593.7  Rx         0005  4  05 F9 05 EC 
   780)      6594.5  Rx         0002  2  07 E3 
   781)      6602.0  Rx         0010  8  05 6F 06 34 05 D6 05 DC 
   782)      6621.3  Rx         0005  4  05 FA 05 EB 
   783)      6623.8  Rx         0002  2  07 E5 
   784)      6658.9  Rx         0005  4  05 F7 05 E7 
   785)      6659.6  Rx         0002  2  07 E5 
   786)      6666.9  Rx         0010  8  05 6E 06 36 05 D4 05 DE 
   787)      6682.8  Rx         0202  1  01 
   788)      6683.5  Rx         0006  2  00 01 
   789)      6683.8  Rx         0011  4  00 C0 00 1F 
   790)      6684.0  Rx         0182  2  00 10 
   791)      6684.1  Rx         0183  2  01 14 
   792)      6689.4  Rx         0005  4  05 F6 05 EB 
   793)      6690.5  Rx         0002  2  07 E5 
   794)      6726.5  Rx         0005  4  05 F5 05 E9 
   795)      6727.0  Rx         0002  2  07 E3 
   796)      6734.8  Rx         0010  8  05 71 06 36 05 D4 05 DD 
   797)      6754.5  Rx         0005  4  05 F8 05 EC 
   798)      6755.0  Rx         0002  2  07 E5 
   799)      6761.1  Tx         0202  1  00 
   800)      6762.4  Rx         0006  2  00 01 
   801)      6763.2  Rx         0011  4  00 C0 00 1F 
   802)      6763.9  Rx         0182  2  00 10 
   803)      6764.6  Rx         0183  2  01 14 
   804)      6792.0  Rx         0005  4  05 F9 05 E9 
   805)      6792.4  Rx         0002  2  07 E5 
   806)      6799.9  Rx         0010  8  05 6F 06 36 05 D6 05 DF 
   807)      6816.3  Rx         0202  1  01 
   808)      6816.8  Rx         0006  2  00 01 
   809)      6817.0  Rx         0011  4  00 C0 00 1F 
   810)      6817.1  Rx         0182  2  00 10 
   811)      6817.2  Rx         0183  2  01 14 
   812)      6819.6  Rx         0005  4  05 F6 05 EA 
   813)      6820.4  Rx         0002  2  07 E3 
   814)      6857.7  Rx         0005  4  05 F6 05 EC 
   815)      6858.0  Rx         0002  2  07 E3 
   816)      6865.0  Rx         0010  8  05 6E 06 34 05 D6 05 DE 
   817)      6887.6  Rx         0005  4  05 F9 05 EB 
   818)      6888.0  Rx         0002  2  07 E3 
   819)      6927.0  Rx         0005  4  05 F6 05 EB 
   820)      6927.2  Rx         0002  2  07 E3 
   821)      6934.8  Rx         0010  8  05 72 06 37 05 D4 05 DC 
   822)      6951.7  Rx         0202  1  01 
   823)      6952.3  Rx         0006  2  00 01 
   824)      6952.5  Rx         0011  4  00 C0 00 1F 
   825)      6952.7  Rx         0182  2  00 10 
   826)      6952.7  Rx         0183  2  01 14 
   827)      6954.3  Rx         0005  4  05 F6 05 EE 
   828)      6954.7  Rx         0002  2  07 E3 
   829)      6997.3  Rx         0005  4  05 F9 05 EB 
   830)      6997.5  Rx         0002  2  07 E3 
   831)      7016.2  Rx         0010  8  05 70 06 35 05 D7 05 DD 
   832)      7025.6  Rx         0005  4  05 F7 05 E9 
   833)      7025.9  Rx         0002  2  07 E3 
   834)      7052.5  Rx         0005  4  05 F7 05 EE 
   835)      7052.9  Rx         0002  2  07 E3 
   836)      7060.3  Rx         0010  8  05 73 06 36 05 D6 05 DB 
   837)      7080.1  Rx         0202  1  01 
   838)      7080.6  Rx         0006  2  00 01 
   839)      7080.8  Rx         0011  4  00 C0 00 1F 
   840)      7081.0  Rx         0182  2  00 10 
   841)      7081.1  Rx         0183  2  01 14 
   842)      7081.8  Rx         0005  4  05 F7 05 EA 
   843)      7082.3  Rx         0002  2  07 E3 
   844)      7118.6  Rx         0005  4  05 F9 05 EB 
   845)      7119.1  Rx         0002  2  07 E5 
   846)      7137.1  Rx         0010  8  05 72 06 38 05 D7 05 DB 
   847)      7157.0  Rx         0005  4  05 F7 05 EB 
   848)      7157.2  Rx         0002  2  07 E5 
   849)      7183.7  Rx         0005  4  05 F8 05 EB 
   850)      7184.1  Rx         0002  2  07 E5 
   851)      7201.5  Rx         0010  8  05 6E 06 35 05 D6 05 DE 
   852)      7221.8  Rx         0202  1  01 
   853)      7222.4  Rx         0006  2  00 01 
   854)      7222.5  Rx         0011  4  00 C0 00 1F 
   855)      7222.7  Rx         0182  2  00 10 
   856)      7222.9  Rx         0183  2  01 14 
   857)      7223.1  Rx         0005  4  05 F9 05 EC 
   858)      7224.5  Rx         0002  2  07 E5 
   859)      7262.1  Rx         0005  4  05 F9 05 EA 
   860)      7262.5  Rx         0002  2  07 E5 
   861)      7279.7  Rx         0010  8  05 6D 06 37 05 D6 05 DF 
   862)      7300.8  Rx         0005  4  05 FB 05 EB 
   863)      7301.2  Rx         0002  2  07 E6 
   864)      7327.8  Rx         0005  4  05 F7 05 EA 
   865)      7328.1  Rx         0002  2  07 E5 
   866)      7346.0  Rx         0010  8  05 70 06 35 05 D6 05 DC 
   867)      7365.3  Rx         0202  1  01 
   868)      7365.6  Rx         0005  4  05 F6 05 EB 
   869)      7365.9  Rx         0006  2  00 01 
   870)      7366.0  Rx         0011  4  00 C0 00 1F 
   871)      7366.1  Rx         0002  2  07 E5 
   872)      7366.2  Rx         0182  2  00 10 
   873)      7366.5  Rx         0183  2  01 14 
   874)      7393.3  Rx         0005  4  05 F5 05 EC 
   875)      7393.6  Rx         0002  2  07 E5 
   876)      7411.2  Rx         0010  8  05 71 06 38 05 D8 05 DD 
   877)      7431.2  Rx         0005  4  05 F7 05 EC 
   878)      7431.7  Rx         0002  2  07 E5 
   879)      7458.5  Rx         0005  4  05 FA 05 EC 
   880)      7458.7  Rx         0002  2  07 E5 
   881)      7476.3  Rx         0010  8  05 6F 06 36 05 D0 05 DD 
   882)      7496.1  Rx         0005  4  05 FB 05 EC 
   883)      7496.7  Rx         0002  2  07 E5 
   884)      7496.9  Rx         0202  1  01 
   885)      7497.5  Rx         0006  2  00 01 
   886)      7497.7  Rx         0011  4  00 C0 00 1F 
   887)      7497.9  Rx         0182  2  00 10 
   888)      7497.9  Rx         0183  2  01 14 
   889)      7534.0  Rx         0005  4  05 F4 05 EA 
   890)      7534.4  Rx         0002  2  07 E3 
   891)      7552.2  Rx         0010  8  05 6E 06 35 05 D8 05 DF 
   892)      7572.9  Rx         0005  4  05 F7 05 EC 
   893)      7573.2  Rx         0002  2  07 E3 
   894)      7601.2  Rx         0005  4  05 F7 05 EB 
   895)      7601.6  Rx         0002  2  07 E5 
   896)      7617.5  Rx         0010  8  05 6F 06 36 05 D5 05 DE 
   897)      7639.8  Rx         0005  4  05 F9 05 EC 
   898)      7640.1  Rx         0002  2  07 E5 
   899)      7641.8  Rx         0202  1  01 
   900)      7642.4  Rx         0006  2  00 01 
   901)      7642.6  Rx         0011  4  00 C0 00 1F 
   902)      7642.7  Rx         0182  2  00 10 
   903)      7642.8  Rx         0183  2  01 14 
   904)      7677.3  Rx         0005  4  05 FA 05 EB 
   905)      7677.8  Rx         0002  2  07 E5 
   906)      7691.3  Rx         0010  8  05 6E 06 35 05 D2 05 DD 
   907)      7717.9  Rx         0005  4  05 F7 05 EA 
   908)      7718.2  Rx         0002  2  07 E3 
   909)      7745.2  Rx         0005  4  05 F9 05 EB 
   910)      7745.4  Rx         0002  2  07 E5 
   911)      7756.9  Rx         0010  8  05 72 06 36 05 D3 05 DC 
   912)      7761.5  Tx         0202  1  00 
   913)      7762.8  Rx         0006  2  00 01 
   914)      7763.6  Rx         0011  4  00 C0 00 1F 
   915)      7764.3  Rx         0182  2  00 10 
   916)      7764.6  Rx         0183  2  01 14 
   917)      7783.0  Rx         0005  4  05 F7 05 E9 
   918)      7785.1  Rx         0002  2  07 E5 
   919)      7786.7  Rx         0202  1  01 
   920)      7787.4  Rx         0006  2  00 01 
   921)      7787.5  Rx         0011  4  00 C0 00 1F 
   922)      7787.6  Rx         0182  2  00 10 
   923)      7787.8  Rx         0183  2  01 14 
   924)      7820.5  Rx         0005  4  05 F7 05 EA 
   925)      7821.7  Rx         0002  2  07 E5 
   926)      7831.9  Rx         0010  8  05 72 06 33 05 D6 05 DC 
   927)      7858.3  Rx         0005  4  05 FA 05 EC 
   928)      7860.7  Rx         0002  2  07 E5 
   929)      7889.1  Rx         0005  4  05 F8 05 EF 
   930)      7889.3  Rx         0002  2  07 E5 
   931)      7896.7  Rx         0010  8  05 6F 06 34 05 D5 05 DB 
   932)      7921.1  Rx         0005  4  05 F9 05 EA 
   933)      7924.0  Rx         0002  2  07 E5 
   934)      7930.1  Rx         0202  1  01 
   935)      7930.6  Rx         0006  2  00 01 
   936)      7930.7  Rx         0011  4  00 C0 00 1F 
   937)      7930.8  Rx         0182  2  00 10 
   938)      7930.9  Rx         0183  2  01 14 
   939)      7959.6  Rx         0005  4  05 FA 05 EA 
   940)      7963.6  Rx         0002  2  07 E5 
   941)      7973.3  Rx         0010  8  05 6F 06 35 05 D7 05 DD 
   942)      7994.9  Rx         0005  4  05 F8 05 EF 
   943)      7995.4  Rx         0002  2  07 E6 
   944)      8021.5  Rx         0005  4  05 FA 05 EB 
   945)      8022.0  Rx         0002  2  07 E6 
   946)      8028.7  Rx         0010  8  05 71 06 37 05 D5 05 DD 
   947)      8050.0  Rx         0005  4  05 F5 05 EA 
   948)      8053.4  Rx         0002  2  07 E5 
   949)      8063.2  Rx         0202  1  01 
   950)      8063.7  Rx         0006  2  00 01 
   951)      8063.9  Rx         0011  4  00 C0 00 1F 
   952)      8064.1  Rx         0182  2  00 10 
   953)      8064.2  Rx         0183  2  01 14 
   954)      8086.8  Rx         0005  4  05 F7 05 E9 
   955)      8089.3  Rx         0002  2  07 E5 
   956)      8104.3  Rx         0010  8  05 70 06 37 05 D6 05 DC 
   957)      8124.3  Rx         0005  4  05 F8 05 EC 
   958)      8124.8  Rx         0002  2  07 E5 
   959)      8151.2  Rx         0005  4  05 F7 05 EA 
   960)      8151.8  Rx         0002  2  07 E5 
   961)      8157.7  Rx         0010  8  05 70 06 36 05 D4 05 DC 
   962)      8179.0  Rx         0005  4  05 F5 05 E9 
   963)      8179.4  Rx         0002  2  07 E3 
   964)      8195.0  Rx         0202  1  01 
   965)      8195.6  Rx         0006  2  00 01 
   966)      8195.8  Rx         0011  4  00 C0 00 1F 
   967)      8196.0  Rx         0182  2  00 10 
   968)      8196.1  Rx         0183  2  01 14 
   969)      8217.1  Rx         0005  4  05 F8 05 E9 
   970)      8217.6  Rx         0002  2  07 E3 
   971)      8234.5  Rx         0010  8  05 6E 06 34 05 D4 05 DE 
   972)      8257.2  Rx         0005  4  05 F8 05 EC 
   973)      8258.7  Rx         0002  2  07 E3 
   974)      8286.3  Rx         0005  4  05 FA 05 EB 
   975)      8286.6  Rx         0002  2  07 E5 
   976)      8293.8  Rx         0010  8  05 70 06 36 05 D6 05 DF 
   977)      8314.5  Rx         0005  4  05 F6 05 EA 
   978)      8315.2  Rx         0002  2  07 E3 
   979)      8330.2  Rx         0202  1  01 
   980)      8330.8  Rx         0006  2  00 01 
   981)      8331.0  Rx         0011  4  00 C0 00 1F 
   982)      8331.1  Rx         0182  2  00 10 
   983)      8331.2  Rx         0183  2  01 14 
   984)      8352.7  Rx         0005  4  05 F8 05 EA 
   985)      8353.3  Rx         0002  2  07 E5 
   986)      8370.2  Rx         0010  8  05 6F 06 36 05 D4 05 DD 
   987)      8390.0  Rx         0005  4  05 F7 05 E9 
   988)      8390.6  Rx         0002  2  07 E5 
   989)      8417.7  Rx         0005  4  05 F9 05 EC 
   990)      8418.2  Rx         0002  2  07 E5 
   991)      8423.9  Rx         0010  8  05 6F 06 33 05 D5 05 DE 
   992)      8447.2  Rx         0005  4  05 F9 05 EA 
   993)      8447.4  Rx         0002  2  07 E5 
   994)      8463.9  Rx         0202  1  01 
   995)      8464.5  Rx         0006  2  00 01 
   996)      8464.7  Rx         0011  4  00 C0 00 1F 
   997)      8464.8  Rx         0182  2  00 10 
   998)      8464.9  Rx         0183  2  01 14 
   999)      8485.4  Rx         0005  4  05 F8 05 EB 
  1000)      8486.0  Rx         0002  2  07 E5 
  1001)      8502.5  Rx         0010  8  05 71 06 36 05 D6 05 E0 
  1002)      8524.1  Rx         0005  4  05 F7 05 EC 
  1003)      8524.5  Rx         0002  2  07 E5 
  1004)      8557.5  Rx         0010  8  05 71 06 34 05 D4 05 DB 
  1005)      8578.5  Rx         0005  4  05 F8 05 EB 
  1006)      8579.0  Rx         0002  2  07 E5 
  1007)      8595.1  Rx         0202  1  01 
  1008)      8595.5  Rx         0006  2  00 01 
  1009)      8595.8  Rx         0011  4  00 C0 00 1F 
  1010)      8595.9  Rx         0182  2  00 10 
  1011)      8596.0  Rx         0183  2  01 14 
  1012)      8616.2  Rx         0005  4  05 F6 05 EB 
  1013)      8616.6  Rx         0002  2  07 E5 
  1014)      8634.5  Rx         0010  8  05 70 06 37 05 D6 05 DD 
  1015)      8654.6  Rx         0005  4  05 F7 05 EB 
  1016)      8655.1  Rx         0002  2  07 E5 
  1017)      8680.9  Rx         0005  4  05 F7 05 EC 
  1018)      8681.4  Rx         0002  2  07 E3 
  1019)      8698.2  Rx         0010  8  05 6E 06 36 05 D7 05 DD 
  1020)      8720.1  Rx         0005  4  05 F9 05 E9 
  1021)      8720.6  Rx         0002  2  07 E3 
  1022)      8738.8  Rx         0202  1  01 
  1023)      8739.4  Rx         0006  2  00 01 
  1024)      8739.5  Rx         0011  4  00 C0 00 1F 
  1025)      8739.6  Rx         0182  2  00 10 
  1026)      8739.8  Rx         0183  2  01 14 
  1027)      8758.9  Rx         0005  4  05 F5 05 EA 
  1028)      8759.4  Rx         0002  2  07 E3 
  1029)      8760.0  Tx         0202  1  00 
  1030)      8760.3  Rx         0006  2  00 01 
  1031)      8760.6  Rx         0011  4  00 C0 00 1F 
  1032)      8760.7  Rx         0182  2  00 10 
  1033)      8760.9  Rx         0183  2  01 14 
  1034)      8776.1  Rx         0010  8  05 70 06 35 05 D5 05 DC 
  1035)      8797.8  Rx         0005  4  05 FB 05 EB 
  1036)      8798.1  Rx         0002  2  07 E5 
  1037)      8825.3  Rx         0005  4  05 F6 05 EC 
  1038)      8825.9  Rx         0002  2  07 E5 
  1039)      8831.5  Rx         0010  8  05 72 06 36 05 D7 05 DA 
  1040)      8852.1  Rx         0005  4  05 F9 05 EC 
  1041)      8852.6  Rx         0002  2  07 E5 
  1042)      8875.0  Rx         0202  1  01 
  1043)      8875.6  Rx         0006  2  00 01 
  1044)      8875.8  Rx         0011  4  00 C0 00 1F 
  1045)      8875.9  Rx         0182  2  00 10 
  1046)      8876.0  Rx         0183  2  01 14 
  1047)      8894.1  Rx         0005  4  05 F6 05 EC 
  1048)      8894.7  Rx         0002  2  07 E5 
  1049)      8909.0  Rx         0010  8  05 71 06 37 05 D5 05 DC 
  1050)      8931.8  Rx         0005  4  05 FA 05 E9 
  1051)      8932.3  Rx         0002  2  07 E5 
  1052)      8959.2  Rx         0005  4  05 FA 05 EB 
  1053)      8959.7  Rx         0002  2  07 E6 
  1054)      8973.4  Rx         0010  8  05 6D 06 37 05 D6 05 DA 
  1055)      8998.5  Rx         0005  4  05 F6 05 EC 
  1056)      8999.0  Rx         0002  2  07 E5 
  1057)      9018.0  Rx         0202  1  01 
  1058)      9018.6  Rx         0006  2  00 01 
  1059)      9018.9  Rx         0011  4  00 C0 00 1F 
  1060)      9019.0  Rx         0182  2  00 10 
  1061)      9019.1  Rx         0183  2  01 14 
  1062)      9036.1  Rx         0005  4  05 F3 05 EA 
  1063)      9037.2  Rx         0002  2  07 E3 
  1064)      9046.9  Rx         0010  8  05 71 06 37 05 D9 05 DF 
  1065)      9074.3  Rx         0005  4  05 F7 05 EA 
  1066)      9074.8  Rx         0002  2  07 E3 
  1067)      9101.4  Rx         0005  4  05 FB 05 EB 
  1068)      9102.1  Rx         0002  2  07 E5 
  1069)      9109.6  Rx         0010  8  05 71 06 36 05 D6 05 DD 
  1070)      9138.9  Rx         0005  4  05 F8 05 ED 
  1071)      9139.5  Rx         0002  2  07 E5 
  1072)      9159.2  Rx         0202  1  01 
  1073)      9159.8  Rx         0006  2  00 01 
  1074)      9160.1  Rx         0011  4  00 C0 00 1F 
  1075)      9160.2  Rx         0182  2  00 10 
  1076)      9160.3  Rx         0183  2  01 14 
  1077)      9177.3  Rx         0005  4  05 F9 05 ED 
  1078)      9177.9  Rx         0002  2  07 E3 
  1079)      9183.9  Rx         0010  8  05 70 06 38 05 D8 05 DC 
  1080)      9213.9  Rx         0005  4  05 F8 05 EA 
  1081)      9215.9  Rx         0002  2  07 E5 
  1082)      9245.8  Rx         0005  4  05 F8 05 ED 
  1083)      9246.4  Rx         0002  2  07 E5 
  1084)      9252.3  Rx         0010  8  05 71 06 37 05 D4 05 DC 
  1085)      9274.2  Rx         0005  4  05 F7 05 EB 
  1086)      9274.7  Rx         0002  2  07 E5 
  1087)      9294.8  Rx         0202  1  01 
  1088)      9295.4  Rx         0006  2  00 01 
  1089)      9295.6  Rx         0011  4  00 C0 00 1F 
  1090)      9295.7  Rx         0182  2  00 10 
  1091)      9295.8  Rx         0183  2  01 14 
  1092)      9308.9  Rx         0005  4  05 F8 05 EA 
  1093)      9312.3  Rx         0002  2  07 E5 
  1094)      9319.6  Rx         0010  8  05 71 06 36 05 D4 05 DE 
  1095)      9347.4  Rx         0005  4  05 FA 05 EA 
  1096)      9348.1  Rx         0002  2  07 E5 
  1097)      9379.3  Rx         0005  4  05 FA 05 EB 
  1098)      9379.7  Rx         0002  2  07 E5 
  1099)      9384.8  Rx         0010  8  05 71 06 33 05 D8 05 DE 
  1100)      9408.9  Rx         0005  4  05 F7 05 EB 
  1101)      9409.4  Rx         0002  2  07 E5 
  1102)      9430.4  Rx         0202  1  01 
  1103)      9431.0  Rx         0006  2  00 01 
  1104)      9431.1  Rx         0011  4  00 C0 00 1F 
  1105)      9431.2  Rx         0182  2  00 10 
  1106)      9431.3  Rx         0183  2  01 14 
  1107)      9439.6  Rx         0005  4  05 F7 05 E9 
  1108)      9441.8  Rx         0002  2  07 E5 
  1109)      9452.8  Rx         0010  8  05 70 06 35 05 D6 05 DC 
  1110)      9475.8  Rx         0005  4  05 F9 05 EC 
  1111)      9479.1  Rx         0002  2  07 E5 
  1112)      9518.1  Rx         0010  8  05 71 06 37 05 D7 05 DD 
  1113)      9539.5  Rx         0005  4  05 F7 05 EB 
  1114)      9540.0  Rx         0002  2  07 E5 
  1115)      9561.6  Rx         0202  1  01 
  1116)      9562.2  Rx         0006  2  00 01 
  1117)      9562.4  Rx         0011  4  00 C0 00 1F 
  1118)      9562.5  Rx         0182  2  00 10 
  1119)      9562.6  Rx         0183  2  01 14 
  1120)      9566.1  Rx         0005  4  05 F7 05 EB 
  1121)      9567.4  Rx         0002  2  07 E5 
  1122)      9582.8  Rx         0010  8  05 6E 06 36 05 D8 05 DE 
  1123)      9604.0  Rx         0005  4  05 F8 05 EA 
  1124)      9605.4  Rx         0002  2  07 E5 
  1125)      9641.6  Rx         0005  4  05 F7 05 EE 
  1126)      9642.2  Rx         0002  2  07 E5 
  1127)      9648.6  Rx         0010  8  05 72 06 36 05 D6 05 DC 
  1128)      9669.6  Rx         0005  4  05 F5 05 E9 
  1129)      9670.0  Rx         0002  2  07 E3 
  1130)      9692.6  Rx         0202  1  01 
  1131)      9693.2  Rx         0006  2  00 01 
  1132)      9693.3  Rx         0011  4  00 C0 00 1F 
  1133)      9693.5  Rx         0182  2  00 10 
  1134)      9693.7  Rx         0183  2  01 14 
  1135)      9697.5  Rx         0005  4  05 F9 05 EB 
  1136)      9697.8  Rx         0002  2  07 E3 
  1137)      9713.5  Rx         0010  8  05 70 06 37 05 D4 05 DD 
  1138)      9734.5  Rx         0005  4  05 F6 05 EC 
  1139)      9734.9  Rx         0002  2  07 E3 
  1140)      9759.9  Tx         0202  1  00 
  1141)      9760.1  Rx         0006  2  00 01 
  1142)      9760.4  Rx         0011  4  00 C0 00 1F 
  1143)      9760.6  Rx         0182  2  00 10 
  1144)      9760.7  Rx         0183  2  01 14 
  1145)      9761.5  Rx         0005  4  05 F6 05 EB 
  1146)      9762.2  Rx         0002  2  07 E3 
  1147)      9777.9  Rx         0010  8  05 72 06 34 05 D6 05 DC 
  1148)      9799.1  Rx         0005  4  05 F7 05 EC 
  1149)      9800.2  Rx         0002  2  07 E3 
  1150)      9823.3  Rx         0202  1  01 
  1151)      9824.0  Rx         0006  2  00 01 
  1152)      9824.2  Rx         0011  4  00 C0 00 1F 
  1153)      9824.3  Rx         0182  2  00 10 
  1154)      9824.5  Rx         0183  2  01 14 
  1155)      9826.8  Rx         0005  4  05 F7 05 E9 
  1156)      9827.3  Rx         0002  2  07 E3 
  1157)      9844.1  Rx         0010  8  05 6B 06 35 05 D5 05 DF 
  1158)      9865.2  Rx         0005  4  05 F9 05 ED 
  1159)      9865.5  Rx         0002  2  07 E3 
  1160)      9891.6  Rx         0005  4  05 F7 05 E9 
  1161)      9892.2  Rx         0002  2  07 E3 
  1162)      9908.3  Rx         0010  8  05 6F 06 38 05 D6 05 DD 
  1163)      9929.8  Rx         0005  4  05 F5 05 EB 
  1164)      9930.4  Rx         0002  2  07 E3 
  1165)      9955.1  Rx         0202  1  01 
  1166)      9955.7  Rx         0006  2  00 01 
  1167)      9955.8  Rx         0011  4  00 C0 00 1F 
  1168)      9955.9  Rx         0182  2  00 10 
  1169)      9956.0  Rx         0183  2  01 14 
  1170)      9957.3  Rx         0005  4  05 F8 05 ED 
  1171)      9958.2  Rx         0002  2  07 E3 
  1172)      9974.2  Rx         0010  8  05 70 06 37 05 D8 05 DD 
  1173)      9996.1  Rx         0005  4  05 F8 05 ED 
  1174)      9996.9  Rx         0002  2  07 E3 
  1175)     10023.6  Rx         0005  4  05 F6 05 EB 
  1176)     10023.9  Rx         0002  2  07 E3 
  1177)     10039.5  Rx         0010  8  05 6F 06 34 05 D6 05 DD 
  1178)     10061.0  Rx         0005  4  05 F6 05 E8 
  1179)     10061.4  Rx         0002  2  07 E3 
  1180)     10086.3  Rx         0202  1  01 
  1181)     10087.0  Rx         0006  2  00 01 
  1182)     10087.2  Rx         0011  4  00 C0 00 1F 
  1183)     10087.4  Rx         0182  2  00 10 
  1184)     10087.5  Rx         0183  2  01 14 
  1185)     10088.7  Rx         0005  4  05 F8 05 EB 
  1186)     10089.3  Rx         0002  2  07 E3 
  1187)     10104.4  Rx         0010  8  05 73 06 37 05 D7 05 DC 
  1188)     10126.0  Rx         0005  4  05 F8 05 EC 
  1189)     10126.4  Rx         0002  2  07 E3 
  1190)     10152.9  Rx         0005  4  05 F8 05 EB 
  1191)     10153.5  Rx         0002  2  07 E3 
  1192)     10167.1  Rx         0010  8  05 70 06 36 05 D6 05 DC 
  1193)     10190.6  Rx         0005  4  05 F5 05 EA 
  1194)     10191.1  Rx         0002  2  07 E3 
  1195)     10227.0  Rx         0202  1  01 
  1196)     10227.6  Rx         0006  2  00 01 
  1197)     10227.7  Rx         0011  4  00 C0 00 1F 
  1198)     10227.9  Rx         0182  2  00 10 
  1199)     10228.1  Rx         0183  2  01 14 
  1200)     10228.5  Rx         0005  4  05 FA 05 EB 
  1201)     10229.5  Rx         0002  2  07 E5 
  1202)     10241.3  Rx         0010  8  05 70 06 35 05 D8 05 DF 
  1203)     10267.2  Rx         0005  4  05 F7 05 EB 
  1204)     10267.7  Rx         0002  2  07 E5 
  1205)     10294.3  Rx         0005  4  05 F8 05 E7 
  1206)     10294.7  Rx         0002  2  07 E5 
  1207)     10305.1  Rx         0010  8  05 70 06 34 05 D7 05 DD 
  1208)     10332.5  Rx         0005  4  05 F6 05 E9 
  1209)     10333.1  Rx         0002  2  07 E3 
  1210)     10359.3  Rx         0005  4  05 F7 05 EB 
  1211)     10359.4  Rx         0202  1  01 
  1212)     10360.1  Rx         0006  2  00 01 
  1213)     10360.2  Rx         0002  2  07 E3 
  1214)     10360.3  Rx         0011  4  00 C0 00 1F 
  1215)     10360.6  Rx         0182  2  00 10 
  1216)     10360.8  Rx         0183  2  01 14 
  1217)     10367.9  Rx         0010  8  05 6F 06 36 05 D7 05 DB 
  1218)     10400.3  Rx         0005  4  05 F7 05 EA 
  1219)     10400.9  Rx         0002  2  07 E5 
  1220)     10433.4  Rx         0010  8  05 6E 06 33 05 D6 05 DB 
  1221)     10455.8  Rx         0005  4  05 FC 05 ED 
  1222)     10456.2  Rx         0002  2  07 E5 
  1223)     10482.5  Rx         0005  4  05 F8 05 EF 
  1224)     10483.2  Rx         0002  2  07 E5 
  1225)     10483.8  Rx         0202  1  01 
  1226)     10484.5  Rx         0006  2  00 01 
  1227)     10484.7  Rx         0011  4  00 C0 00 1F 
  1228)     10484.8  Rx         0182  2  00 10 
  1229)     10484.9  Rx         0183  2  01 14 
  1230)     10488.5  Rx         0010  8  05 72 06 37 05 D5 05 DE 
  1231)     10521.9  Rx         0005  4  05 F7 05 EC 
  1232)     10522.2  Rx         0002  2  07 E5 
  1233)     10549.0  Rx         0005  4  05 F6 05 E9 
  1234)     10549.6  Rx         0002  2  07 E5 
  1235)     10554.3  Rx         0010  8  05 70 06 37 05 D5 05 D9 
  1236)     10587.7  Rx         0005  4  05 F9 05 EC 
  1237)     10588.2  Rx         0002  2  07 E5 
  1238)     10615.5  Rx         0005  4  05 F9 05 ED 
  1239)     10615.8  Rx         0002  2  07 E5 
  1240)     10616.9  Rx         0202  1  01 
  1241)     10617.7  Rx         0006  2  00 01 
  1242)     10617.8  Rx         0011  4  00 C0 00 1F 
  1243)     10618.0  Rx         0182  2  00 10 
  1244)     10618.1  Rx         0183  2  01 14 
  1245)     10621.0  Rx         0010  8  05 70 06 37 05 D5 05 DD 
  1246)     10654.7  Rx         0005  4  05 F8 05 EB 
  1247)     10656.5  Rx         0002  2  07 E5 
  1248)     10682.9  Rx         0005  4  05 F5 05 EA 
  1249)     10683.3  Rx         0002  2  07 E3 
  1250)     10688.1  Rx         0010  8  05 71 06 35 05 D6 05 E0 
  1251)     10717.6  Rx         0005  4  05 FA 05 EB 
  1252)     10721.1  Rx         0002  2  07 E5 
  1253)     10747.7  Rx         0005  4  05 F8 05 EF 
  1254)     10748.2  Rx         0002  2  07 E5 
  1255)     10749.4  Rx         0202  1  01 
  1256)     10750.0  Rx         0011  4  00 C0 00 1F 
  1257)     10750.3  Rx         0006  2  00 01 
  1258)     10750.3  Rx         0182  2  00 10 
  1259)     10750.5  Rx         0183  2  01 14 
  1260)     10753.4  Rx         0010  8  05 6F 06 38 05 D4 05 DD 
  1261)     10760.7  Tx         0202  1  00 
  1262)     10762.0  Rx         0006  2  00 01 
  1263)     10762.8  Rx         0011  4  00 C0 00 1F 
  1264)     10763.5  Rx         0182  2  00 10 
  1265)     10764.2  Rx         0183  2  01 14 
  1266)     10783.5  Rx         0005  4  05 F5 05 EB 
  1267)     10787.4  Rx         0002  2  07 E5 
  1268)     10815.1  Rx         0005  4  05 F6 05 E9 
  1269)     10815.7  Rx         0002  2  07 E3 
  1270)     10820.4  Rx         0010  8  05 74 06 37 05 D7 05 DB 
  1271)     10845.0  Rx         0005  4  05 F9 05 EB 
  1272)     10845.4  Rx         0002  2  07 E3 
  1273)     10871.8  Rx         0005  4  05 F9 05 EA 
  1274)     10872.5  Rx         0002  2  07 E5 
  1275)     10875.1  Rx         0202  1  01 
  1276)     10875.6  Rx         0006  2  00 01 
  1277)     10875.8  Rx         0011  4  00 C0 00 1F 
  1278)     10875.9  Rx         0182  2  00 10 
  1279)     10876.0  Rx         0183  2  01 14 
  1280)     10877.3  Rx         0010  8  05 72 06 37 05 D9 05 E0 
  1281)     10902.5  Rx         0005  4  05 F7 05 EE 
  1282)     10905.0  Rx         0002  2  07 E3 
  1283)     10939.5  Rx         0005  4  05 F7 05 EA 
  1284)     10940.3  Rx         0002  2  07 E3 
  1285)     10945.4  Rx         0010  8  05 6D 06 33 05 D6 05 DC 
  1286)     10968.6  Rx         0005  4  05 F9 05 EA 
  1287)     10969.2  Rx         0002  2  07 E5 
  1288)     10996.1  Rx         0005  4  05 F7 05 EC 
  1289)     10996.6  Rx         0002  2  07 E5 
  1290)     11000.4  Rx         0202  1  01 
  1291)     11001.0  Rx         0006  2  00 01 
  1292)     11001.2  Rx         0011  4  00 C0 00 1F 
  1293)     11001.4  Rx         0182  2  00 10 
  1294)     11001.6  Rx         0010  8  05 71 06 33 05 D6 05 DF 
  1295)     11001.7  Rx         0183  2  01 14 
  1296)     11023.7  Rx         0005  4  05 F7 05 EE 
  1297)     11025.0  Rx         0002  2  07 E5 
  1298)     11051.5  Rx         0005  4  05 F5 05 EF 
  1299)     11051.8  Rx         0002  2  07 E3 
  1300)     11057.0  Rx         0010  8  05 70 06 36 05 D4 05 DD 
  1301)     11080.1  Rx         0005  4  05 F6 05 EB 
  1302)     11080.7  Rx         0002  2  07 E3 
  1303)     11107.0  Rx         0005  4  05 F9 05 EB 
  1304)     11107.5  Rx         0002  2  07 E3 
  1305)     11111.5  Rx         0202  1  01 
  1306)     11112.0  Rx         0006  2  00 01 
  1307)     11112.1  Rx         0011  4  00 C0 00 1F 
  1308)     11112.4  Rx         0010  8  05 72 06 35 05 D3 05 DE 
  1309)     11112.5  Rx         0182  2  00 10 
  1310)     11112.7  Rx         0183  2  01 14 
  1311)     11137.7  Rx         0005  4  05 F5 05 EB 
  1312)     11138.4  Rx         0002  2  07 E1 
  1313)     11175.5  Rx         0005  4  05 FA 05 EA 
  1314)     11176.1  Rx         0002  2  07 E3 
  1315)     11179.9  Rx         0010  8  05 71 06 36 05 D6 05 DE 
  1316)     11202.7  Rx         0005  4  05 F9 05 ED 
  1317)     11203.0  Rx         0002  2  07 E3 
  1318)     11230.3  Rx         0005  4  05 F8 05 E9 
  1319)     11231.1  Rx         0002  2  07 E5 
  1320)     11234.9  Rx         0010  8  05 71 06 39 05 D6 05 DC 
  1321)     11235.2  Rx         0202  1  01 
  1322)     11235.8  Rx         0006  2  00 01 
  1323)     11236.1  Rx         0011  4  00 C0 00 1F 
  1324)     11236.2  Rx         0182  2  00 10 
  1325)     11236.3  Rx         0183  2  01 14 
  1326)     11260.4  Rx         0005  4  05 F8 05 E9 
  1327)     11261.0  Rx         0002  2  07 E5 
  1328)     11302.3  Rx         0010  8  05 71 06 32 05 D5 05 DD 
  1329)     11326.6  Rx         0005  4  05 F8 05 EB 
  1330)     11327.1  Rx         0002  2  07 E5 
  1331)     11353.5  Rx         0005  4  05 FA 05 E9 
  1332)     11353.8  Rx         0002  2  07 E6 
  1333)     11368.9  Rx         0010  8  05 6F 06 35 05 D5 05 DE 
  1334)     11371.3  Rx         0202  1  01 
  1335)     11371.9  Rx         0006  2  00 01 
  1336)     11372.1  Rx         0011  4  00 C0 00 1F 
  1337)     11372.2  Rx         0182  2  00 10 
  1338)     11372.3  Rx         0183  2  01 14 
  1339)     11396.0  Rx         0005  4  05 F8 05 EC 
  1340)     11396.7  Rx         0002  2  07 E5 
  1341)     11433.8  Rx         0005  4  05 FA 05 ED 
  1342)     11434.3  Rx         0002  2  07 E6 
  1343)     11438.7  Rx         0010  8  05 70 06 38 05 D4 05 DF 
  1344)     11461.2  Rx         0005  4  05 F4 05 E9 
  1345)     11461.7  Rx         0002  2  07 E5 
  1346)     11488.5  Rx         0005  4  05 F5 05 E9 
  1347)     11489.0  Rx         0002  2  07 E5 
  1348)     11499.0  Rx         0010  8  05 70 06 38 05 D5 05 DE 
  1349)     11505.4  Rx         0202  1  01 
  1350)     11506.0  Rx         0006  2  00 01 
  1351)     11506.3  Rx         0011  4  00 C0 00 1F 
  1352)     11506.5  Rx         0182  2  00 10 
  1353)     11506.5  Rx         0183  2  01 14 
  1354)     11526.2  Rx         0005  4  05 F7 05 EC 
  1355)     11526.7  Rx         0002  2  07 E3 
  1356)     11565.7  Rx         0005  4  05 F7 05 EB 
  1357)     11566.3  Rx         0002  2  07 E3 
  1358)     11569.9  Rx         0010  8  05 71 06 38 05 D6 05 DD 
  1359)     11594.6  Rx         0005  4  05 FA 05 EB 
  1360)     11595.0  Rx         0002  2  07 E3 
  1361)     11621.6  Rx         0005  4  05 F7 05 EB 
  1362)     11622.3  Rx         0002  2  07 E3 
  1363)     11627.9  Rx         0010  8  05 71 06 34 05 D6 05 DC 
  1364)     11640.7  Rx         0202  1  01 
  1365)     11641.4  Rx         0006  2  00 01 
  1366)     11641.5  Rx         0011  4  00 C0 00 1F 
  1367)     11641.6  Rx         0182  2  00 10 
  1368)     11641.8  Rx         0183  2  01 14 
  1369)     11661.5  Rx         0005  4  05 F9 05 E9 
  1370)     11661.9  Rx         0002  2  07 E5 
  1371)     11687.9  Rx         0005  4  05 FA 05 EC 
  1372)     11688.4  Rx         0002  2  07 E5 
  1373)     11692.9  Rx         0010  8  05 70 06 39 05 D5 05 DD 
  1374)     11727.0  Rx         0005  4  05 F8 05 EA 
  1375)     11727.4  Rx         0002  2  07 E5 
  1376)     11753.8  Rx         0005  4  05 F8 05 EC 
  1377)     11754.2  Rx         0002  2  07 E6 
  1378)     11758.6  Rx         0010  8  05 6F 06 37 05 D5 05 DE 
  1379)     11759.9  Tx         0202  1  00 
  1380)     11761.2  Rx         0006  2  00 01 
  1381)     11762.0  Rx         0011  4  00 C0 00 1F 
  1382)     11762.7  Rx         0182  2  00 10 
  1383)     11763.4  Rx         0183  2  01 14 
  1384)     11772.9  Rx         0202  1  01 
  1385)     11773.4  Rx         0006  2  00 01 
  1386)     11773.6  Rx         0011  4  00 C0 00 1F 
  1387)     11773.6  Rx         0182  2  00 10 
  1388)     11773.8  Rx         0183  2  01 14 
  1389)     11792.5  Rx         0005  4  05 F9 05 EB 
  1390)     11792.9  Rx         0002  2  07 E5 
  1391)     11820.6  Rx         0005  4  05 F9 05 EA 
  1392)     11821.0  Rx         0002  2  07 E6 
  1393)     11824.4  Rx         0010  8  05 70 06 37 05 D2 05 DF 
  1394)     11857.6  Rx         0005  4  05 F8 05 EA 
  1395)     11857.8  Rx         0002  2  07 E6 
  1396)     11886.5  Rx         0005  4  05 F9 05 EC 
  1397)     11887.0  Rx         0002  2  07 E5 
  1398)     11890.4  Rx         0010  8  05 70 06 38 05 D4 05 DC 
  1399)     11902.6  Rx         0202  1  01 
  1400)     11903.8  Rx         0006  2  00 01 
  1401)     11904.7  Rx         0011  4  00 C0 00 1F 
  1402)     11905.4  Rx         0182  2  00 10 
  1403)     11906.1  Rx         0183  2  01 14 
  1404)     11924.4  Rx         0005  4  05 F7 05 EB 
  1405)     11925.5  Rx         0002  2  07 E5 
  1406)     11951.7  Rx         0005  4  05 F6 05 EC 
  1407)     11952.0  Rx         0002  2  07 E5 
  1408)     11956.6  Rx         0010  8  05 6F 06 39 05 D8 05 DE 
  1409)     11989.8  Rx         0005  4  05 F7 05 EB 
  1410)     11990.3  Rx         0002  2  07 E5 
  1411)     12015.9  Rx         0005  4  05 F8 05 EB 
  1412)     12016.1  Rx         0002  2  07 E5 
  1413)     12020.8  Rx         0010  8  05 6F 06 37 05 D6 05 DD 
  1414)     12037.4  Rx         0202  1  01 
  1415)     12038.0  Rx         0006  2  00 01 
  1416)     12038.3  Rx         0011  4  00 C0 00 1F 
  1417)     12038.4  Rx         0182  2  00 10 
  1418)     12038.5  Rx         0183  2  01 14 
  1419)     12058.6  Rx         0005  4  05 F6 05 EB 
  1420)     12059.5  Rx         0002  2  07 E3 
  1421)     12086.9  Rx         0005  4  05 F6 05 EB 
  1422)     12087.3  Rx         0002  2  07 E3 
  1423)     12090.5  Rx         0010  8  05 72 06 33 05 D5 05 DE 
  1424)     12124.2  Rx         0005  4  05 F6 05 EE 
  1425)     12127.1  Rx         0002  2  07 E1 
  1426)     12155.0  Rx         0005  4  05 F4 05 EA 
  1427)     12155.4  Rx         0002  2  07 E1 
  1428)     12158.3  Rx         0010  8  05 71 06 34 05 D6 05 DF 
  1429)     12176.0  Rx         0202  1  01 
  1430)     12176.6  Rx         0006  2  00 01 
  1431)     12176.8  Rx         0011  4  00 C0 00 1F 
  1432)     12176.9  Rx         0182  2  00 10 
  1433)     12177.1  Rx         0183  2  01 14 
  1434)     12188.8  Rx         0005  4  05 F7 05 EB 
  1435)     12192.1  Rx         0002  2  07 E1 
  1436)     12224.9  Rx         0010  8  05 70 06 38 05 D7 05 DD 
  1437)     12242.8  Rx         0005  4  05 FA 05 EC 
  1438)     12246.3  Rx         0002  2  07 E1 
  1439)     12276.6  Rx         0005  4  05 F8 05 ED 
  1440)     12277.4  Rx         0002  2  07 E3 
  1441)     12281.4  Rx         0010  8  05 70 06 37 05 D4 05 DD 
  1442)     12298.6  Rx         0202  1  01 
  1443)     12299.3  Rx         0006  2  00 01 
  1444)     12299.5  Rx         0011  4  00 C0 00 1F 
  1445)     12299.8  Rx         0182  2  00 10 
  1446)     12299.9  Rx         0183  2  01 14 
  1447)     12307.9  Rx         0005  4  05 F7 05 EB 
  1448)     12311.8  Rx         0002  2  07 E3 
  1449)     12343.2  Rx         0005  4  05 F7 05 E9 
  1450)     12344.1  Rx         0002  2  07 E3 
  1451)     12347.9  Rx         0010  8  05 6E 06 36 05 D4 05 DA 
  1452)     12373.0  Rx         0005  4  05 FA 05 EB 
  1453)     12373.4  Rx         0002  2  07 E5 
  1454)     12400.4  Rx         0005  4  05 F8 05 EB 
  1455)     12401.0  Rx         0002  2  07 E5 
  1456)     12403.9  Rx         0010  8  05 70 06 31 05 D3 05 DD 
  1457)     12423.5  Rx         0202  1  01 
  1458)     12424.0  Rx         0006  2  00 01 
  1459)     12424.3  Rx         0011  4  00 C0 00 1F 
  1460)     12424.4  Rx         0182  2  00 10 
  1461)     12424.5  Rx         0183  2  01 14 
  1462)     12427.9  Rx         0005  4  05 F5 05 EB 
  1463)     12429.1  Rx         0002  2  07 E5 
  1464)     12465.7  Rx         0005  4  05 FD 05 EA 
  1465)     12466.4  Rx         0002  2  07 E5 
  1466)     12469.0  Rx         0010  8  05 6F 06 33 05 D6 05 DD 
  1467)     12492.4  Rx         0005  4  05 F5 05 EB 
  1468)     12493.0  Rx         0002  2  07 E5 
  1469)     12520.1  Rx         0005  4  05 F7 05 EA 
  1470)     12520.5  Rx         0002  2  07 E5 
  1471)     12523.7  Rx         0010  8  05 6F 06 38 05 D6 05 DF 
  1472)     12546.4  Rx         0202  1  01 
  1473)     12547.0  Rx         0006  2  00 01 
  1474)     12547.1  Rx         0011  4  00 C0 00 1F 
  1475)     12547.3  Rx         0182  2  00 10 
  1476)     12547.4  Rx         0183  2  01 14 
  1477)     12550.7  Rx         0005  4  05 F6 05 EA 
  1478)     12551.1  Rx         0002  2  07 E3 
  1479)     12577.0  Rx         0005  4  05 F9 05 ED 
  1480)     12577.4  Rx         0002  2  07 E5 
  1481)     12591.7  Rx         0010  8  05 6F 06 38 05 D4 05 DF 
  1482)     12616.5  Rx         0005  4  05 F5 05 EB 
  1483)     12617.1  Rx         0002  2  07 E5 
  1484)     12643.1  Rx         0005  4  05 F8 05 ED 
  1485)     12643.5  Rx         0002  2  07 E3 
  1486)     12647.3  Rx         0010  8  05 70 06 37 05 D1 05 DD 
  1487)     12667.2  Rx         0202  1  01 
  1488)     12667.8  Rx         0006  2  00 01 
  1489)     12668.1  Rx         0011  4  00 C0 00 1F 
  1490)     12668.2  Rx         0182  2  00 10 
  1491)     12668.4  Rx         0183  2  01 14 
  1492)     12670.7  Rx         0005  4  05 FB 05 EB 
  1493)     12671.1  Rx         0002  2  07 E5 
  1494)     12709.0  Rx         0005  4  05 F8 05 F1 
  1495)     12709.4  Rx         0002  2  07 E5 
  1496)     12719.9  Rx         0010  8  05 6E 06 34 05 D3 05 DB 
  1497)     12748.3  Rx         0005  4  05 F8 05 EB 
  1498)     12748.7  Rx         0002  2  07 E5 
  1499)     12761.1  Tx         0202  1  00 
  1500)     12762.4  Rx         0006  2  00 01 
  1501)     12763.2  Rx         0011  4  00 C0 00 1F 
  1502)     12763.9  Rx         0182  2  00 10 
  1503)     12764.1  Rx         0183  2  01 14 
  1504)     12787.4  Rx         0005  4  05 F6 05 ED 
  1505)     12788.1  Rx         0002  2  07 E5 
  1506)     12790.4  Rx         0010  8  05 6D 06 32 05 D7 05 DB 
  1507)     12811.6  Rx         0202  1  01 
  1508)     12812.3  Rx         0006  2  00 01 
  1509)     12812.5  Rx         0011  4  00 C0 00 1F 
  1510)     12812.6  Rx         0182  2  00 10 
  1511)     12812.7  Rx         0183  2  01 14 
  1512)     12814.8  Rx         0005  4  05 F6 05 EA 
  1513)     12815.6  Rx         0002  2  07 E5 
  1514)     12853.0  Rx         0005  4  05 F6 05 EE 
  1515)     12853.8  Rx         0002  2  07 E5 
  1516)     12859.8  Rx         0010  8  05 6F 06 35 05 D4 05 DC 
  1517)     12892.9  Rx         0005  4  05 F7 05 EB 
  1518)     12893.1  Rx         0002  2  07 E3 
  1519)     12919.2  Rx         0005  4  05 F7 05 EB 
  1520)     12919.6  Rx         0002  2  07 E3 
  1521)     12923.2  Rx         0010  8  05 6D 06 36 05 D4 05 DB 
  1522)     12947.1  Rx         0202  1  01 
  1523)     12947.7  Rx         0006  2  00 01 
  1524)     12947.9  Rx         0011  4  00 C0 00 1F 
  1525)     12948.1  Rx         0182  2  00 10 
  1526)     12948.2  Rx         0183  2  01 14 
  1527)     12948.8  Rx         0005  4  05 F7 05 EB 
  1528)     12949.7  Rx         0002  2  07 E1 
  1529)     12975.7  Rx         0005  4  05 F7 05 EA 
  1530)     12976.7  Rx         0002  2  07 E3 
  1531)     12979.6  Rx         0010  8  05 6F 06 37 05 D4 05 DD 
  1532)     13014.2  Rx         0005  4  05 F6 05 EC 
  1533)     13014.9  Rx         0002  2  07 E3 
  1534)     13041.3  Rx         0005  4  05 F7 05 ED 
  1535)     13041.6  Rx         0002  2  07 E3 
  1536)     13044.1  Rx         0010  8  05 70 06 35 05 D5 05 DA 
  1537)     13068.9  Rx         0202  1  01 
  1538)     13069.4  Rx         0006  2  00 01 
  1539)     13069.6  Rx         0005  4  05 FA 05 EA 
  1540)     13069.8  Rx         0011  4  00 C0 00 1F 
  1541)     13070.0  Rx         0182  2  00 10 
  1542)     13070.2  Rx         0183  2  01 14 
  1543)     13070.4  Rx         0002  2  07 E3 
  1544)     13110.5  Rx         0010  8  05 70 06 34 05 D6 05 DC 
  1545)     13136.7  Rx         0005  4  05 F9 05 EB 
  1546)     13137.2  Rx         0002  2  07 E5 
  1547)     13165.1  Rx         0005  4  05 F6 05 EE 
  1548)     13165.6  Rx         0002  2  07 E5 
  1549)     13167.9  Rx         0010  8  05 72 06 36 05 D6 05 DD 
  1550)     13205.1  Rx         0202  1  01 
  1551)     13205.7  Rx         0006  2  00 01 
  1552)     13205.8  Rx         0011  4  00 C0 00 1F 
  1553)     13206.0  Rx         0005  4  05 F6 05 EB 
  1554)     13206.1  Rx         0182  2  00 10 
  1555)     13206.2  Rx         0183  2  01 14 
  1556)     13206.8  Rx         0002  2  07 E3 
  1557)     13232.6  Rx         0005  4  05 F9 05 EB 
  1558)     13233.2  Rx         0002  2  07 E5 
  1559)     13236.1  Rx         0010  8  05 6F 06 34 05 D5 05 DD 
  1560)     13263.5  Rx         0005  4  05 F9 05 EC 
  1561)     13264.0  Rx         0002  2  07 E5 
  1562)     13290.9  Rx         0005  4  05 F9 05 ED 
  1563)     13291.3  Rx         0002  2  07 E5 
  1564)     13294.0  Rx         0010  8  05 6F 06 35 05 D6 05 DC 
  1565)     13328.3  Rx         0005  4  05 F8 05 EB 
  1566)     13328.8  Rx         0202  1  01 
  1567)     13329.3  Rx         0002  2  07 E5 
  1568)     13329.3  Rx         0006  2  00 01 
  1569)     13329.7  Rx         0011  4  00 C0 00 1F 
  1570)     13329.7  Rx         0182  2  00 10 
  1571)     13329.9  Rx         0183  2  01 14 
  1572)     13366.1  Rx         0005  4  05 F6 05 EC 
  1573)     13366.4  Rx         0002  2  07 E5 
  1574)     13369.0  Rx         0010  8  05 73 06 36 05 D8 05 DF 
  1575)     13393.6  Rx         0005  4  05 F8 05 EB 
  1576)     13394.1  Rx         0002  2  07 E5 
  1577)     13420.6  Rx         0005  4  05 F7 05 EB 
  1578)     13421.2  Rx         0002  2  07 E5 
  1579)     13423.3  Rx         0010  8  05 71 06 37 05 D9 05 DE 
  1580)     13460.6  Rx         0005  4  05 F7 05 E9 
  1581)     13461.8  Rx         0002  2  07 E5 
  1582)     13462.9  Rx         0202  1  01 
  1583)     13463.7  Rx         0006  2  00 01 
  1584)     13464.1  Rx         0011  4  00 C0 00 1F 
  1585)     13464.3  Rx         0182  2  00 10 
  1586)     13464.5  Rx         0183  2  01 14 
  1587)     13498.9  Rx         0005  4  05 F7 05 EA 
  1588)     13500.3  Rx         0002  2  07 E3 
  1589)     13502.2  Rx         0010  8  05 6F 06 33 05 D4 05 DE 
  1590)     13529.0  Rx         0005  4  05 FA 05 EA 
  1591)     13529.3  Rx         0002  2  07 E5 
  1592)     13555.9  Rx         0005  4  05 F7 05 E9 
  1593)     13556.6  Rx         0002  2  07 E5 
  1594)     13559.2  Rx         0010  8  05 70 06 35 05 D3 05 DB 
  1595)     13584.8  Rx         0005  4  05 F6 05 EB 
  1596)     13585.3  Rx         0002  2  07 E3 
  1597)     13587.1  Rx         0202  1  01 
  1598)     13587.6  Rx         0006  2  00 01 
  1599)     13587.7  Rx         0011  4  00 C0 00 1F 
  1600)     13587.9  Rx         0182  2  00 10 
  1601)     13588.1  Rx         0183  2  01 14 
  1602)     13612.9  Rx         0005  4  05 F7 05 E9 
  1603)     13613.4  Rx         0002  2  07 E3 
  1604)     13615.6  Rx         0010  8  05 6F 06 34 05 D5 05 E0 
  1605)     13639.9  Rx         0005  4  05 F9 05 EB 
  1606)     13640.5  Rx         0002  2  07 E5 
  1607)     13667.0  Rx         0005  4  05 F8 05 ED 
  1608)     13667.3  Rx         0002  2  07 E5 
  1609)     13669.8  Rx         0010  8  05 6E 06 34 05 D5 05 DC 
  1610)     13693.4  Rx         0005  4  05 F6 05 EE 
  1611)     13694.6  Rx         0002  2  07 E3 
  1612)     13696.6  Rx         0202  1  01 
  1613)     13697.4  Rx         0006  2  00 01 
  1614)     13697.6  Rx         0011  4  00 C0 00 1F 
  1615)     13697.7  Rx         0182  2  00 10 
  1616)     13697.8  Rx         0183  2  01 14 
  1617)     13723.4  Rx         0005  4  05 F9 05 E9 
  1618)     13725.9  Rx         0002  2  07 E5 
  1619)     13734.6  Rx         0010  8  05 71 06 36 05 D6 05 DD 
  1620)     13760.6  Tx         0202  1  00 
  1621)     13761.1  Rx         0006  2  00 01 
  1622)     13761.3  Rx         0011  4  00 C0 00 1F 
  1623)     13761.3  Rx         0182  2  00 10 
  1624)     13761.5  Rx         0183  2  01 14 
  1625)     13762.5  Rx         0005  4  05 F9 05 EB 
  1626)     13763.0  Rx         0002  2  07 E5 
  1627)     13790.6  Rx         0005  4  05 F8 05 EB 
  1628)     13791.1  Rx         0002  2  07 E5 
  1629)     13793.2  Rx         0010  8  05 6F 06 36 05 D9 05 DD 
  1630)     13817.8  Rx         0005  4  05 F9 05 EC 
  1631)     13818.3  Rx         0002  2  07 E5 
  1632)     13821.2  Rx         0202  1  01 
  1633)     13821.8  Rx         0006  2  00 01 
  1634)     13821.9  Rx         0011  4  00 C0 00 1F 
  1635)     13822.2  Rx         0182  2  00 10 
  1636)     13822.2  Rx         0183  2  01 14 
  1637)     13845.3  Rx         0005  4  05 F7 05 EA 
  1638)     13846.5  Rx         0002  2  07 E5 
  1639)     13858.3  Rx         0010  8  05 72 06 35 05 D8 05 DF 
  1640)     13883.7  Rx         0005  4  05 F8 05 E9 
  1641)     13884.2  Rx         0002  2  07 E5 
  1642)     13911.0  Rx         0005  4  05 F7 05 EA 
  1643)     13911.7  Rx         0002  2  07 E5 
  1644)     13922.9  Rx         0010  8  05 6F 06 34 05 D4 05 DD 
  1645)     13949.3  Rx         0005  4  05 F8 05 EE 
  1646)     13949.8  Rx         0002  2  07 E5 
  1647)     13954.2  Rx         0202  1  01 
  1648)     13954.7  Rx         0006  2  00 01 
  1649)     13954.9  Rx         0011  4  00 C0 00 1F 
  1650)     13955.1  Rx         0182  2  00 10 
  1651)     13955.2  Rx         0183  2  01 14 
  1652)     13976.6  Rx         0005  4  05 F7 05 EA 
  1653)     13977.3  Rx         0002  2  07 E5 
  1654)     13986.2  Rx         0010  8  05 70 06 39 05 D4 05 DB 
  1655)     14018.6  Rx         0005  4  05 F9 05 ED 
  1656)     14019.0  Rx         0002  2  07 E5 
  1657)     14045.6  Rx         0005  4  05 F7 05 ED 
  1658)     14046.0  Rx         0002  2  07 E5 
  1659)     14051.7  Rx         0010  8  05 70 06 35 05 D6 05 DB 
  1660)     14083.2  Rx         0005  4  05 F7 05 EA 
  1661)     14084.3  Rx         0002  2  07 E5 
  1662)     14099.5  Rx         0202  1  01 
  1663)     14100.1  Rx         0006  2  00 01 
  1664)     14100.3  Rx         0011  4  00 C0 00 1F 
  1665)     14100.4  Rx         0182  2  00 10 
  1666)     14100.5  Rx         0183  2  01 14 
  1667)     14122.4  Rx         0005  4  05 F7 05 EC 
  1668)     14122.8  Rx         0002  2  07 E5 
  1669)     14125.0  Rx         0010  8  05 72 06 37 05 D5 05 DE 
  1670)     14149.2  Rx         0005  4  05 FA 05 EB 
  1671)     14149.8  Rx         0002  2  07 E5 
  1672)     14176.4  Rx         0005  4  05 F8 05 EA 
  1673)     14176.9  Rx         0002  2  07 E5 
  1674)     14178.8  Rx         0010  8  05 72 06 36 05 D6 05 DE 
  1675)     14214.6  Rx         0005  4  05 F9 05 EB 
  1676)     14215.0  Rx         0002  2  07 E5 
  1677)     14231.3  Rx         0202  1  01 
  1678)     14231.9  Rx         0006  2  00 01 
  1679)     14232.1  Rx         0011  4  00 C0 00 1F 
  1680)     14232.2  Rx         0182  2  00 10 
  1681)     14232.3  Rx         0183  2  01 14 
  1682)     14252.6  Rx         0005  4  05 F6 05 EC 
  1683)     14253.2  Rx         0002  2  07 E5 
  1684)     14255.0  Rx         0010  8  05 6F 06 35 05 D6 05 DE 
  1685)     14291.7  Rx         0005  4  05 F9 05 EB 
  1686)     14292.2  Rx         0002  2  07 E5 
  1687)     14318.5  Rx         0005  4  05 F6 05 E9 
  1688)     14319.1  Rx         0002  2  07 E5 
  1689)     14320.9  Rx         0010  8  05 72 06 36 05 D5 05 DC 
  1690)     14345.9  Rx         0005  4  05 F6 05 E9 
  1691)     14346.4  Rx         0002  2  07 E3 
  1692)     14362.6  Rx         0202  1  01 
  1693)     14363.2  Rx         0006  2  00 01 
  1694)     14363.4  Rx         0011  4  00 C0 00 1F 
  1695)     14363.6  Rx         0182  2  00 10 
  1696)     14363.7  Rx         0183  2  01 14 
  1697)     14383.7  Rx         0005  4  05 F9 05 EC 
  1698)     14384.0  Rx         0002  2  07 E5 
  1699)     14385.6  Rx         0010  8  05 6D 06 36 05 D5 05 DE 
  1700)     14422.8  Rx         0005  4  05 F9 05 EB 
  1701)     14423.3  Rx         0002  2  07 E5 
  1702)     14449.9  Rx         0005  4  05 F6 05 ED 
  1703)     14450.6  Rx         0002  2  07 E5 
  1704)     14452.5  Rx         0010  8  05 71 06 35 05 D5 05 DC 
  1705)     14478.0  Rx         0005  4  05 F8 05 ED 
  1706)     14478.6  Rx         0002  2  07 E3 
  1707)     14496.8  Rx         0202  1  01 
  1708)     14497.3  Rx         0006  2  00 01 
  1709)     14497.5  Rx         0011  4  00 C0 00 1F 
  1710)     14497.6  Rx         0182  2  00 10 
  1711)     14497.7  Rx         0183  2  01 14 
  1712)     14516.7  Rx         0005  4  05 F9 05 EB 
  1713)     14517.1  Rx         0002  2  07 E5 
  1714)     14519.0  Rx         0010  8  05 71 06 35 05 D6 05 DB 
  1715)     14555.1  Rx         0005  4  05 F7 05 EB 
  1716)     14555.5  Rx         0002  2  07 E5 
  1717)     14593.6  Rx         0005  4  05 F8 05 E9 
  1718)     14594.1  Rx         0002  2  07 E5 
  1719)     14595.8  Rx         0010  8  05 70 06 38 05 D7 05 DC 
  1720)     14621.9  Rx         0005  4  05 F9 05 EC 
  1721)     14623.2  Rx         0002  2  07 E5 
  1722)     14640.6  Rx         0202  1  01 
  1723)     14641.1  Rx         0006  2  00 01 
  1724)     14641.2  Rx         0011  4  00 C0 00 1F 
  1725)     14641.3  Rx         0182  2  00 10 
  1726)     14641.5  Rx         0183  2  01 14 
  1727)     14660.0  Rx         0005  4  05 F7 05 E8 
  1728)     14660.6  Rx         0002  2  07 E5 
  1729)     14662.3  Rx         0010  8  05 6F 06 37 05 D5 05 DB 
  1730)     14714.2  Rx         0005  4  05 F8 05 EA 
  1731)     14714.6  Rx         0002  2  07 E5 
  1732)     14716.0  Rx         0010  8  05 73 06 38 05 D7 05 DF 
  1733)     14742.8  Rx         0005  4  05 F9 05 ED 
  1734)     14743.2  Rx         0002  2  07 E5 
  1735)     14761.4  Tx         0202  1  00 
  1736)     14761.7  Rx         0006  2  00 01 
  1737)     14761.9  Rx         0011  4  00 C0 00 1F 
  1738)     14762.0  Rx         0182  2  00 10 
  1739)     14762.1  Rx         0183  2  01 14 
  1740)     14762.6  Rx         0202  1  01 
  1741)     14763.4  Rx         0006  2  00 01 
  1742)     14763.7  Rx         0011  4  00 C0 00 1F 
  1743)     14763.8  Rx         0182  2  00 10 
  1744)     14763.9  Rx         0183  2  01 14 
  1745)     14781.9  Rx         0005  4  05 F8 05 ED 
  1746)     14782.5  Rx         0002  2  07 E5 
  1747)     14783.5  Rx         0010  8  05 6F 06 36 05 D8 05 DE 
  1748)     14808.2  Rx         0005  4  05 FA 05 EC 
  1749)     14808.8  Rx         0002  2  07 E5 
  1750)     14835.4  Rx         0005  4  05 F7 05 ED 
  1751)     14836.1  Rx         0002  2  07 E5 
  1752)     14837.3  Rx         0010  8  05 70 06 38 05 D6 05 DC 
  1753)     14863.7  Rx         0005  4  05 F5 05 EA 
  1754)     14864.1  Rx         0002  2  07 E5 
  1755)     14883.7  Rx         0202  1  01 
  1756)     14884.4  Rx         0006  2  00 01 
  1757)     14884.6  Rx         0011  4  00 C0 00 1F 
  1758)     14884.7  Rx         0182  2  00 10 
  1759)     14884.9  Rx         0183  2  01 14 
  1760)     14901.3  Rx         0005  4  05 F7 05 ED 
  1761)     14902.6  Rx         0002  2  07 E5 
  1762)     14904.1  Rx         0010  8  05 70 06 32 05 D6 05 DE 
  1763)     14933.2  Rx         0005  4  05 F7 05 EA 
  1764)     14934.0  Rx         0002  2  07 E3 
  1765)     14960.1  Rx         0005  4  05 F8 05 E9 
  1766)     14960.5  Rx         0002  2  07 E3 
  1767)     14962.0  Rx         0010  8  05 70 06 38 05 D7 05 DC 
  1768)     14987.7  Rx         0005  4  05 F7 05 ED 
  1769)     14988.4  Rx         0002  2  07 E3 
  1770)     15008.9  Rx         0202  1  01 
  1771)     15009.5  Rx         0006  2  00 01 
  1772)     15009.6  Rx         0011  4  00 C0 00 1F 
  1773)     15009.7  Rx         0182  2  00 10 
  1774)     15009.9  Rx         0183  2  01 14 
  1775)     15020.9  Rx         0005  4  05 F5 05 ED 
  1776)     15023.6  Rx         0002  2  07 E1 
  1777)     15027.9  Rx         0010  8  05 70 06 35 05 D6 05 DC 
  1778)     15054.7  Rx         0005  4  05 F8 05 EE 
  1779)     15055.0  Rx         0002  2  07 E3 
  1780)     15082.8  Rx         0005  4  05 F9 05 ED 
  1781)     15083.3  Rx         0002  2  07 E3 
  1782)     15084.0  Rx         0010  8  05 6F 06 34 05 D6 05 DC 
  1783)     15110.3  Rx         0005  4  05 FA 05 EE 
  1784)     15110.7  Rx         0002  2  07 E5 
  1785)     15132.0  Rx         0202  1  01 
  1786)     15132.6  Rx         0006  2  00 01 
  1787)     15132.8  Rx         0011  4  00 C0 00 1F 
  1788)     15132.9  Rx         0182  2  00 10 
  1789)     15133.0  Rx         0183  2  01 14 
  1790)     15140.1  Rx         0005  4  05 F8 05 EE 
  1791)     15143.4  Rx         0002  2  07 E5 
  1792)     15149.6  Rx         0010  8  05 6F 06 37 05 D2 05 DA 
  1793)     15176.7  Rx         0005  4  05 F7 05 EE 
  1794)     15177.0  Rx         0002  2  07 E5 
  1795)     15204.0  Rx         0005  4  05 F5 05 F1 
  1796)     15204.7  Rx         0002  2  07 E5 
  1797)     15205.8  Rx         0010  8  05 6E 06 35 05 D6 05 E0 
  1798)     15235.3  Rx         0005  4  05 F9 05 F1 
  1799)     15235.8  Rx         0002  2  07 E5 
  1800)     15257.2  Rx         0202  1  01 
  1801)     15257.8  Rx         0006  2  00 01 
  1802)     15258.0  Rx         0011  4  00 C0 00 1F 
  1803)     15258.2  Rx         0182  2  00 10 
  1804)     15258.2  Rx         0183  2  01 14 
  1805)     15261.8  Rx         0005  4  05 F8 05 EF 
  1806)     15262.2  Rx         0002  2  07 E5 
  1807)     15269.0  Rx         0010  8  05 71 06 37 05 D7 05 DE 
  1808)     15301.9  Rx         0005  4  05 F8 05 F5 
  1809)     15302.4  Rx         0002  2  07 E5 
  1810)     15328.3  Rx         0005  4  05 F7 05 F3 
  1811)     15328.6  Rx         0002  2  07 E3 
  1812)     15330.5  Rx         0010  8  05 70 06 38 05 D8 05 D8 
  1813)     15357.1  Rx         0005  4  05 F8 05 F2 
  1814)     15357.7  Rx         0002  2  07 E5 
  1815)     15380.8  Rx         0202  1  01 
  1816)     15381.4  Rx         0006  2  00 01 
  1817)     15381.6  Rx         0011  4  00 C0 00 1F 
  1818)     15381.6  Rx         0182  2  00 10 
  1819)     15381.8  Rx         0183  2  01 14 
  1820)     15385.6  Rx         0005  4  05 FA 05 F5 
  1821)     15386.0  Rx         0002  2  07 E5 
  1822)     15388.3  Rx         0010  8  05 72 06 37 05 D7 05 DD 
  1823)     15422.4  Rx         0005  4  05 F7 05 FA 
  1824)     15423.1  Rx         0002  2  07 E5 
  1825)     15449.6  Rx         0005  4  05 F8 06 0F 
  1826)     15450.1  Rx         0002  2  07 E5 
  1827)     15451.0  Rx         0010  8  05 6E 06 35 05 D7 05 DC 
  1828)     15476.3  Rx         0005  4  05 F9 06 5F 
  1829)     15477.4  Rx         0002  2  07 E5 
  1830)     15501.2  Rx         0202  1  01 
  1831)     15501.8  Rx         0006  2  00 01 
  1832)     15502.0  Rx         0011  4  00 C0 00 1F 
  1833)     15502.1  Rx         0182  2  00 10 
  1834)     15502.2  Rx         0183  2  01 14 
  1835)     15504.8  Rx         0005  4  05 FA 06 D2 
  1836)     15505.3  Rx         0002  2  07 E6 
  1837)     15506.2  Rx         0010  8  05 6D 06 36 05 D8 05 DC 
  1838)     15549.2  Rx         0005  4  05 F8 07 03 
  1839)     15549.8  Rx         0002  2  07 E6 
  1840)     15550.5  Rx         0010  8  05 71 06 38 05 D6 05 DB 
  1841)     15588.6  Rx         0005  4  05 F9 06 FF 
  1842)     15589.2  Rx         0002  2  07 E5 
  1843)     15613.0  Rx         0202  1  01 
  1844)     15613.7  Rx         0006  2  00 01 
  1845)     15613.8  Rx         0011  4  00 C0 00 1F 
  1846)     15614.0  Rx         0182  2  00 10 
  1847)     15614.1  Rx         0183  2  01 14 
  1848)     15615.3  Rx         0005  4  05 FB 07 0F 
  1849)     15616.4  Rx         0002  2  07 E6 
  1850)     15617.2  Rx         0010  8  05 71 06 36 05 D4 05 DE 
  1851)     15654.1  Rx         0005  4  05 FD 07 3B 
  1852)     15654.4  Rx         0002  2  07 E8 
  1853)     15682.0  Rx         0005  4  05 F8 07 57 
  1854)     15682.4  Rx         0002  2  07 E8 
  1855)     15683.0  Rx         0010  8  05 71 06 38 05 D3 05 DF 
  1856)     15721.1  Rx         0005  4  05 FA 07 5E 
  1857)     15721.5  Rx         0002  2  07 E8 
  1858)     15746.7  Rx         0202  1  01 
  1859)     15747.3  Rx         0006  2  00 01 
  1860)     15747.5  Rx         0011  4  00 C0 00 1F 
  1861)     15747.7  Rx         0182  2  00 10 
  1862)     15747.8  Rx         0183  2  01 14 
  1863)     15749.0  Rx         0005  4  05 F9 07 71 
  1864)     15749.7  Rx         0002  2  07 E8 
  1865)     15750.4  Rx         0010  8  05 71 06 35 05 D6 05 DC 
  1866)     15760.1  Tx         0202  1  00 
  1867)     15761.4  Rx         0006  2  00 01 
  1868)     15762.2  Rx         0011  4  00 C0 00 1F 
  1869)     15762.9  Rx         0182  2  00 10 
  1870)     15763.6  Rx         0183  2  01 14 
  1871)     15789.2  Rx         0005  4  05 F9 07 C1 
  1872)     15789.6  Rx         0002  2  07 E8 
  1873)     15816.5  Rx         0005  4  05 FA 07 F5 
  1874)     15817.1  Rx         0002  2  07 E8 
  1875)     15817.5  Rx         0010  8  05 72 06 39 05 D7 05 DE 
  1876)     15844.8  Rx         0005  4  05 F6 07 F5 
  1877)     15844.9  Rx         0002  2  07 E6 
  1878)     15870.5  Rx         0202  1  01 
  1879)     15871.0  Rx         0006  2  00 01 
  1880)     15871.2  Rx         0011  4  00 C0 00 1F 
  1881)     15871.3  Rx         0182  2  00 10 
  1882)     15871.4  Rx         0183  2  01 14 
  1883)     15872.0  Rx         0005  4  05 F8 07 F4 
  1884)     15872.7  Rx         0002  2  07 E6 
  1885)     15873.0  Rx         0010  8  05 70 06 3A 05 D8 05 DB 
  1886)     15901.6  Rx         0005  4  05 F8 07 F5 
  1887)     15902.0  Rx         0002  2  07 E5 
  1888)     15928.4  Rx         0005  4  05 F9 07 FA 
  1889)     15928.7  Rx         0002  2  07 E5 
  1890)     15929.3  Rx         0010  8  05 6E 06 37 05 D6 05 DC 
  1891)     15956.4  Rx         0005  4  05 F6 08 17 
  1892)     15956.8  Rx         0002  2  07 E5 
  1893)     15984.3  Rx         0202  1  01 
  1894)     15984.4  Rx         0005  4  05 F9 08 42 
  1895)     15984.8  Rx         0006  2  00 01 
  1896)     15984.9  Rx         0011  4  00 C0 00 1F 
  1897)     15985.0  Rx         0182  2  00 10 
  1898)     15985.0  Rx         0002  2  07 E5 
  1899)     15985.1  Rx         0183  2  01 14 
  1900)     15985.5  Rx         0010  8  05 6F 06 37 05 D8 05 DD 
  1901)     16022.5  Rx         0005  4  05 F6 08 59 
  1902)     16023.0  Rx         0002  2  07 E5 
  1903)     16049.9  Rx         0005  4  05 F6 08 53 
  1904)     16050.4  Rx         0002  2  07 E3 
  1905)     16050.9  Rx         0010  8  05 6F 06 36 05 D6 05 DD 
  1906)     16078.9  Rx         0005  4  05 F6 08 62 
  1907)     16079.4  Rx         0002  2  07 E3 
  1908)     16106.4  Rx         0005  4  05 F9 08 82 
  1909)     16106.8  Rx         0002  2  07 E3 
  1910)     16107.3  Rx         0010  8  05 6C 06 37 05 D9 05 DE 
