;$FILEVERSION=1.1
;$STARTTIME=41711.3585139931
;
;   C:\Documents and Settings\Administrator\Desktop\ltdsaas.trc
;
;   Start time: 3/13/2014 08:36:15.609.x
;
;   Message Number
;   |         Time Offset (ms)
;   |         |        Type
;   |         |        |        ID (hex)
;   |         |        |        |     Data Length Code
;   |         |        |        |     |   Data Bytes (hex) ...
;   |         |        |        |     |   |
;---+--   ----+----  --+--  ----+---  +  -+ -- -- -- -- -- -- --
     1)        21.5  Rx         0005  4  05 FD 05 F7 
     2)        22.2  Rx         0002  2  07 F1 
     3)        31.8  Rx         0202  1  01 
     4)        32.4  Rx         0006  2  00 01 
     5)        32.7  Rx         0011  4  00 C2 00 10 
     6)        32.9  Rx         0182  2  00 14 
     7)        33.1  Rx         0183  2  01 14 
     8)        46.9  Rx         0005  4  05 FD 05 F6 
     9)        47.9  Rx         0002  2  07 EF 
    10)        57.2  Rx         0010  8  07 60 06 39 0A 5F 09 89 
    11)        79.8  Rx         0005  4  06 00 05 F9 
    12)        80.3  Rx         0002  2  07 F1 
    13)       106.1  Rx         0005  4  06 07 05 F8 
    14)       107.6  Rx         0002  2  07 F3 
    15)       115.0  Rx         0010  8  07 5F 06 3B 0A 5F 09 8A 
    16)       135.1  Rx         0005  4  05 FB 05 F2 
    17)       135.8  Rx         0002  2  07 F3 
    18)       147.8  Rx         0202  1  01 
    19)       148.3  Rx         0006  2  00 01 
    20)       148.6  Rx         0011  4  00 C2 00 10 
    21)       148.8  Rx         0182  2  00 14 
    22)       149.0  Rx         0183  2  01 14 
    23)       162.5  Rx         0005  4  05 FE 05 F8 
    24)       163.5  Rx         0002  2  07 F1 
    25)       171.4  Rx         0010  8  07 5F 06 37 0A 60 09 8B 
    26)       191.0  Rx         0005  4  05 FC 05 F5 
    27)       191.9  Rx         0002  2  07 F1 
    28)       216.0  Rx         0005  4  05 FA 05 F7 
    29)       216.5  Rx         0002  2  07 EF 
    30)       223.7  Rx         0010  8  07 5F 06 3A 0A 60 09 8D 
    31)       242.4  Rx         0005  4  06 00 05 F6 
    32)       243.3  Rx         0002  2  07 EF 
    33)       256.1  Rx         0202  1  01 
    34)       256.7  Rx         0006  2  00 01 
    35)       256.9  Rx         0011  4  00 C2 00 10 
    36)       257.1  Rx         0182  2  00 14 
    37)       257.3  Rx         0183  2  01 14 
    38)       269.6  Rx         0005  4  06 00 05 F8 
    39)       270.5  Rx         0002  2  07 ED 
    40)       278.0  Rx         0010  8  07 5E 06 3B 0A 64 09 8A 
    41)       296.5  Rx         0005  4  05 FD 05 F5 
    42)       297.1  Rx         0002  2  07 EF 
    43)       323.4  Rx         0005  4  05 FD 05 F4 
    44)       324.2  Rx         0002  2  07 ED 
    45)       332.0  Rx         0010  8  07 61 06 3A 0A 5E 09 8E 
    46)       352.3  Rx         0005  4  05 FF 05 F4 
    47)       353.0  Rx         0002  2  07 EF 
    48)       366.3  Rx         0202  1  01 
    49)       366.8  Rx         0006  2  00 01 
    50)       367.1  Rx         0011  4  00 C2 00 10 
    51)       367.4  Rx         0182  2  00 14 
    52)       367.5  Rx         0183  2  01 14 
    53)       380.0  Rx         0005  4  05 FD 05 FA 
    54)       380.7  Rx         0002  2  07 EF 
    55)       388.0  Rx         0010  8  07 5F 06 39 0A 5F 09 8C 
    56)       407.7  Rx         0005  4  05 FE 05 F9 
    57)       408.7  Rx         0002  2  07 EF 
    58)       433.5  Rx         0005  4  06 00 05 F9 
    59)       434.1  Rx         0002  2  07 EF 
    60)       442.0  Rx         0010  8  07 60 06 38 0A 62 09 8D 
    61)       461.6  Rx         0005  4  05 FC 05 F5 
    62)       462.4  Rx         0002  2  07 EF 
    63)       476.2  Rx         0202  1  01 
    64)       476.6  Rx         0006  2  00 01 
    65)       476.9  Rx         0011  4  00 C2 00 10 
    66)       477.1  Rx         0182  2  00 14 
    67)       477.3  Rx         0183  2  01 14 
    68)       490.5  Rx         0005  4  05 FE 05 F0 
    69)       490.9  Rx         0002  2  07 EF 
    70)       497.8  Rx         0010  8  07 62 06 3B 0A 61 09 90 
    71)       529.8  Rx         0005  4  05 FD 05 F5 
    72)       530.4  Rx         0002  2  07 EF 
    73)       563.7  Rx         0005  4  05 FC 05 F7 
    74)       564.5  Rx         0002  2  07 EF 
    75)       571.0  Rx         0010  8  07 5F 06 3B 0A 62 09 90 
    76)       598.9  Tx         0202  1  00 
    77)       599.4  Rx         0005  4  05 FC 05 FA 
    78)       599.6  Rx         0006  2  00 01 
    79)       599.7  Rx         0011  4  00 C2 00 10 
    80)       599.8  Rx         0002  2  07 ED 
    81)       599.9  Rx         0182  2  00 14 
    82)       600.5  Rx         0183  2  01 14 
    83)       625.5  Rx         0202  1  01 
    84)       626.1  Rx         0006  2  00 01 
    85)       626.3  Rx         0011  4  00 C2 00 10 
    86)       626.5  Rx         0182  2  00 14 
    87)       626.8  Rx         0183  2  01 14 
    88)       633.2  Rx         0005  4  05 FD 05 F6 
    89)       634.1  Rx         0002  2  07 ED 
    90)       650.7  Rx         0010  8  07 64 06 38 0A 63 09 8E 
    91)       677.7  Rx         0005  4  06 00 05 F5 
    92)       678.1  Rx         0002  2  07 ED 
    93)       710.7  Rx         0005  4  06 00 05 F5 
    94)       711.4  Rx         0002  2  07 EF 
    95)       718.0  Rx         0010  8  07 5D 06 37 0A 60 09 8D 
    96)       747.1  Rx         0005  4  06 01 05 F5 
    97)       747.8  Rx         0002  2  07 EF 
    98)       773.3  Rx         0202  1  01 
    99)       773.8  Rx         0006  2  00 01 
   100)       774.0  Rx         0011  4  00 C2 00 10 
   101)       774.2  Rx         0182  2  00 14 
   102)       774.4  Rx         0183  2  01 14 
   103)       781.7  Rx         0005  4  05 FD 05 F6 
   104)       783.1  Rx         0002  2  07 EF 
   105)       795.0  Rx         0010  8  07 5F 06 3A 0A 66 09 8F 
   106)       829.1  Rx         0005  4  06 03 05 FC 
   107)       829.9  Rx         0002  2  07 F3 
   108)       866.7  Rx         0005  4  05 FD 05 F5 
   109)       867.5  Rx         0002  2  07 F3 
   110)       874.6  Rx         0010  8  07 61 06 3B 0A 65 09 8C 
   111)       907.4  Rx         0005  4  06 04 05 F8 
   112)       908.2  Rx         0002  2  07 F3 
   113)       928.2  Rx         0202  1  01 
   114)       929.0  Rx         0006  2  00 01 
   115)       929.9  Rx         0011  4  00 C2 00 10 
   116)       930.6  Rx         0182  2  00 14 
   117)       931.2  Rx         0183  2  01 14 
   118)       945.4  Rx         0005  4  05 FB 05 F6 
   119)       946.2  Rx         0002  2  07 F3 
   120)       954.9  Rx         0010  8  07 5C 06 37 0A 5C 09 8C 
   121)       992.8  Rx         0005  4  05 FF 05 F8 
   122)       993.7  Rx         0002  2  07 F1 
   123)      1065.8  Rx         0005  4  06 02 05 F6 
   124)      1066.5  Rx         0002  2  07 F3 
   125)      1072.9  Rx         0010  8  07 60 06 3B 0A 5F 09 8E 
   126)      1100.8  Rx         0005  4  05 FB 05 F7 
   127)      1101.7  Rx         0002  2  07 F1 
   128)      1130.2  Rx         0202  1  01 
   129)      1130.7  Rx         0006  2  00 01 
   130)      1131.0  Rx         0011  4  00 C2 00 10 
   131)      1131.1  Rx         0182  2  00 14 
   132)      1131.3  Rx         0183  2  01 14 
   133)      1142.3  Rx         0005  4  05 FD 05 F6 
   134)      1144.7  Rx         0002  2  07 F1 
   135)      1153.1  Rx         0010  8  07 61 06 38 0A 62 09 8D 
   136)      1186.4  Rx         0005  4  05 FF 05 F8 
   137)      1190.0  Rx         0002  2  07 EF 
   138)      1226.0  Rx         0005  4  05 FB 05 FA 
   139)      1226.7  Rx         0002  2  07 EF 
   140)      1232.9  Rx         0010  8  07 61 06 3A 0A 5C 09 89 
   141)      1263.8  Rx         0005  4  05 F6 05 F6 
   142)      1264.8  Rx         0002  2  07 EC 
   143)      1293.6  Rx         0202  1  01 
   144)      1294.1  Rx         0006  2  00 01 
   145)      1294.4  Rx         0011  4  00 C2 00 10 
   146)      1294.5  Rx         0182  2  00 14 
   147)      1294.7  Rx         0183  2  01 14 
   148)      1298.6  Rx         0005  4  05 FC 05 F9 
   149)      1299.4  Rx         0002  2  07 EA 
   150)      1305.0  Rx         0010  8  07 63 06 36 0A 62 09 8F 
   151)      1335.5  Rx         0005  4  06 00 05 F7 
   152)      1337.4  Rx         0002  2  07 EC 
   153)      1374.6  Rx         0005  4  05 FC 05 F7 
   154)      1376.9  Rx         0002  2  07 EC 
   155)      1393.5  Rx         0010  8  07 63 06 3A 0A 5C 09 8B 
   156)      1444.4  Rx         0005  4  05 FF 05 FA 
   157)      1446.2  Rx         0002  2  07 EC 
   158)      1487.7  Rx         0202  1  01 
   159)      1488.1  Rx         0006  2  00 01 
   160)      1488.3  Rx         0011  4  00 C2 00 10 
   161)      1488.5  Rx         0182  2  00 14 
   162)      1488.7  Rx         0183  2  01 14 
   163)      1490.7  Rx         0005  4  06 01 05 F9 
   164)      1491.9  Rx         0002  2  07 ED 
   165)      1507.5  Rx         0010  8  07 5E 06 39 0A 63 09 8B 
   166)      1542.0  Rx         0005  4  05 FB 05 F3 
   167)      1542.8  Rx         0002  2  07 EF 
   168)      1598.6  Tx         0202  1  00 
   169)      1599.9  Rx         0006  2  00 01 
   170)      1600.7  Rx         0011  4  00 C2 00 10 
   171)      1601.4  Rx         0182  2  00 14 
   172)      1602.0  Rx         0183  2  01 14 
   173)      1603.0  Rx         0005  4  05 FE 05 F3 
   174)      1603.7  Rx         0002  2  07 EF 
   175)      1616.8  Rx         0010  8  07 5F 06 38 0A 5F 09 8C 
   176)      1670.8  Rx         0005  4  05 FE 05 F9 
   177)      1671.6  Rx         0002  2  07 EF 
   178)      1713.4  Rx         0202  1  01 
   179)      1714.6  Rx         0006  2  00 01 
   180)      1715.5  Rx         0011  4  00 C2 00 10 
   181)      1716.0  Rx         0182  2  00 14 
   182)      1716.2  Rx         0183  2  01 14 
   183)      1717.0  Rx         0005  4  06 01 05 F6 
   184)      1718.3  Rx         0002  2  07 F1 
   185)      1727.8  Rx         0010  8  07 60 06 37 0A 5F 09 8F 
   186)      1764.4  Rx         0005  4  05 FF 05 F5 
   187)      1765.4  Rx         0002  2  07 F1 
   188)      1798.6  Rx         0005  4  06 00 05 F8 
   189)      1799.4  Rx         0002  2  07 EF 
   190)      1805.5  Rx         0010  8  07 5F 06 35 0A 5F 09 89 
   191)      1834.4  Rx         0005  4  05 FE 05 F7 
   192)      1835.1  Rx         0002  2  07 F1 
   193)      1869.7  Rx         0202  1  01 
   194)      1870.0  Rx         0005  4  05 FE 05 F4 
   195)      1870.4  Rx         0006  2  00 01 
   196)      1870.6  Rx         0011  4  00 C2 00 10 
   197)      1870.8  Rx         0182  2  00 14 
   198)      1870.9  Rx         0002  2  07 F1 
   199)      1871.0  Rx         0183  2  01 14 
   200)      1877.1  Rx         0010  8  07 60 06 37 0A 61 09 8D 
   201)      1914.6  Rx         0005  4  05 FE 05 F5 
   202)      1915.3  Rx         0002  2  07 F1 
   203)      1949.5  Rx         0005  4  05 FF 05 F7 
   204)      1950.3  Rx         0002  2  07 F1 
   205)      1955.2  Rx         0010  8  07 63 06 39 0A 5E 09 89 
   206)      1998.2  Rx         0005  4  05 FF 05 F8 
   207)      1999.5  Rx         0002  2  07 F1 
   208)      2034.6  Rx         0202  1  01 
   209)      2035.3  Rx         0006  2  00 01 
   210)      2035.4  Rx         0005  4  05 FE 05 F4 
   211)      2035.7  Rx         0011  4  00 C2 00 10 
   212)      2036.0  Rx         0182  2  00 14 
   213)      2036.1  Rx         0183  2  01 14 
   214)      2036.5  Rx         0002  2  07 EF 
   215)      2042.7  Rx         0010  8  07 61 06 38 0A 5E 09 8A 
   216)      2086.5  Rx         0005  4  05 FF 05 F5 
   217)      2087.6  Rx         0002  2  07 EF 
   218)      2123.0  Rx         0005  4  06 00 05 F7 
   219)      2123.5  Rx         0002  2  07 F1 
   220)      2128.8  Rx         0010  8  07 5B 06 35 0A 5C 09 8B 
   221)      2158.8  Rx         0005  4  05 FD 05 F8 
   222)      2159.7  Rx         0002  2  07 F1 
   223)      2191.9  Rx         0005  4  05 FE 05 F1 
   224)      2192.1  Rx         0202  1  01 
   225)      2192.6  Rx         0006  2  00 01 
   226)      2192.8  Rx         0002  2  07 EF 
   227)      2193.0  Rx         0011  4  00 C2 00 10 
   228)      2193.3  Rx         0182  2  00 14 
   229)      2193.6  Rx         0183  2  01 14 
   230)      2197.9  Rx         0010  8  07 5B 06 3A 0A 5D 09 8A 
   231)      2236.5  Rx         0005  4  05 FF 05 F9 
   232)      2237.0  Rx         0002  2  07 EF 
   233)      2269.8  Rx         0005  4  05 FB 05 F5 
   234)      2270.5  Rx         0002  2  07 EF 
   235)      2275.3  Rx         0010  8  07 61 06 3A 0A 67 09 8B 
   236)      2307.9  Rx         0005  4  05 FF 05 F6 
   237)      2308.3  Rx         0002  2  07 EF 
   238)      2342.0  Rx         0005  4  05 FC 05 FC 
   239)      2343.0  Rx         0002  2  07 ED 
   240)      2344.5  Rx         0202  1  01 
   241)      2344.9  Rx         0006  2  00 01 
   242)      2345.1  Rx         0011  4  00 C2 00 10 
   243)      2345.3  Rx         0182  2  00 14 
   244)      2345.5  Rx         0183  2  01 14 
   245)      2347.8  Rx         0010  8  07 60 06 3B 0A 62 09 8F 
   246)      2377.7  Rx         0005  4  06 00 05 F8 
   247)      2378.4  Rx         0002  2  07 EF 
   248)      2410.9  Rx         0005  4  05 FE 05 F6 
   249)      2411.6  Rx         0002  2  07 EF 
   250)      2416.7  Rx         0010  8  07 5E 06 38 0A 5D 09 8C 
   251)      2446.0  Rx         0005  4  05 FD 05 F6 
   252)      2446.5  Rx         0002  2  07 EF 
   253)      2479.6  Rx         0005  4  05 FD 05 F7 
   254)      2480.0  Rx         0002  2  07 EF 
   255)      2483.9  Rx         0202  1  01 
   256)      2484.5  Rx         0006  2  00 01 
   257)      2484.7  Rx         0011  4  00 C2 00 10 
   258)      2485.0  Rx         0182  2  00 14 
   259)      2485.1  Rx         0183  2  01 14 
   260)      2485.4  Rx         0010  8  07 5D 06 37 0A 58 09 89 
   261)      2517.6  Rx         0005  4  05 FE 05 F7 
   262)      2518.5  Rx         0002  2  07 EF 
   263)      2551.0  Rx         0005  4  05 FF 05 F4 
   264)      2551.6  Rx         0002  2  07 EF 
   265)      2556.4  Rx         0010  8  07 62 06 37 0A 5F 09 8A 
   266)      2588.0  Rx         0005  4  06 00 05 F5 
   267)      2589.0  Rx         0002  2  07 EF 
   268)      2598.7  Tx         0202  1  00 
   269)      2599.1  Rx         0006  2  00 01 
   270)      2599.3  Rx         0011  4  00 C2 00 10 
   271)      2599.5  Rx         0182  2  00 14 
   272)      2599.6  Rx         0183  2  01 14 
   273)      2622.4  Rx         0005  4  05 FF 05 F4 
   274)      2625.5  Rx         0002  2  07 EF 
   275)      2636.6  Rx         0202  1  01 
   276)      2637.0  Rx         0010  8  07 61 06 38 0A 5E 09 87 
   277)      2637.5  Rx         0006  2  00 01 
   278)      2637.7  Rx         0011  4  00 C2 00 10 
   279)      2637.9  Rx         0182  2  00 14 
   280)      2638.1  Rx         0183  2  01 14 
   281)      2667.7  Rx         0005  4  05 FE 05 F4 
   282)      2668.2  Rx         0002  2  07 EF 
   283)      2701.2  Rx         0005  4  06 02 05 F6 
   284)      2702.1  Rx         0002  2  07 F1 
   285)      2706.3  Rx         0010  8  07 63 06 3B 0A 60 09 8D 
   286)      2738.0  Rx         0005  4  05 FD 05 F6 
   287)      2738.8  Rx         0002  2  07 F1 
   288)      2771.2  Rx         0005  4  06 00 05 F8 
   289)      2772.5  Rx         0002  2  07 F1 
   290)      2776.5  Rx         0010  8  07 5F 06 3B 0A 5E 09 8C 
   291)      2777.7  Rx         0202  1  01 
   292)      2778.3  Rx         0006  2  00 01 
   293)      2778.6  Rx         0011  4  00 C2 00 10 
   294)      2778.7  Rx         0182  2  00 14 
   295)      2778.9  Rx         0183  2  01 14 
   296)      2808.6  Rx         0005  4  05 FF 05 F9 
   297)      2809.2  Rx         0002  2  07 F1 
   298)      2841.7  Rx         0005  4  05 FB 05 F6 
   299)      2842.4  Rx         0002  2  07 EF 
   300)      2847.0  Rx         0010  8  07 5F 06 3B 0A 61 09 8B 
   301)      2876.9  Rx         0005  4  06 02 05 FD 
   302)      2877.7  Rx         0002  2  07 F1 
   303)      2910.0  Rx         0005  4  05 FE 05 F7 
   304)      2910.6  Rx         0002  2  07 EF 
   305)      2915.2  Rx         0010  8  07 61 06 38 0A 63 09 8F 
   306)      2917.7  Rx         0202  1  01 
   307)      2918.2  Rx         0006  2  00 01 
   308)      2918.4  Rx         0011  4  00 C2 00 10 
   309)      2918.5  Rx         0182  2  00 14 
   310)      2918.7  Rx         0183  2  01 14 
   311)      2946.2  Rx         0005  4  06 00 05 F6 
   312)      2947.0  Rx         0002  2  07 F1 
   313)      2980.0  Rx         0005  4  05 FD 05 F9 
   314)      2980.6  Rx         0002  2  07 EF 
   315)      2984.6  Rx         0010  8  07 62 06 3A 0A 5D 09 8C 
   316)      3016.3  Rx         0005  4  05 FC 05 F5 
   317)      3016.7  Rx         0002  2  07 EF 
   318)      3050.1  Rx         0005  4  05 FE 05 F5 
   319)      3051.1  Rx         0002  2  07 EF 
   320)      3054.9  Rx         0010  8  07 62 06 37 0A 60 09 8E 
   321)      3058.9  Rx         0202  1  01 
   322)      3059.4  Rx         0006  2  00 01 
   323)      3059.7  Rx         0011  4  00 C2 00 10 
   324)      3060.0  Rx         0182  2  00 14 
   325)      3060.2  Rx         0183  2  01 14 
   326)      3085.1  Rx         0005  4  06 01 05 F8 
   327)      3085.7  Rx         0002  2  07 EF 
   328)      3118.8  Rx         0005  4  05 FE 05 F6 
   329)      3119.8  Rx         0002  2  07 EF 
   330)      3125.9  Rx         0010  8  07 5E 06 37 0A 62 09 8C 
   331)      3165.2  Rx         0005  4  05 FC 05 F7 
   332)      3165.7  Rx         0002  2  07 EF 
   333)      3203.5  Rx         0010  8  07 5F 06 3B 0A 5F 09 88 
   334)      3206.7  Rx         0202  1  01 
   335)      3207.2  Rx         0006  2  00 01 
   336)      3207.5  Rx         0011  4  00 C2 00 10 
   337)      3207.6  Rx         0182  2  00 14 
   338)      3207.8  Rx         0183  2  01 14 
   339)      3233.3  Rx         0005  4  06 00 05 F7 
   340)      3234.1  Rx         0002  2  07 EF 
   341)      3266.5  Rx         0005  4  05 FF 05 F7 
   342)      3267.1  Rx         0002  2  07 F1 
   343)      3271.2  Rx         0010  8  07 61 06 37 0A 60 09 90 
   344)      3313.0  Rx         0005  4  05 FF 05 F6 
   345)      3313.9  Rx         0002  2  07 F1 
   346)      3346.7  Rx         0005  4  05 FE 05 F9 
   347)      3347.2  Rx         0002  2  07 EF 
   348)      3350.9  Rx         0010  8  07 5D 06 36 0A 63 09 8B 
   349)      3356.9  Rx         0202  1  01 
   350)      3357.5  Rx         0006  2  00 01 
   351)      3357.8  Rx         0011  4  00 C2 00 10 
   352)      3358.0  Rx         0182  2  00 14 
   353)      3358.2  Rx         0183  2  01 14 
   354)      3381.6  Rx         0005  4  05 FE 05 F4 
   355)      3382.5  Rx         0002  2  07 EF 
   356)      3415.2  Rx         0005  4  06 01 05 F5 
   357)      3415.9  Rx         0002  2  07 F1 
   358)      3419.3  Rx         0010  8  07 5F 06 39 0A 66 09 8C 
   359)      3458.4  Rx         0005  4  05 FF 05 F8 
   360)      3459.2  Rx         0002  2  07 F1 
   361)      3492.6  Rx         0005  4  05 FE 05 F7 
   362)      3493.5  Rx         0002  2  07 F1 
   363)      3496.6  Rx         0010  8  07 5E 06 38 0A 5E 09 8C 
   364)      3505.2  Rx         0202  1  01 
   365)      3505.7  Rx         0006  2  00 01 
   366)      3506.0  Rx         0011  4  00 C2 00 10 
   367)      3506.2  Rx         0182  2  00 14 
   368)      3506.4  Rx         0183  2  01 14 
   369)      3527.5  Rx         0005  4  06 00 05 F7 
   370)      3528.1  Rx         0002  2  07 F1 
   371)      3560.8  Rx         0005  4  05 FE 05 F6 
   372)      3561.8  Rx         0002  2  07 F1 
   373)      3565.8  Rx         0010  8  07 5A 06 34 0A 5F 09 88 
   374)      3600.3  Tx         0202  1  00 
   375)      3601.5  Rx         0006  2  00 01 
   376)      3602.4  Rx         0011  4  00 C2 00 10 
   377)      3603.1  Rx         0182  2  00 14 
   378)      3603.7  Rx         0183  2  01 14 
   379)      3606.0  Rx         0005  4  06 01 05 F7 
   380)      3606.7  Rx         0002  2  07 F3 
   381)      3638.9  Rx         0005  4  06 00 05 F6 
   382)      3639.5  Rx         0002  2  07 F1 
   383)      3643.3  Rx         0010  8  07 5E 06 37 0A 62 09 8D 
   384)      3661.4  Rx         0202  1  01 
   385)      3661.8  Rx         0006  2  00 01 
   386)      3662.1  Rx         0011  4  00 C2 00 10 
   387)      3662.2  Rx         0182  2  00 14 
   388)      3662.4  Rx         0183  2  01 14 
   389)      3685.5  Rx         0005  4  05 FF 05 F6 
   390)      3686.3  Rx         0002  2  07 F1 
   391)      3718.9  Rx         0005  4  05 F9 05 F4 
   392)      3719.6  Rx         0002  2  07 EF 
   393)      3722.6  Rx         0010  8  07 5F 06 3A 0A 62 09 8D 
   394)      3753.4  Rx         0005  4  05 FE 05 F7 
   395)      3754.3  Rx         0002  2  07 EF 
   396)      3787.4  Rx         0005  4  05 FE 05 F8 
   397)      3788.1  Rx         0002  2  07 EF 
   398)      3791.1  Rx         0010  8  07 61 06 39 0A 5F 09 8C 
   399)      3811.8  Rx         0202  1  01 
   400)      3812.4  Rx         0006  2  00 01 
   401)      3812.6  Rx         0011  4  00 C2 00 10 
   402)      3812.8  Rx         0182  2  00 14 
   403)      3812.9  Rx         0183  2  01 14 
   404)      3831.4  Rx         0005  4  05 FE 05 F7 
   405)      3832.4  Rx         0002  2  07 EF 
   406)      3865.4  Rx         0005  4  05 FE 05 F6 
   407)      3866.3  Rx         0002  2  07 ED 
   408)      3869.0  Rx         0010  8  07 5F 06 3C 0A 5E 09 8D 
   409)      3900.0  Rx         0005  4  06 02 05 F4 
   410)      3900.7  Rx         0002  2  07 EF 
   411)      3933.3  Rx         0005  4  05 FB 05 F4 
   412)      3934.1  Rx         0002  2  07 EF 
   413)      3937.8  Rx         0010  8  07 5F 06 3A 0A 62 09 8F 
   414)      3957.6  Rx         0202  1  01 
   415)      3958.1  Rx         0006  2  00 01 
   416)      3958.4  Rx         0011  4  00 C2 00 10 
   417)      3958.5  Rx         0182  2  00 14 
   418)      3958.7  Rx         0183  2  01 14 
   419)      3975.3  Rx         0005  4  06 02 05 F7 
   420)      3978.1  Rx         0002  2  07 F1 
   421)      4012.6  Rx         0005  4  05 FF 05 F6 
   422)      4013.0  Rx         0002  2  07 F1 
   423)      4016.2  Rx         0010  8  07 63 06 3C 0A 67 09 94 
   424)      4049.5  Rx         0005  4  06 00 05 FA 
   425)      4050.4  Rx         0002  2  07 F1 
   426)      4083.2  Rx         0005  4  06 02 05 F8 
   427)      4083.8  Rx         0002  2  07 F3 
   428)      4086.8  Rx         0010  8  07 5C 06 39 0A 5E 09 8C 
   429)      4109.3  Rx         0202  1  01 
   430)      4109.8  Rx         0006  2  00 01 
   431)      4110.0  Rx         0011  4  00 C2 00 10 
   432)      4110.2  Rx         0182  2  00 14 
   433)      4110.4  Rx         0183  2  01 14 
   434)      4119.3  Rx         0005  4  05 FE 05 F3 
   435)      4122.9  Rx         0002  2  07 F1 
   436)      4161.7  Rx         0005  4  06 02 05 F8 
   437)      4162.3  Rx         0002  2  07 F3 
   438)      4165.2  Rx         0010  8  07 60 06 3A 0A 69 09 8D 
   439)      4196.1  Rx         0005  4  05 FC 05 F9 
   440)      4196.6  Rx         0002  2  07 F3 
   441)      4233.0  Rx         0010  8  07 5E 06 3B 0A 5E 09 8E 
   442)      4257.7  Rx         0202  1  01 
   443)      4258.3  Rx         0006  2  00 01 
   444)      4258.5  Rx         0011  4  00 C2 00 10 
   445)      4258.7  Rx         0182  2  00 14 
   446)      4258.9  Rx         0183  2  01 14 
   447)      4266.2  Rx         0005  4  05 FD 05 F4 
   448)      4266.9  Rx         0002  2  07 F1 
   449)      4309.2  Rx         0005  4  06 00 05 F7 
   450)      4310.1  Rx         0002  2  07 F1 
   451)      4313.5  Rx         0010  8  07 5F 06 37 0A 5F 09 8B 
   452)      4345.5  Rx         0005  4  06 00 05 F5 
   453)      4346.0  Rx         0002  2  07 F1 
   454)      4379.0  Rx         0005  4  06 01 05 F6 
   455)      4379.4  Rx         0002  2  07 F1 
   456)      4382.4  Rx         0010  8  07 5D 06 39 0A 62 09 8C 
   457)      4407.9  Rx         0202  1  01 
   458)      4408.5  Rx         0006  2  00 01 
   459)      4408.7  Rx         0011  4  00 C2 00 10 
   460)      4409.0  Rx         0182  2  00 14 
   461)      4409.1  Rx         0183  2  01 14 
   462)      4415.0  Rx         0005  4  05 FD 05 F9 
   463)      4415.8  Rx         0002  2  07 EF 
   464)      4461.2  Rx         0005  4  06 05 05 F7 
   465)      4462.0  Rx         0002  2  07 F3 
   466)      4464.9  Rx         0010  8  07 61 06 39 0A 5E 09 8A 
   467)      4500.9  Rx         0005  4  05 FB 05 F7 
   468)      4501.8  Rx         0002  2  07 F3 
   469)      4536.7  Rx         0005  4  05 FE 05 F5 
   470)      4537.6  Rx         0002  2  07 F1 
   471)      4540.4  Rx         0010  8  07 61 06 37 0A 5C 09 8C 
   472)      4567.5  Rx         0202  1  01 
   473)      4568.0  Rx         0006  2  00 01 
   474)      4568.4  Rx         0011  4  00 C2 00 10 
   475)      4568.6  Rx         0182  2  00 14 
   476)      4569.0  Rx         0183  2  01 14 
   477)      4573.5  Rx         0005  4  06 00 05 F8 
   478)      4574.1  Rx         0002  2  07 F1 
   479)      4599.4  Tx         0202  1  00 
   480)      4600.6  Rx         0006  2  00 01 
   481)      4601.5  Rx         0011  4  00 C2 00 10 
   482)      4602.2  Rx         0182  2  00 14 
   483)      4602.8  Rx         0183  2  01 14 
   484)      4620.1  Rx         0010  8  07 5D 06 36 0A 63 09 8F 
   485)      4662.2  Rx         0005  4  05 FE 05 F9 
   486)      4662.8  Rx         0002  2  07 F1 
   487)      4695.6  Rx         0005  4  05 F9 05 F6 
   488)      4696.0  Rx         0002  2  07 EF 
   489)      4699.3  Rx         0010  8  07 63 06 37 0A 5C 09 8C 
   490)      4735.9  Rx         0202  1  01 
   491)      4736.4  Rx         0006  2  00 01 
   492)      4736.7  Rx         0011  4  00 C2 00 10 
   493)      4736.9  Rx         0182  2  00 14 
   494)      4737.0  Rx         0183  2  01 14 
   495)      4739.7  Rx         0005  4  05 FD 05 F6 
   496)      4740.2  Rx         0002  2  07 ED 
   497)      4782.7  Rx         0005  4  06 01 05 F8 
   498)      4783.1  Rx         0002  2  07 EF 
   499)      4785.8  Rx         0010  8  07 5C 06 39 0A 5E 09 89 
   500)      4815.5  Rx         0005  4  05 FC 05 FA 
   501)      4816.4  Rx         0002  2  07 EF 
   502)      4849.9  Rx         0005  4  05 FF 05 F6 
   503)      4850.4  Rx         0002  2  07 ED 
   504)      4852.6  Rx         0010  8  07 60 06 39 0A 61 09 8C 
   505)      4891.4  Rx         0202  1  01 
   506)      4891.9  Rx         0006  2  00 01 
   507)      4892.2  Rx         0011  4  00 C2 00 10 
   508)      4892.3  Rx         0182  2  00 14 
   509)      4892.6  Rx         0183  2  01 14 
   510)      4927.0  Rx         0005  4  06 01 05 F8 
   511)      4927.5  Rx         0002  2  07 EF 
   512)      4930.0  Rx         0010  8  07 64 06 3B 0A 61 09 8E 
   513)      4960.4  Rx         0005  4  06 00 05 F4 
   514)      4960.9  Rx         0002  2  07 F1 
   515)      4994.5  Rx         0005  4  05 FD 05 F5 
   516)      4995.2  Rx         0002  2  07 F1 
   517)      4997.3  Rx         0010  8  07 5F 06 38 0A 60 09 8F 
   518)      5037.9  Rx         0202  1  01 
   519)      5038.4  Rx         0006  2  00 01 
   520)      5038.7  Rx         0011  4  00 C2 00 10 
   521)      5038.9  Rx         0182  2  00 14 
   522)      5039.1  Rx         0183  2  01 14 
   523)      5039.4  Rx         0005  4  05 FD 05 F8 
   524)      5041.1  Rx         0002  2  07 EF 
   525)      5082.9  Rx         0005  4  05 FE 05 F7 
   526)      5083.3  Rx         0002  2  07 F1 
   527)      5085.9  Rx         0010  8  07 5F 06 35 0A 5E 09 8C 
   528)      5118.4  Rx         0005  4  06 04 05 FD 
   529)      5118.9  Rx         0002  2  07 F3 
   530)      5152.1  Rx         0005  4  06 01 05 F6 
   531)      5152.5  Rx         0002  2  07 F3 
   532)      5155.0  Rx         0010  8  07 5E 06 39 0A 63 09 8E 
   533)      5187.4  Rx         0202  1  01 
   534)      5188.0  Rx         0006  2  00 01 
   535)      5188.2  Rx         0005  4  06 02 05 F8 
   536)      5188.5  Rx         0011  4  00 C2 00 10 
   537)      5188.7  Rx         0182  2  00 14 
   538)      5188.8  Rx         0183  2  01 14 
   539)      5189.0  Rx         0002  2  07 F3 
   540)      5221.8  Rx         0005  4  06 00 05 F3 
   541)      5222.5  Rx         0002  2  07 F3 
   542)      5224.4  Rx         0010  8  07 62 06 39 0A 64 09 87 
   543)      5266.8  Rx         0005  4  05 FD 05 F4 
   544)      5267.2  Rx         0002  2  07 F3 
   545)      5302.4  Rx         0010  8  07 60 06 3A 0A 63 09 8E 
   546)      5337.0  Rx         0202  1  01 
   547)      5337.5  Rx         0006  2  00 01 
   548)      5337.7  Rx         0011  4  00 C2 00 10 
   549)      5337.9  Rx         0005  4  05 FF 05 F6 
   550)      5338.0  Rx         0182  2  00 14 
   551)      5338.2  Rx         0183  2  01 14 
   552)      5339.2  Rx         0002  2  07 F3 
   553)      5371.6  Rx         0005  4  06 00 05 F7 
   554)      5372.4  Rx         0002  2  07 F3 
   555)      5374.3  Rx         0010  8  07 63 06 3C 0A 64 09 8A 
   556)      5416.6  Rx         0005  4  05 FF 05 F8 
   557)      5418.6  Rx         0002  2  07 F3 
   558)      5453.0  Rx         0005  4  05 FF 05 F5 
   559)      5453.3  Rx         0002  2  07 F1 
   560)      5455.9  Rx         0010  8  07 61 06 3A 0A 5D 09 8B 

after remove all node 
ID=514,Type=D,DLC=1,Data=1

