;$FILEVERSION=1.1
;$STARTTIME=41974.4872124537
;
;   C:\Documents and Settings\Administrator\Desktop\sfd.trc
;
;   Start time: 12/1/2014 11:41:35.156.x
;
;   Message Number
;   |         Time Offset (ms)
;   |         |        Type
;   |         |        |        ID (hex)
;   |         |        |        |     Data Length Code
;   |         |        |        |     |   Data Bytes (hex) ...
;   |         |        |        |     |   |
;---+--   ----+----  --+--  ----+---  +  -+ -- -- -- -- -- -- --
     1)        23.7  Rx         0005  4  05 F6 05 E9 
     2)        24.2  Rx         0002  2  07 E5 
     3)        37.8  Rx         0010  8  05 71 06 36 05 D8 05 D9 
     4)        41.3  Rx         0005  4  05 F9 05 EA 
     5)        41.8  Rx         0002  2  07 E5 
     6)        58.4  Rx         0005  4  05 F8 05 EB 
     7)        59.0  Rx         0002  2  07 E5 
     8)        71.8  Rx         0010  8  05 70 06 34 05 D5 05 DF 
     9)        74.0  Rx         0202  1  01 
    10)        74.5  Rx         0006  2  00 01 
    11)        74.6  Rx         0011  4  00 C0 00 1F 
    12)        74.8  Rx         0182  2  00 10 
    13)        74.9  Rx         0183  2  01 14 
    14)        75.4  Rx         0005  4  05 F5 05 E9 
    15)        77.8  Rx         0002  2  07 E5 
    16)        93.5  Rx         0005  4  05 F9 05 EC 
    17)        93.8  Rx         0002  2  07 E5 
    18)       107.2  Rx         0010  8  05 6F 06 36 05 D6 05 DD 
    19)       111.9  Rx         0005  4  05 F6 05 ED 
    20)       112.4  Rx         0002  2  07 E3 
    21)       128.8  Rx         0005  4  05 F8 05 EC 
    22)       129.4  Rx         0002  2  07 E5 
    23)       142.6  Rx         0010  8  05 72 06 35 05 D5 05 D9 
    24)       144.9  Rx         0202  1  01 
    25)       145.5  Rx         0006  2  00 01 
    26)       145.7  Rx         0011  4  00 C0 00 1F 
    27)       145.8  Rx         0182  2  00 10 
    28)       146.0  Rx         0183  2  01 14 
    29)       147.1  Rx         0005  4  05 F8 05 EF 
    30)       147.6  Rx         0002  2  07 E3 
    31)       165.2  Rx         0005  4  05 F6 05 EC 
    32)       165.9  Rx         0002  2  07 E3 
    33)       178.1  Rx         0010  8  05 6F 06 34 05 D5 05 DD 
    34)       182.6  Rx         0005  4  05 F8 05 EB 
    35)       183.0  Rx         0002  2  07 E5 
    36)       186.0  Tx         0202  1  00 
    37)       186.3  Rx         0006  2  00 01 
    38)       186.7  Rx         0011  4  00 C0 00 1F 
    39)       187.3  Rx         0182  2  00 10 
    40)       188.0  Rx         0183  2  01 14 
    41)       202.5  Rx         0005  4  05 F5 05 EA 
    42)       203.3  Rx         0002  2  07 E3 
    43)       216.6  Rx         0010  8  05 6D 06 37 05 D7 05 DD 
    44)       220.3  Rx         0005  4  05 FB 05 ED 
    45)       220.6  Rx         0202  1  01 
    46)       221.1  Rx         0002  2  07 E5 
    47)       221.2  Rx         0006  2  00 01 
    48)       221.6  Rx         0011  4  00 C0 00 1F 
    49)       221.7  Rx         0182  2  00 10 
    50)       221.9  Rx         0183  2  01 14 
    51)       238.5  Rx         0005  4  05 F7 05 EB 
    52)       239.0  Rx         0002  2  07 E5 
    53)       251.4  Rx         0010  8  05 71 06 35 05 D7 05 DE 
    54)       257.0  Rx         0005  4  05 FA 05 EC 
    55)       257.5  Rx         0002  2  07 E5 
    56)       275.2  Rx         0005  4  05 FC 05 E8 
    57)       275.7  Rx         0002  2  07 E6 
    58)       291.2  Rx         0010  8  05 71 06 38 05 D7 05 DE 
    59)       298.9  Rx         0202  1  01 
    60)       299.5  Rx         0005  4  05 F9 05 EA 
    61)       299.6  Rx         0006  2  00 01 
    62)       299.9  Rx         0011  4  00 C0 00 1F 
    63)       300.2  Rx         0182  2  00 10 
    64)       300.3  Rx         0002  2  07 E6 
    65)       300.4  Rx         0183  2  01 14 
    66)       318.4  Rx         0005  4  05 F8 05 EC 
    67)       318.9  Rx         0002  2  07 E8 
    68)       332.1  Rx         0010  8  05 71 06 39 05 D8 05 DC 
    69)       335.6  Rx         0005  4  05 F9 05 EC 
    70)       336.2  Rx         0002  2  07 E6 
    71)       353.7  Rx         0005  4  05 F5 05 EA 
    72)       354.1  Rx         0002  2  07 E6 
    73)       366.2  Rx         0010  8  05 72 06 36 05 D6 05 E0 
    74)       370.4  Rx         0005  4  05 FA 05 EC 
    75)       370.8  Rx         0002  2  07 E6 
    76)       371.8  Rx         0202  1  01 
    77)       372.3  Rx         0006  2  00 01 
    78)       372.4  Rx         0011  4  00 C0 00 1F 
    79)       372.5  Rx         0182  2  00 10 
    80)       372.6  Rx         0183  2  01 14 
    81)       390.0  Rx         0005  4  05 FA 05 EB 
    82)       390.8  Rx         0002  2  07 E5 
    83)       403.4  Rx         0010  8  05 6F 06 36 05 D5 05 DC 
    84)       407.5  Rx         0005  4  05 F7 05 E9 
    85)       407.9  Rx         0002  2  07 E5 
    86)       426.9  Rx         0005  4  05 F7 05 ED 
    87)       427.5  Rx         0002  2  07 E5 
    88)       439.6  Rx         0010  8  05 73 06 38 05 D8 05 DF 
    89)       444.4  Rx         0005  4  05 F9 05 EA 
    90)       444.8  Rx         0002  2  07 E5 
    91)       446.5  Rx         0202  1  01 
    92)       447.0  Rx         0006  2  00 01 
    93)       447.2  Rx         0011  4  00 C0 00 1F 
    94)       447.2  Rx         0182  2  00 10 
    95)       447.3  Rx         0183  2  01 14 
    96)       461.8  Rx         0005  4  05 F4 05 EA 
    97)       462.3  Rx         0002  2  07 E5 
    98)       474.6  Rx         0010  8  05 72 06 37 05 D7 05 DD 
    99)       479.6  Rx         0005  4  05 F5 05 E8 
   100)       480.1  Rx         0002  2  07 E3 
   101)       497.6  Rx         0005  4  05 F8 05 EC 
   102)       498.3  Rx         0002  2  07 E3 
   103)       511.7  Rx         0010  8  05 71 06 36 05 D5 05 DA 
   104)       516.0  Rx         0005  4  05 F7 05 EB 
   105)       516.5  Rx         0002  2  07 E3 
   106)       519.0  Rx         0202  1  01 
   107)       519.4  Rx         0006  2  00 01 
   108)       519.6  Rx         0011  4  00 C0 00 1F 
   109)       519.8  Rx         0182  2  00 10 
   110)       519.9  Rx         0183  2  01 14 
   111)       535.7  Rx         0005  4  05 F9 05 EA 
   112)       536.1  Rx         0002  2  07 E3 
   113)       552.4  Rx         0010  8  05 71 06 35 05 D5 05 DC 
   114)       556.6  Rx         0005  4  05 F8 05 EB 
   115)       556.9  Rx         0002  2  07 E3 
   116)       576.8  Rx         0005  4  05 FA 05 EA 
   117)       577.3  Rx         0002  2  07 E5 
   118)       612.4  Rx         0010  8  05 6D 06 33 05 D5 05 DD 
   119)       622.9  Rx         0005  4  05 F8 05 E9 
   120)       626.7  Rx         0002  2  07 E5 
   121)       631.6  Rx         0202  1  01 
   122)       632.0  Rx         0006  2  00 01 
   123)       632.2  Rx         0011  4  00 C0 00 1F 
   124)       632.3  Rx         0182  2  00 10 
   125)       632.4  Rx         0183  2  01 14 
   126)       656.1  Rx         0005  4  05 F8 05 EC 
   127)       656.5  Rx         0002  2  07 E5 
   128)       678.7  Rx         0010  8  05 71 06 38 05 D6 05 DD 
   129)       688.8  Rx         0005  4  05 F9 05 E9 
   130)       692.6  Rx         0002  2  07 E6 
   131)       722.6  Rx         0005  4  05 F9 05 EA 
   132)       723.0  Rx         0002  2  07 E6 
   133)       745.6  Rx         0010  8  05 72 06 37 05 D4 05 DD 
   134)       755.2  Rx         0005  4  05 FA 05 EC 
   135)       757.5  Rx         0002  2  07 E6 
   136)       767.6  Rx         0202  1  01 
   137)       768.0  Rx         0006  2  00 01 
   138)       768.2  Rx         0011  4  00 C0 00 1F 
   139)       768.3  Rx         0182  2  00 10 
   140)       768.4  Rx         0183  2  01 14 
   141)       791.0  Rx         0005  4  05 FA 05 E9 
   142)       792.2  Rx         0002  2  07 E6 
   143)       814.0  Rx         0010  8  05 74 06 39 05 DA 05 DD 
   144)       818.4  Rx         0005  4  05 F8 05 EC 
   145)       820.9  Rx         0002  2  07 E6 
   146)       857.3  Rx         0005  4  05 F7 05 EA 
   147)       858.0  Rx         0002  2  07 E6 
   148)       880.0  Rx         0010  8  05 71 06 32 05 D7 05 D9 
   149)       884.3  Rx         0005  4  05 F6 05 E9 
   150)       885.5  Rx         0002  2  07 E5 
   151)       900.7  Rx         0202  1  01 
   152)       901.2  Rx         0006  2  00 01 
   153)       901.4  Rx         0011  4  00 C0 00 1F 
   154)       901.5  Rx         0182  2  00 10 
   155)       901.6  Rx         0183  2  01 14 
   156)       923.2  Rx         0005  4  05 F9 05 EA 
   157)       923.5  Rx         0002  2  07 E5 
   158)       946.2  Rx         0010  8  05 71 06 35 05 D5 05 DB 
   159)       952.0  Rx         0005  4  05 F4 05 EC 
   160)       953.3  Rx         0002  2  07 E3 
   161)       991.1  Rx         0005  4  05 F5 05 EA 
   162)       991.5  Rx         0002  2  07 E1 
   163)      1013.7  Rx         0010  8  05 6C 06 35 05 D8 05 DE 
   164)      1019.9  Rx         0005  4  05 F7 05 ED 
   165)      1020.5  Rx         0002  2  07 E1 
   166)      1037.1  Rx         0202  1  01 
   167)      1037.6  Rx         0006  2  00 01 
   168)      1037.8  Rx         0011  4  00 C0 00 1F 
   169)      1037.9  Rx         0182  2  00 10 
   170)      1038.0  Rx         0183  2  01 14 
   171)      1058.2  Rx         0005  4  05 FB 05 EA 
   172)      1058.6  Rx         0002  2  07 E3 
   173)      1080.9  Rx         0010  8  05 71 06 35 05 D8 05 DD 
   174)      1086.3  Rx         0005  4  05 F6 05 E8 
   175)      1087.0  Rx         0002  2  07 E3 
   176)      1124.7  Rx         0005  4  05 F7 05 EA 
   177)      1125.2  Rx         0002  2  07 E3 
   178)      1145.0  Rx         0010  8  05 71 06 39 05 D6 05 DE 
   179)      1151.5  Rx         0005  4  05 FB 05 EB 
   180)      1151.8  Rx         0002  2  07 E5 
   181)      1169.1  Rx         0202  1  01 
   182)      1169.5  Rx         0006  2  00 01 
   183)      1169.7  Rx         0011  4  00 C0 00 1F 
   184)      1169.8  Rx         0182  2  00 10 
   185)      1170.0  Rx         0183  2  01 14 
   186)      1186.1  Tx         0202  1  00 
   187)      1186.5  Rx         0006  2  00 01 
   188)      1186.7  Rx         0011  4  00 C0 00 1F 
   189)      1187.4  Rx         0182  2  00 10 
   190)      1187.6  Rx         0183  2  01 14 
   191)      1190.8  Rx         0005  4  05 F6 05 EB 
   192)      1191.4  Rx         0002  2  07 E5 
   193)      1219.4  Rx         0010  8  05 6D 06 34 05 D6 05 DD 
   194)      1228.3  Rx         0005  4  05 F8 05 EA 
   195)      1228.7  Rx         0002  2  07 E5 
   196)      1258.9  Rx         0005  4  05 F7 05 EB 
   197)      1259.6  Rx         0002  2  07 E5 
   198)      1286.5  Rx         0010  8  05 6E 06 36 05 D6 05 DE 
   199)      1303.1  Rx         0005  4  05 F4 05 EA 
   200)      1303.9  Rx         0002  2  07 E3 
   201)      1321.8  Rx         0202  1  01 
   202)      1322.3  Rx         0006  2  00 01 
   203)      1322.5  Rx         0011  4  00 C0 00 1F 
   204)      1322.6  Rx         0182  2  00 10 
   205)      1322.8  Rx         0183  2  01 14 
   206)      1341.9  Rx         0005  4  05 F9 05 EE 
   207)      1342.5  Rx         0002  2  07 E5 
   208)      1356.4  Rx         0010  8  05 72 06 35 05 D5 05 DB 
   209)      1370.3  Rx         0005  4  05 F7 05 EE 
   210)      1370.9  Rx         0002  2  07 E3 
   211)      1397.6  Rx         0005  4  05 F7 05 EC 
   212)      1398.0  Rx         0002  2  07 E3 
   213)      1420.9  Rx         0010  8  05 6F 06 37 05 D6 05 DD 
   214)      1425.3  Rx         0005  4  05 F5 05 E9 
   215)      1426.0  Rx         0002  2  07 E1 
   216)      1444.4  Rx         0202  1  01 
   217)      1444.8  Rx         0006  2  00 01 
   218)      1445.0  Rx         0011  4  00 C0 00 1F 
   219)      1445.1  Rx         0182  2  00 10 
   220)      1445.2  Rx         0183  2  01 14 
   221)      1463.7  Rx         0005  4  05 F7 05 EB 
   222)      1464.1  Rx         0002  2  07 E1 
   223)      1475.1  Rx         0010  8  05 72 06 34 05 D5 05 DD 
   224)      1490.4  Rx         0005  4  05 F8 05 EA 
   225)      1491.1  Rx         0002  2  07 E3 
   226)      1517.8  Rx         0005  4  05 FA 05 EE 
   227)      1518.4  Rx         0002  2  07 E3 
   228)      1539.4  Rx         0010  8  05 70 06 38 05 D7 05 DB 
   229)      1554.7  Rx         0005  4  05 F6 05 E9 
   230)      1555.1  Rx         0002  2  07 E3 
   231)      1575.9  Rx         0202  1  01 
   232)      1576.4  Rx         0006  2  00 01 
   233)      1576.6  Rx         0011  4  00 C0 00 1F 
   234)      1576.8  Rx         0182  2  00 10 
   235)      1576.9  Rx         0183  2  01 14 
   236)      1595.8  Rx         0005  4  05 F8 05 EB 
   237)      1596.4  Rx         0002  2  07 E3 
   238)      1608.7  Rx         0010  8  05 70 06 37 05 D5 05 DD 
   239)      1625.4  Rx         0005  4  05 F8 05 E9 
   240)      1625.7  Rx         0002  2  07 E5 
   241)      1652.3  Rx         0005  4  05 F8 05 EA 
   242)      1652.9  Rx         0002  2  07 E5 
   243)      1674.6  Rx         0010  8  05 6B 06 36 05 D4 05 DB 
   244)      1691.5  Rx         0005  4  05 F9 05 E9 
   245)      1692.0  Rx         0002  2  07 E5 
   246)      1711.3  Rx         0202  1  01 
   247)      1711.7  Rx         0006  2  00 01 
   248)      1711.9  Rx         0011  4  00 C0 00 1F 
   249)      1712.0  Rx         0182  2  00 10 
   250)      1712.1  Rx         0183  2  01 14 
   251)      1729.3  Rx         0005  4  05 F6 05 EC 
   252)      1729.9  Rx         0002  2  07 E5 
   253)      1752.4  Rx         0010  8  05 70 06 35 05 D4 05 DC 
   254)      1757.3  Rx         0005  4  05 F7 05 EA 
   255)      1757.8  Rx         0002  2  07 E5 
   256)      1784.6  Rx         0005  4  05 F8 05 EE 
   257)      1784.9  Rx         0002  2  07 E5 
   258)      1806.8  Rx         0010  8  05 71 06 37 05 D7 05 DC 
   259)      1811.9  Rx         0005  4  05 F8 05 E9 
   260)      1812.4  Rx         0002  2  07 E5 
   261)      1833.2  Rx         0202  1  01 
   262)      1833.8  Rx         0006  2  00 01 
   263)      1833.9  Rx         0011  4  00 C0 00 1F 
   264)      1834.0  Rx         0182  2  00 10 
   265)      1834.1  Rx         0183  2  01 14 
   266)      1850.2  Rx         0005  4  05 F6 05 E9 
   267)      1850.6  Rx         0002  2  07 E3 
   268)      1871.7  Rx         0010  8  05 70 06 2F 05 D5 05 DA 
   269)      1889.4  Rx         0005  4  05 F9 05 EC 
   270)      1890.8  Rx         0002  2  07 E3 
   271)      1918.1  Rx         0005  4  05 F7 05 EA 
   272)      1918.6  Rx         0002  2  07 E5 
   273)      1940.2  Rx         0010  8  05 70 06 35 05 D5 05 DE 
   274)      1946.3  Rx         0005  4  05 F5 05 ED 
   275)      1946.5  Rx         0002  2  07 E3 
   276)      1968.2  Rx         0202  1  01 
   277)      1968.7  Rx         0006  2  00 01 
   278)      1968.8  Rx         0011  4  00 C0 00 1F 
   279)      1969.0  Rx         0182  2  00 10 
   280)      1969.1  Rx         0183  2  01 14 
   281)      1982.6  Rx         0005  4  05 F9 05 EA 
   282)      1984.4  Rx         0002  2  07 E3 
   283)      2005.5  Rx         0010  8  05 71 06 33 05 D7 05 DC 
   284)      2022.0  Rx         0005  4  05 F8 05 EE 
   285)      2024.4  Rx         0002  2  07 E3 
   286)      2051.8  Rx         0005  4  05 F7 05 F4 
   287)      2052.3  Rx         0002  2  07 E5 
   288)      2073.5  Rx         0010  8  05 71 06 36 05 D9 05 DE 
   289)      2085.6  Rx         0005  4  05 FA 05 FF 
   290)      2086.4  Rx         0002  2  07 E5 
   291)      2113.0  Rx         0202  1  01 
   292)      2113.5  Rx         0006  2  00 01 
   293)      2113.6  Rx         0011  4  00 C0 00 1F 
   294)      2113.8  Rx         0182  2  00 10 
   295)      2113.9  Rx         0183  2  01 14 
   296)      2123.9  Rx         0005  4  05 FB 06 6A 
   297)      2127.8  Rx         0002  2  07 E5 
   298)      2150.6  Rx         0010  8  05 70 06 38 05 D5 05 DD 
   299)      2160.0  Rx         0005  4  05 FB 07 1B 
   300)      2161.1  Rx         0002  2  07 E6 
   301)      2186.4  Tx         0202  1  00 
   302)      2187.7  Rx         0006  2  00 01 
   303)      2188.5  Rx         0011  4  00 C0 00 1F 
   304)      2188.7  Rx         0182  2  00 10 
   305)      2188.9  Rx         0183  2  01 14 
   306)      2198.6  Rx         0005  4  05 F8 07 6D 
   307)      2200.8  Rx         0002  2  07 E6 
   308)      2228.0  Rx         0010  8  05 70 06 37 05 D5 05 DC 
   309)      2236.0  Rx         0005  4  05 FB 07 75 
   310)      2237.4  Rx         0002  2  07 E8 
   311)      2268.2  Rx         0202  1  01 
   312)      2268.7  Rx         0006  2  00 01 
   313)      2268.9  Rx         0011  4  00 C0 00 1F 
   314)      2269.0  Rx         0182  2  00 10 
   315)      2269.1  Rx         0183  2  01 14 
   316)      2273.6  Rx         0005  4  05 F8 07 75 
   317)      2274.2  Rx         0002  2  07 E8 
   318)      2305.3  Rx         0010  8  05 6E 06 36 05 D6 05 DC 
   319)      2315.3  Rx         0005  4  05 F9 07 73 
   320)      2317.0  Rx         0002  2  07 E8 
   321)      2352.3  Rx         0005  4  05 F8 07 70 
   322)      2352.9  Rx         0002  2  07 E6 
   323)      2373.8  Rx         0010  8  05 72 06 38 05 D4 05 DD 
   324)      2380.4  Rx         0005  4  05 F9 07 75 
   325)      2382.7  Rx         0002  2  07 E6 
   326)      2415.3  Rx         0202  1  01 
   327)      2415.8  Rx         0006  2  00 01 
   328)      2416.0  Rx         0011  4  00 C0 00 1F 
   329)      2416.2  Rx         0182  2  00 10 
   330)      2416.3  Rx         0183  2  01 14 
   331)      2419.0  Rx         0005  4  05 F7 07 83 
   332)      2419.5  Rx         0002  2  07 E6 
   333)      2449.1  Rx         0010  8  05 70 06 37 05 D2 05 DD 
   334)      2456.9  Rx         0005  4  05 F9 07 B3 
   335)      2457.3  Rx         0002  2  07 E5 
   336)      2499.1  Rx         0005  4  05 F8 07 DB 
   337)      2499.6  Rx         0002  2  07 E5 
   338)      2516.9  Rx         0010  8  05 6F 06 36 05 D1 05 DD 
   339)      2526.0  Rx         0005  4  05 F6 07 DF 
   340)      2526.5  Rx         0002  2  07 E5 
   341)      2552.0  Rx         0202  1  01 
   342)      2552.4  Rx         0006  2  00 01 
   343)      2552.6  Rx         0011  4  00 C0 00 1F 
   344)      2552.8  Rx         0182  2  00 10 
   345)      2552.9  Rx         0183  2  01 14 
   346)      2555.1  Rx         0005  4  05 F9 07 DE 
   347)      2555.6  Rx         0002  2  07 E5 
   348)      2580.7  Rx         0010  8  05 6F 06 37 05 D6 05 DD 
   349)      2592.3  Rx         0005  4  05 FA 07 E3 
   350)      2592.9  Rx         0002  2  07 E5 
   351)      2630.2  Rx         0005  4  05 FB 07 E2 
   352)      2630.6  Rx         0002  2  07 E6 
   353)      2643.6  Rx         0010  8  05 72 06 39 05 D8 05 DC 
   354)      2657.8  Rx         0005  4  05 FB 07 E8 
   355)      2658.3  Rx         0002  2  07 E6 
   356)      2682.7  Rx         0202  1  01 
   357)      2683.2  Rx         0006  2  00 01 
   358)      2683.5  Rx         0011  4  00 C0 00 1F 
   359)      2683.6  Rx         0182  2  00 10 
   360)      2683.8  Rx         0183  2  01 14 
   361)      2685.5  Rx         0005  4  05 F8 08 04 
   362)      2686.3  Rx         0002  2  07 E6 
   363)      2707.1  Rx         0010  8  05 73 06 39 05 D6 05 DA 
   364)      2725.3  Rx         0005  4  05 FA 08 44 
   365)      2725.9  Rx         0002  2  07 E8 
   366)      2763.7  Rx         0005  4  05 F7 08 85 
   367)      2764.2  Rx         0002  2  07 E8 
   368)      2774.5  Rx         0010  8  05 70 06 37 05 D5 05 D9 
   369)      2791.4  Rx         0005  4  05 F7 08 D4 
   370)      2791.7  Rx         0002  2  07 E6 
   371)      2819.6  Rx         0202  1  01 
   372)      2820.1  Rx         0006  2  00 01 
   373)      2820.2  Rx         0011  4  00 C0 00 1F 
   374)      2820.3  Rx         0182  2  00 10 
   375)      2820.4  Rx         0183  2  01 14 
   376)      2820.6  Rx         0005  4  05 F8 09 1B 
   377)      2822.0  Rx         0002  2  07 E5 
   378)      2841.6  Rx         0010  8  05 6E 06 37 05 D6 05 DE 
   379)      2858.4  Rx         0005  4  05 F7 09 50 
   380)      2859.4  Rx         0002  2  07 E5 
   381)      2896.8  Rx         0005  4  05 FA 09 73 
   382)      2897.3  Rx         0002  2  07 E5 
   383)      2906.7  Rx         0010  8  05 70 06 36 05 D5 05 DC 
   384)      2924.8  Rx         0005  4  05 F8 09 B2 
   385)      2925.2  Rx         0002  2  07 E5 
   386)      2952.9  Rx         0005  4  05 F9 09 EC 
   387)      2953.5  Rx         0202  1  01 
   388)      2953.9  Rx         0002  2  07 E5 
   389)      2954.0  Rx         0006  2  00 01 
   390)      2954.4  Rx         0011  4  00 C0 00 1F 
   391)      2954.4  Rx         0182  2  00 10 
   392)      2954.6  Rx         0183  2  01 14 
   393)      2974.2  Rx         0010  8  05 6F 06 39 05 D8 05 DE 
   394)      2991.2  Rx         0005  4  05 FA 09 F5 
   395)      2991.7  Rx         0002  2  07 E6 
   396)      3018.3  Rx         0005  4  05 F9 09 F5 
   397)      3018.7  Rx         0002  2  07 E6 
   398)      3028.6  Rx         0010  8  05 70 06 36 05 D4 05 DC 
   399)      3045.6  Rx         0005  4  05 F8 09 F1 
   400)      3046.0  Rx         0002  2  07 E6 
   401)      3075.2  Rx         0005  4  05 FA 09 F0 
   402)      3075.6  Rx         0002  2  07 E6 
   403)      3076.0  Rx         0202  1  01 
   404)      3076.4  Rx         0006  2  00 01 
   405)      3076.6  Rx         0011  4  00 C0 00 1F 
   406)      3076.8  Rx         0182  2  00 10 
   407)      3077.0  Rx         0183  2  01 14 
   408)      3096.9  Rx         0010  8  05 72 06 33 05 D6 05 DC 
   409)      3102.9  Rx         0005  4  05 F9 09 EB 
   410)      3103.5  Rx         0002  2  07 E6 
   411)      3132.3  Rx         0005  4  05 F7 09 DE 
   412)      3132.7  Rx         0002  2  07 E6 
   413)      3153.7  Rx         0010  8  05 6D 06 34 05 D5 05 DA 
   414)      3171.3  Rx         0005  4  05 FB 09 92 
   415)      3171.6  Rx         0002  2  07 E6 
   416)      3187.8  Tx         0202  1  00 
   417)      3189.0  Rx         0006  2  00 01 
   418)      3189.2  Rx         0011  4  00 C0 00 1F 
   419)      3189.4  Rx         0182  2  00 10 
   420)      3189.5  Rx         0183  2  01 14 
   421)      3209.3  Rx         0005  4  05 FA 07 F9 
   422)      3209.7  Rx         0002  2  07 E6 
   423)      3210.6  Rx         0202  1  01 
   424)      3211.1  Rx         0006  2  00 01 
   425)      3211.3  Rx         0011  4  00 C0 00 1F 
   426)      3211.4  Rx         0182  2  00 10 
   427)      3211.6  Rx         0183  2  01 14 
   428)      3230.3  Rx         0010  8  05 71 06 39 05 D6 05 DA 
   429)      3248.0  Rx         0005  4  05 F8 07 43 
   430)      3248.7  Rx         0002  2  07 E6 
   431)      3275.6  Rx         0005  4  05 F9 07 27 
   432)      3276.2  Rx         0002  2  07 E6 
   433)      3296.8  Rx         0010  8  05 6F 06 35 05 D4 05 DC 
   434)      3314.7  Rx         0005  4  05 F4 05 F8 
   435)      3315.2  Rx         0002  2  07 E5 
   436)      3342.6  Rx         0005  4  05 F6 05 F4 
   437)      3343.2  Rx         0002  2  07 E5 
   438)      3344.5  Rx         0202  1  01 
   439)      3345.0  Rx         0006  2  00 01 
   440)      3345.2  Rx         0011  4  00 C0 00 1F 
   441)      3345.4  Rx         0182  2  00 10 
   442)      3345.5  Rx         0183  2  01 14 
   443)      3363.8  Rx         0010  8  05 70 06 37 05 D4 05 DB 
   444)      3370.2  Rx         0005  4  05 FB 05 EB 
   445)      3370.5  Rx         0002  2  07 E5 
   446)      3399.8  Rx         0005  4  05 F8 05 EB 
   447)      3400.2  Rx         0002  2  07 E5 
   448)      3420.9  Rx         0010  8  05 72 06 35 05 D6 05 DD 
   449)      3436.5  Rx         0005  4  05 F8 05 ED 
   450)      3439.0  Rx         0002  2  07 E5 
   451)      3465.0  Rx         0005  4  05 F7 05 EC 
   452)      3465.5  Rx         0002  2  07 E3 
   453)      3468.4  Rx         0202  1  01 
   454)      3468.9  Rx         0006  2  00 01 
   455)      3469.1  Rx         0011  4  00 C0 00 1F 
   456)      3469.3  Rx         0182  2  00 10 
   457)      3469.4  Rx         0183  2  01 14 
   458)      3486.0  Rx         0010  8  05 72 06 35 05 D3 05 DD 
   459)      3499.6  Rx         0005  4  05 F6 05 EB 
   460)      3501.3  Rx         0002  2  07 E5 
   461)      3532.0  Rx         0005  4  05 F8 05 EB 
   462)      3532.4  Rx         0002  2  07 E5 
   463)      3552.6  Rx         0010  8  05 6F 06 38 05 D6 05 DF 
   464)      3565.1  Rx         0005  4  05 FC 05 EA 
   465)      3567.1  Rx         0002  2  07 E5 
   466)      3598.0  Rx         0005  4  05 F6 05 E7 
   467)      3598.3  Rx         0002  2  07 E5 
   468)      3601.1  Rx         0202  1  01 
   469)      3601.7  Rx         0006  2  00 01 
   470)      3602.0  Rx         0011  4  00 C0 00 1F 
   471)      3602.1  Rx         0182  2  00 10 
   472)      3602.2  Rx         0183  2  01 14 
   473)      3619.3  Rx         0010  8  05 72 06 37 05 D6 05 DB 
   474)      3629.8  Rx         0005  4  05 F8 05 ED 
   475)      3632.1  Rx         0002  2  07 E5 
   476)      3664.0  Rx         0005  4  05 F8 05 EB 
   477)      3664.4  Rx         0002  2  07 E5 
   478)      3683.0  Rx         0010  8  05 6F 06 36 05 D7 05 D9 
   479)      3693.5  Rx         0005  4  05 F8 05 EB 
   480)      3696.1  Rx         0002  2  07 E5 
   481)      3730.0  Rx         0005  4  05 FB 05 EC 
   482)      3730.3  Rx         0002  2  07 E6 
   483)      3734.3  Rx         0202  1  01 
   484)      3734.8  Rx         0006  2  00 01 
   485)      3735.0  Rx         0011  4  00 C0 00 1F 
   486)      3735.1  Rx         0182  2  00 10 
   487)      3735.5  Rx         0183  2  01 14 
   488)      3748.4  Rx         0010  8  05 6E 06 36 05 D2 05 D9 
   489)      3757.9  Rx         0005  4  05 FB 05 EC 
   490)      3758.8  Rx         0002  2  07 E6 
   491)      3796.0  Rx         0005  4  05 F8 05 EC 
   492)      3796.5  Rx         0002  2  07 E6 
   493)      3811.2  Rx         0010  8  05 72 06 34 05 D6 05 DD 
   494)      3825.1  Rx         0005  4  05 F9 05 EA 
   495)      3825.4  Rx         0002  2  07 E6 
   496)      3863.8  Rx         0005  4  05 F8 05 E9 
   497)      3864.1  Rx         0002  2  07 E6 
   498)      3869.3  Rx         0202  1  01 
   499)      3869.8  Rx         0006  2  00 01 
   500)      3870.0  Rx         0011  4  00 C0 00 1F 
   501)      3870.1  Rx         0182  2  00 10 
   502)      3870.2  Rx         0183  2  01 14 
   503)      3876.0  Rx         0010  8  05 71 06 35 05 D8 05 DD 
   504)      3892.6  Rx         0005  4  05 F6 05 EB 
   505)      3892.9  Rx         0002  2  07 E6 
   506)      3921.7  Rx         0005  4  05 F8 05 EB 
   507)      3922.2  Rx         0002  2  07 E5 
   508)      3930.9  Rx         0010  8  05 73 06 35 05 D7 05 DC 
   509)      3949.1  Rx         0005  4  05 F7 05 EC 
   510)      3949.4  Rx         0002  2  07 E5 
   511)      3987.2  Rx         0005  4  05 F8 05 EB 
   512)      3987.5  Rx         0002  2  07 E5 
   513)      3993.3  Rx         0202  1  01 
   514)      3993.8  Rx         0006  2  00 01 
   515)      3994.2  Rx         0011  4  00 C0 00 1F 
   516)      3994.3  Rx         0182  2  00 10 
   517)      3994.4  Rx         0183  2  01 14 
   518)      3997.7  Rx         0010  8  05 70 06 37 05 D3 05 DE 
   519)      4017.0  Rx         0005  4  05 F8 05 EB 
   520)      4017.5  Rx         0002  2  07 E5 
   521)      4049.2  Rx         0005  4  05 F8 05 EB 
   522)      4049.7  Rx         0002  2  07 E5 
   523)      4072.6  Rx         0010  8  05 70 06 36 05 D6 05 DC 
   524)      4093.8  Rx         0005  4  05 F7 05 EB 
   525)      4094.5  Rx         0002  2  07 E5 
   526)      4132.7  Rx         0005  4  05 F6 05 E8 
   527)      4133.2  Rx         0002  2  07 E3 
   528)      4139.9  Rx         0202  1  01 
   529)      4140.4  Rx         0006  2  00 01 
   530)      4140.6  Rx         0011  4  00 C0 00 1F 
   531)      4140.7  Rx         0182  2  00 10 
   532)      4140.9  Rx         0183  2  01 14 
   533)      4143.7  Rx         0010  8  05 71 06 35 05 D6 05 DA 
   534)      4165.9  Rx         0005  4  05 F8 05 E9 
   535)      4166.5  Rx         0002  2  07 E5 
   536)      4186.9  Tx         0202  1  00 
   537)      4188.1  Rx         0006  2  00 01 
   538)      4188.5  Rx         0011  4  00 C0 00 1F 
   539)      4188.6  Rx         0182  2  00 10 
   540)      4188.8  Rx         0183  2  01 14 
   541)      4209.6  Rx         0005  4  05 F9 05 EB 
   542)      4210.2  Rx         0002  2  07 E5 
   543)      4230.0  Rx         0010  8  05 72 06 37 05 D5 05 DC 
   544)      4240.5  Rx         0005  4  05 F6 05 EB 
   545)      4240.8  Rx         0002  2  07 E3 
   546)      4280.3  Rx         0005  4  05 F9 05 EC 
   547)      4281.0  Rx         0002  2  07 E5 
   548)      4289.0  Rx         0202  1  01 
   549)      4289.4  Rx         0006  2  00 01 
   550)      4289.6  Rx         0011  4  00 C0 00 1F 
   551)      4289.7  Rx         0182  2  00 10 
   552)      4290.0  Rx         0183  2  01 14 
   553)      4291.5  Rx         0010  8  05 71 06 34 05 D6 05 DE 
   554)      4309.8  Rx         0005  4  05 F7 05 ED 
   555)      4310.2  Rx         0002  2  07 E5 
   556)      4340.2  Rx         0005  4  05 F8 05 EB 
   557)      4340.8  Rx         0002  2  07 E5 
   558)      4360.8  Rx         0010  8  05 71 06 3A 05 D8 05 DC 
   559)      4368.5  Rx         0005  4  05 F7 05 EC 
   560)      4368.8  Rx         0002  2  07 E5 
   561)      4397.8  Rx         0005  4  05 F8 05 EC 
   562)      4398.0  Rx         0002  2  07 E5 
   563)      4408.1  Rx         0202  1  01 
   564)      4408.5  Rx         0006  2  00 01 
   565)      4408.8  Rx         0011  4  00 C0 00 1F 
   566)      4409.0  Rx         0182  2  00 10 
   567)      4409.0  Rx         0183  2  01 14 
   568)      4409.5  Rx         0010  8  05 72 06 38 05 D6 05 DB 
   569)      4430.9  Rx         0005  4  05 F7 05 EF 
   570)      4431.5  Rx         0002  2  07 E5 
   571)      4460.0  Rx         0005  4  05 F7 05 EB 
   572)      4460.3  Rx         0002  2  07 E3 
   573)      4481.3  Rx         0010  8  05 70 06 36 05 D2 05 DD 
   574)      4489.2  Rx         0005  4  05 F6 05 ED 
   575)      4489.8  Rx         0002  2  07 E3 
   576)      4517.1  Rx         0005  4  05 F8 05 ED 
   577)      4517.3  Rx         0002  2  07 E3 
   578)      4537.3  Rx         0202  1  01 
   579)      4537.8  Rx         0006  2  00 01 
   580)      4538.0  Rx         0011  4  00 C0 00 1F 
   581)      4538.3  Rx         0010  8  05 70 06 35 05 D4 05 DB 
   582)      4538.4  Rx         0182  2  00 10 
   583)      4538.6  Rx         0183  2  01 14 
   584)      4558.2  Rx         0005  4  05 F6 05 E9 
   585)      4558.7  Rx         0002  2  07 E3 
   586)      4587.9  Rx         0005  4  05 F9 05 EB 
   587)      4588.2  Rx         0002  2  07 E3 
   588)      4608.3  Rx         0010  8  05 6F 06 30 05 D6 05 DF 
   589)      4616.3  Rx         0005  4  05 F6 05 EB 
   590)      4616.6  Rx         0002  2  07 E3 
   591)      4648.0  Rx         0005  4  05 F6 05 EC 
   592)      4648.5  Rx         0002  2  07 E3 
   593)      4667.9  Rx         0010  8  05 70 06 37 05 D5 05 DC 
   594)      4668.3  Rx         0202  1  01 
   595)      4668.8  Rx         0006  2  00 01 
   596)      4669.0  Rx         0011  4  00 C0 00 1F 
   597)      4669.1  Rx         0182  2  00 10 
   598)      4669.3  Rx         0183  2  01 14 
   599)      4686.2  Rx         0005  4  05 F7 05 EC 
   600)      4686.4  Rx         0002  2  07 E3 
   601)      4716.6  Rx         0005  4  05 F7 05 EB 
   602)      4717.1  Rx         0002  2  07 E3 
   603)      4737.4  Rx         0010  8  05 71 06 35 05 D5 05 DD 
   604)      4757.5  Rx         0005  4  05 F6 05 E8 
   605)      4757.9  Rx         0002  2  07 E3 
   606)      4784.2  Rx         0005  4  05 F8 05 ED 
   607)      4785.0  Rx         0002  2  07 E3 
   608)      4803.8  Rx         0010  8  05 72 06 36 05 D5 05 DA 
   609)      4805.7  Rx         0202  1  01 
   610)      4806.2  Rx         0006  2  00 01 
   611)      4806.4  Rx         0011  4  00 C0 00 1F 
   612)      4806.5  Rx         0182  2  00 10 
   613)      4806.6  Rx         0183  2  01 14 
   614)      4823.7  Rx         0005  4  05 F8 05 EC 
   615)      4824.3  Rx         0002  2  07 E3 
