;$FILEVERSION=1.1
;$STARTTIME=41974.4906116088
;
;   C:\Documents and Settings\Administrator\Desktop\started ad  stop.trc
;
;   Start time: 12/1/2014 11:46:28.843.x
;
;   Message Number
;   |         Time Offset (ms)
;   |         |        Type
;   |         |        |        ID (hex)
;   |         |        |        |     Data Length Code
;   |         |        |        |     |   Data Bytes (hex) ...
;   |         |        |        |     |   |
;---+--   ----+----  --+--  ----+---  +  -+ -- -- -- -- -- -- --
     1)         0.5  Rx         0202  1  01 
     2)         1.8  Rx         0006  2  00 01 
     3)         2.7  Rx         0011  4  00 C0 00 1F 
     4)         3.3  Rx         0182  2  00 10 
     5)         4.0  Rx         0183  2  01 14 
     6)        16.8  Rx         0005  4  05 F7 05 EB 
     7)        19.0  Rx         0002  2  07 E3 
     8)        25.3  Rx         0010  8  05 74 06 38 05 D7 05 DC 
     9)        45.8  Rx         0005  4  05 F6 05 EB 
    10)        46.2  Rx         0002  2  07 E3 
    11)        65.7  Rx         0005  4  05 F7 05 EC 
    12)        66.1  Rx         0002  2  07 E3 
    13)        73.2  Rx         0010  8  05 6F 06 34 05 D6 05 E0 
    14)        91.6  Rx         0005  4  05 F7 05 EF 
    15)        92.0  Rx         0002  2  07 E3 
    16)       105.6  Rx         0202  1  01 
    17)       106.4  Rx         0006  2  00 01 
    18)       106.6  Rx         0011  4  00 C0 00 1F 
    19)       106.9  Rx         0182  2  00 10 
    20)       107.0  Rx         0183  2  01 14 
    21)       113.3  Rx         0005  4  05 F6 05 EA 
    22)       113.9  Rx         0002  2  07 E3 
    23)       121.7  Rx         0010  8  05 72 06 35 05 D5 05 DE 
    24)       143.3  Rx         0005  4  05 F7 05 EB 
    25)       143.6  Rx         0002  2  07 E3 
    26)       164.9  Rx         0005  4  05 F6 05 EB 
    27)       165.4  Rx         0002  2  07 E1 
    28)       171.6  Rx         0010  8  05 70 06 35 05 D3 05 DD 
    29)       188.9  Rx         0005  4  05 F6 05 ED 
    30)       189.3  Rx         0002  2  07 E1 
    31)       203.1  Rx         0202  1  01 
    32)       203.6  Rx         0006  2  00 01 
    33)       204.0  Rx         0011  4  00 C0 00 1F 
    34)       204.2  Rx         0182  2  00 10 
    35)       204.4  Rx         0183  2  01 14 
    36)       211.2  Rx         0005  4  05 F9 05 ED 
    37)       211.7  Rx         0002  2  07 E3 
    38)       217.6  Rx         0010  8  05 71 06 38 05 D8 05 DE 
    39)       234.8  Rx         0005  4  05 F7 05 EB 
    40)       235.1  Rx         0002  2  07 E3 
    41)       253.0  Rx         0005  4  05 F7 05 ED 
    42)       253.3  Rx         0002  2  07 E3 
    43)       257.2  Rx         0010  8  05 71 06 37 05 D9 05 DF 
    44)       270.4  Tx         0202  1  00 
    45)       270.8  Rx         0006  2  00 01 
    46)       271.0  Rx         0011  4  00 C0 00 1F 
    47)       271.1  Rx         0182  2  00 10 
    48)       271.2  Rx         0183  2  01 14 
    49)       271.6  Rx         0005  4  05 F6 05 EC 
    50)       272.7  Rx         0002  2  07 E3 
    51)       286.7  Rx         0202  1  01 
    52)       288.0  Rx         0006  2  00 01 
    53)       288.8  Rx         0011  4  00 C0 00 1F 
    54)       289.5  Rx         0182  2  00 10 
    55)       290.2  Rx         0183  2  01 14 
    56)       300.3  Rx         0005  4  05 F8 05 EC 
    57)       300.6  Rx         0002  2  07 E3 
    58)       309.1  Rx         0010  8  05 71 06 36 05 D7 05 DF 
    59)       336.7  Rx         0005  4  05 F8 05 EC 
    60)       337.2  Rx         0002  2  07 E5 
    61)       365.6  Rx         0005  4  05 F7 05 EC 
    62)       365.8  Rx         0002  2  07 E3 
    63)       372.4  Rx         0010  8  05 74 06 38 05 D7 05 DE 
    64)       403.7  Rx         0005  4  05 F7 05 EC 
    65)       404.0  Rx         0002  2  07 E3 
    66)       425.6  Rx         0202  1  01 
    67)       426.1  Rx         0006  2  00 01 
    68)       426.3  Rx         0011  4  00 C0 00 1F 
    69)       426.5  Rx         0182  2  00 10 
    70)       426.6  Rx         0183  2  01 14 
    71)       431.5  Rx         0005  4  05 FA 05 EC 
    72)       431.9  Rx         0002  2  07 E5 
    73)       435.9  Rx         0010  8  05 75 06 39 05 D4 05 DC 
    74)       472.6  Rx         0005  4  05 F6 05 EB 
    75)       473.1  Rx         0002  2  07 E5 
    76)       500.1  Rx         0005  4  05 F5 05 EA 
    77)       500.4  Rx         0002  2  07 E3 
    78)       503.8  Rx         0010  8  05 6E 06 37 05 DA 05 DE 
    79)       543.1  Rx         0005  4  05 F9 05 EB 
    80)       543.4  Rx         0002  2  07 E3 
    81)       566.2  Rx         0202  1  01 
    82)       566.7  Rx         0006  2  00 01 
    83)       566.9  Rx         0011  4  00 C0 00 1F 
    84)       567.1  Rx         0182  2  00 10 
    85)       567.3  Rx         0183  2  01 14 
    86)       570.5  Rx         0005  4  05 F9 05 EC 
    87)       570.8  Rx         0002  2  07 E5 
    88)       573.8  Rx         0010  8  05 71 06 37 05 D8 05 DC 
    89)       610.8  Rx         0005  4  05 F8 05 EC 
    90)       611.2  Rx         0002  2  07 E5 
    91)       648.5  Rx         0005  4  05 F5 05 EA 
    92)       649.0  Rx         0002  2  07 E3 
    93)       652.0  Rx         0010  8  05 70 06 34 05 DA 05 DC 
    94)       677.3  Rx         0005  4  05 F6 05 ED 
    95)       677.7  Rx         0002  2  07 E3 
    96)       702.6  Rx         0202  1  01 
    97)       703.2  Rx         0006  2  00 01 
    98)       703.4  Rx         0011  4  00 C0 00 1F 
    99)       703.5  Rx         0182  2  00 10 
   100)       703.7  Rx         0183  2  01 14 
   101)       706.6  Rx         0005  4  05 F4 05 ED 
   102)       706.9  Rx         0002  2  07 E3 
   103)       710.2  Rx         0010  8  05 70 06 34 05 D5 05 E0 
   104)       749.2  Rx         0005  4  05 FA 05 EE 
   105)       749.5  Rx         0002  2  07 E3 
   106)       777.2  Rx         0005  4  05 F7 05 EB 
   107)       777.4  Rx         0002  2  07 E3 
   108)       780.1  Rx         0010  8  05 71 06 3A 05 D8 05 DD 
   109)       807.6  Rx         0005  4  05 F5 05 EB 
   110)       808.1  Rx         0002  2  07 E1 
   111)       832.5  Rx         0202  1  01 
   112)       833.1  Rx         0006  2  00 01 
   113)       833.3  Rx         0011  4  00 C0 00 1F 
   114)       833.4  Rx         0182  2  00 10 
   115)       833.5  Rx         0183  2  01 14 
   116)       835.4  Rx         0005  4  05 F9 05 EF 
   117)       835.6  Rx         0002  2  07 E3 
   118)       839.0  Rx         0010  8  05 6D 06 37 05 D9 05 DD 
   119)       875.1  Rx         0005  4  05 F5 05 ED 
   120)       875.8  Rx         0002  2  07 E3 
   121)       901.7  Rx         0005  4  05 F7 05 EB 
   122)       902.1  Rx         0002  2  07 E3 
   123)       905.2  Rx         0010  8  05 6C 06 36 05 D7 05 DD 
   124)       929.5  Rx         0005  4  05 F8 05 EA 
   125)       930.0  Rx         0002  2  07 E3 
   126)       954.3  Rx         0202  1  01 
   127)       955.6  Rx         0006  2  00 01 
   128)       956.4  Rx         0011  4  00 C0 00 1F 
   129)       957.1  Rx         0182  2  00 10 
   130)       957.8  Rx         0183  2  01 14 
   131)       966.5  Rx         0005  4  05 F5 05 E8 
   132)       968.6  Rx         0002  2  07 E1 
   133)       970.6  Rx         0010  8  05 71 06 39 05 DA 05 E2 
   134)       998.8  Rx         0005  4  05 F5 05 EA 
   135)       999.2  Rx         0002  2  07 E1 
   136)      1026.6  Rx         0005  4  05 FA 05 EB 
   137)      1027.3  Rx         0002  2  07 E3 
   138)      1029.7  Rx         0010  8  05 71 06 39 05 D7 05 DD 
   139)      1056.8  Rx         0005  4  05 F8 05 EC 
   140)      1057.2  Rx         0002  2  07 E3 
   141)      1083.2  Rx         0202  1  01 
   142)      1083.8  Rx         0006  2  00 01 
   143)      1084.0  Rx         0011  4  00 C0 00 1F 
   144)      1084.1  Rx         0182  2  00 10 
   145)      1084.3  Rx         0183  2  01 14 
   146)      1084.7  Rx         0005  4  05 F8 05 EC 
   147)      1085.7  Rx         0002  2  07 E3 
   148)      1087.5  Rx         0010  8  05 71 06 36 05 D4 05 DF 
   149)      1111.7  Rx         0005  4  05 FB 05 EF 
   150)      1113.0  Rx         0002  2  07 E5 
   151)      1139.7  Rx         0005  4  05 F5 05 EB 
   152)      1140.1  Rx         0002  2  07 E5 
   153)      1142.9  Rx         0010  8  05 71 06 38 05 DA 05 DB 
   154)      1168.4  Rx         0005  4  05 F4 05 ED 
   155)      1169.0  Rx         0002  2  07 E5 
   156)      1195.2  Rx         0202  1  01 
   157)      1195.8  Rx         0006  2  00 01 
   158)      1196.0  Rx         0005  4  05 FA 05 EC 
   159)      1196.2  Rx         0011  4  00 C0 00 1F 
   160)      1196.3  Rx         0182  2  00 10 
   161)      1196.5  Rx         0183  2  01 14 
   162)      1196.9  Rx         0002  2  07 E5 
   163)      1199.5  Rx         0010  8  05 6F 06 34 05 D7 05 E1 
   164)      1225.9  Rx         0005  4  05 F9 05 EC 
   165)      1226.5  Rx         0002  2  07 E5 
   166)      1252.6  Rx         0005  4  05 F9 05 EC 
   167)      1253.8  Rx         0002  2  07 E5 
   168)      1255.9  Rx         0010  8  05 6E 06 37 05 D8 05 DF 
   169)      1271.6  Tx         0202  1  00 
   170)      1272.8  Rx         0006  2  00 01 
   171)      1273.7  Rx         0011  4  00 C0 00 1F 
   172)      1274.4  Rx         0182  2  00 10 
   173)      1274.8  Rx         0183  2  01 14 
   174)      1280.3  Rx         0005  4  05 F9 05 ED 
   175)      1282.3  Rx         0002  2  07 E5 
   176)      1319.1  Rx         0005  4  05 FA 05 EF 
   177)      1319.5  Rx         0202  1  01 
   178)      1320.8  Rx         0006  2  00 01 
   179)      1321.4  Rx         0002  2  07 E5 
   180)      1321.6  Rx         0011  4  00 C0 00 1F 
   181)      1323.0  Rx         0182  2  00 10 
   182)      1323.7  Rx         0183  2  01 14 
   183)      1333.2  Rx         0010  8  05 70 06 34 05 D7 05 E1 
   184)      1361.6  Rx         0005  4  05 F2 05 E8 
   185)      1362.0  Rx         0002  2  07 E5 
   186)      1390.6  Rx         0005  4  05 F5 05 EA 
   187)      1391.2  Rx         0002  2  07 E3 
   188)      1393.5  Rx         0010  8  05 6F 06 36 05 D5 05 DD 
   189)      1418.9  Rx         0005  4  05 F8 05 EF 
   190)      1419.2  Rx         0002  2  07 E3 
   191)      1445.2  Rx         0005  4  05 F6 05 EB 
   192)      1445.5  Rx         0002  2  07 E3 
   193)      1446.1  Rx         0202  1  01 
   194)      1446.7  Rx         0006  2  00 01 
   195)      1447.0  Rx         0011  4  00 C0 00 1F 
   196)      1447.7  Rx         0182  2  00 10 
   197)      1448.4  Rx         0183  2  01 14 
   198)      1455.2  Rx         0010  8  05 73 06 37 05 D7 05 DC 
   199)      1485.4  Rx         0005  4  05 F9 05 E9 
   200)      1486.0  Rx         0002  2  07 E3 
   201)      1511.7  Rx         0005  4  05 F4 05 E8 
   202)      1512.0  Rx         0002  2  07 E1 
   203)      1515.1  Rx         0010  8  05 70 06 34 05 D8 05 DC 
   204)      1541.0  Rx         0005  4  05 F8 05 EA 
   205)      1541.6  Rx         0002  2  07 E3 
   206)      1568.6  Rx         0005  4  05 F8 05 EE 
   207)      1568.9  Rx         0002  2  07 E3 
   208)      1569.9  Rx         0202  1  01 
   209)      1570.6  Rx         0006  2  00 01 
   210)      1571.0  Rx         0011  4  00 C0 00 1F 
   211)      1571.6  Rx         0182  2  00 10 
   212)      1572.3  Rx         0183  2  01 14 
   213)      1573.9  Rx         0010  8  05 74 06 3A 05 D6 05 DD 
   214)      1609.0  Rx         0005  4  05 F7 05 EC 
   215)      1609.6  Rx         0002  2  07 E3 
   216)      1637.0  Rx         0005  4  05 F5 05 E9 
   217)      1638.2  Rx         0002  2  07 E3 
   218)      1640.1  Rx         0010  8  05 72 06 37 05 D8 05 DE 
   219)      1675.0  Rx         0005  4  05 F8 05 EA 
   220)      1675.4  Rx         0002  2  07 E3 
   221)      1702.9  Rx         0005  4  05 F7 05 ED 
   222)      1703.6  Rx         0002  2  07 E3 
   223)      1705.6  Rx         0010  8  05 6F 06 36 05 D7 05 E1 
   224)      1706.3  Rx         0202  1  01 
   225)      1706.9  Rx         0006  2  00 01 
   226)      1707.1  Rx         0011  4  00 C0 00 1F 
   227)      1707.2  Rx         0182  2  00 10 
   228)      1707.3  Rx         0183  2  01 14 
   229)      1734.3  Rx         0005  4  05 F8 05 ED 
   230)      1734.6  Rx         0002  2  07 E3 
   231)      1760.7  Rx         0005  4  05 F8 05 ED 
   232)      1761.4  Rx         0002  2  07 E3 
   233)      1763.5  Rx         0010  8  05 6F 06 34 05 D8 05 DF 
   234)      1801.6  Rx         0005  4  05 FB 05 EB 
   235)      1802.0  Rx         0002  2  07 E5 
   236)      1828.1  Rx         0005  4  05 F9 05 ED 
   237)      1828.8  Rx         0002  2  07 E5 
   238)      1831.1  Rx         0010  8  05 6C 06 35 05 D9 05 DD 
   239)      1832.1  Rx         0202  1  01 
   240)      1832.8  Rx         0006  2  00 01 
   241)      1833.1  Rx         0011  4  00 C0 00 1F 
   242)      1833.8  Rx         0182  2  00 10 
   243)      1834.5  Rx         0183  2  01 14 
   244)      1868.9  Rx         0005  4  05 F5 05 EA 
   245)      1869.7  Rx         0002  2  07 E5 
   246)      1896.8  Rx         0005  4  06 00 05 ED 
   247)      1897.1  Rx         0002  2  07 E8 
   248)      1898.9  Rx         0010  8  05 70 06 36 05 D8 05 DF 
   249)      1934.7  Rx         0005  4  05 FA 05 EA 
   250)      1935.2  Rx         0002  2  07 E8 
   251)      1963.5  Rx         0005  4  05 F5 05 EC 
   252)      1964.0  Rx         0002  2  07 E6 
   253)      1965.2  Rx         0010  8  05 70 06 37 05 D8 05 E1 
   254)      1967.4  Rx         0202  1  01 
   255)      1967.8  Rx         0006  2  00 01 
   256)      1968.1  Rx         0011  4  00 C0 00 1F 
   257)      1968.8  Rx         0182  2  00 10 
   258)      1969.5  Rx         0183  2  01 14 
   259)      2002.6  Rx         0005  4  05 F6 05 EC 
   260)      2003.8  Rx         0002  2  07 E5 
   261)      2031.2  Rx         0005  4  05 F8 05 ED 
   262)      2031.8  Rx         0002  2  07 E5 
   263)      2033.8  Rx         0010  8  05 74 06 39 05 D7 05 DF 
   264)      2061.6  Rx         0005  4  05 F9 05 EC 
   265)      2062.0  Rx         0002  2  07 E6 
   266)      2091.5  Rx         0005  4  05 FB 05 E9 
   267)      2092.2  Rx         0002  2  07 E5 
   268)      2094.3  Rx         0010  8  05 70 06 32 05 D7 05 E1 
   269)      2097.8  Rx         0202  1  01 
   270)      2098.4  Rx         0006  2  00 01 
   271)      2098.5  Rx         0011  4  00 C0 00 1F 
   272)      2099.2  Rx         0182  2  00 10 
   273)      2099.9  Rx         0183  2  01 14 
   274)      2132.4  Rx         0005  4  05 F7 05 EB 
   275)      2133.0  Rx         0002  2  07 E5 
   276)      2162.1  Rx         0005  4  05 F5 05 EC 
   277)      2162.8  Rx         0002  2  07 E5 
   278)      2164.3  Rx         0010  8  05 70 06 32 05 D5 05 E2 
   279)      2196.3  Rx         0005  4  05 F4 05 E7 
   280)      2197.0  Rx         0002  2  07 E3 
   281)      2226.7  Rx         0005  4  05 FC 05 F0 
   282)      2227.7  Rx         0002  2  07 E5 
   283)      2229.1  Rx         0010  8  05 6F 06 36 05 DB 05 DE 
   284)      2233.8  Rx         0202  1  01 
   285)      2234.7  Rx         0006  2  00 01 
   286)      2235.5  Rx         0011  4  00 C0 00 1F 
   287)      2236.2  Rx         0182  2  00 10 
   288)      2236.9  Rx         0183  2  01 14 
   289)      2267.6  Rx         0005  4  05 FB 05 EE 
   290)      2268.4  Rx         0002  2  07 E5 
   291)      2270.7  Tx         0202  1  00 
   292)      2271.0  Rx         0006  2  00 01 
   293)      2271.3  Rx         0011  4  00 C0 00 1F 
   294)      2271.5  Rx         0182  2  00 10 
   295)      2271.6  Rx         0183  2  01 14 
   296)      2297.5  Rx         0005  4  05 F8 05 EB 
   297)      2298.0  Rx         0002  2  07 E5 
   298)      2299.2  Rx         0010  8  05 70 06 37 05 D6 05 DE 
   299)      2327.3  Rx         0005  4  05 F6 05 E9 
   300)      2328.2  Rx         0002  2  07 E5 
   301)      2401.3  Rx         0005  4  05 F8 05 EB 
   302)      2403.9  Rx         0002  2  07 E5 
   303)      2407.7  Rx         0010  8  05 70 06 34 05 D6 05 DF 
   304)      2436.4  Rx         0202  1  01 
   305)      2437.7  Rx         0006  2  00 01 
   306)      2438.5  Rx         0011  4  00 C0 00 1F 
   307)      2439.2  Rx         0182  2  00 10 
   308)      2439.9  Rx         0183  2  01 14 
   309)      2465.5  Rx         0005  4  05 F8 05 EB 
   310)      2468.5  Rx         0002  2  07 E6 
   311)      2521.6  Rx         0005  4  05 F8 05 EA 
   312)      2522.1  Rx         0002  2  07 E5 
   313)      2526.3  Rx         0010  8  05 70 06 35 05 D6 05 E0 
   314)      2567.4  Rx         0005  4  05 F8 05 ED 
   315)      2567.7  Rx         0002  2  07 E5 
   316)      2621.1  Rx         0005  4  05 F8 05 EB 
   317)      2622.6  Rx         0002  2  07 E5 
   318)      2626.2  Rx         0010  8  05 73 06 37 05 D6 05 DF 
   319)      2651.1  Rx         0202  1  01 
   320)      2652.4  Rx         0006  2  00 01 
   321)      2653.2  Rx         0011  4  00 C0 00 1F 
   322)      2653.9  Rx         0182  2  00 10 
   323)      2654.6  Rx         0183  2  01 14 
   324)      2688.3  Rx         0005  4  05 F8 05 EF 
   325)      2690.7  Rx         0002  2  07 E5 
   326)      2722.3  Rx         0005  4  05 F5 05 ED 
   327)      2722.8  Rx         0002  2  07 E5 
   328)      2723.9  Rx         0010  8  05 71 06 34 05 D7 05 DF 
   329)      2751.4  Rx         0005  4  05 FF 05 EE 
   330)      2752.2  Rx         0002  2  07 E6 
   331)      2781.0  Rx         0005  4  05 FB 05 EC 
   332)      2781.6  Rx         0002  2  07 E6 
   333)      2782.3  Rx         0010  8  05 70 06 35 05 D8 05 E1 
   334)      2801.1  Rx         0202  1  01 
   335)      2802.3  Rx         0006  2  00 01 
   336)      2803.2  Rx         0011  4  00 C0 00 1F 
   337)      2803.9  Rx         0182  2  00 10 
   338)      2804.5  Rx         0183  2  01 14 
   339)      2821.8  Rx         0005  4  05 F9 05 EB 
   340)      2824.8  Rx         0002  2  07 E6 
   341)      2860.7  Rx         0005  4  05 F5 05 E7 
   342)      2861.9  Rx         0002  2  07 E6 
   343)      2869.0  Rx         0010  8  05 72 06 37 05 D5 05 E0 
   344)      2902.3  Rx         0005  4  05 F6 05 EB 
   345)      2903.0  Rx         0002  2  07 E5 
   346)      2952.6  Rx         0005  4  05 F6 05 EC 
   347)      2953.0  Rx         0002  2  07 E6 
   348)      2954.9  Rx         0010  8  05 72 06 39 05 D7 05 DE 
   349)      2962.5  Rx         0202  1  01 
   350)      2963.3  Rx         0006  2  00 01 
   351)      2963.5  Rx         0011  4  00 C0 00 1F 
   352)      2963.6  Rx         0182  2  00 10 
   353)      2963.7  Rx         0183  2  01 14 
   354)      2972.7  Rx         0005  4  05 FA 05 EF 
   355)      2973.3  Rx         0002  2  07 E5 
   356)      2989.6  Rx         0005  4  05 F6 05 ED 
   357)      2990.1  Rx         0002  2  07 E3 
   358)      2991.4  Rx         0010  8  05 73 06 36 05 D8 05 E1 
   359)      3007.1  Rx         0005  4  05 F4 05 EB 
   360)      3007.4  Rx         0002  2  07 E1 
   361)      3023.9  Rx         0005  4  05 FA 05 E9 
   362)      3024.5  Rx         0002  2  07 E3 
   363)      3025.6  Rx         0010  8  05 72 06 34 05 D5 05 E1 
   364)      3041.3  Rx         0202  1  01 
   365)      3041.8  Rx         0006  2  00 01 
   366)      3042.1  Rx         0011  4  00 C0 00 1F 
   367)      3042.3  Rx         0182  2  00 10 
   368)      3042.4  Rx         0183  2  01 14 
   369)      3060.6  Rx         0005  4  05 F5 05 EA 
   370)      3061.6  Rx         0002  2  07 E3 
   371)      3078.8  Rx         0005  4  05 FD 05 EF 
   372)      3079.2  Rx         0002  2  07 E5 
   373)      3080.0  Rx         0010  8  05 73 06 36 05 D8 05 E0 
   374)      3095.5  Rx         0005  4  05 F9 05 EC 
   375)      3095.9  Rx         0002  2  07 E5 
   376)      3112.0  Rx         0005  4  05 F7 05 EC 
   377)      3112.6  Rx         0002  2  07 E5 
   378)      3113.2  Rx         0010  8  05 6E 06 35 05 D6 05 DE 
   379)      3122.9  Rx         0202  1  01 
   380)      3123.3  Rx         0006  2  00 01 
   381)      3123.5  Rx         0011  4  00 C0 00 1F 
   382)      3123.5  Rx         0182  2  00 10 
   383)      3123.7  Rx         0183  2  01 14 
   384)      3129.8  Rx         0005  4  05 FA 05 EA 
   385)      3130.3  Rx         0002  2  07 E6 
   386)      3147.6  Rx         0005  4  05 F6 05 EA 
   387)      3148.0  Rx         0002  2  07 E5 
   388)      3148.8  Rx         0010  8  05 72 06 3A 05 D7 05 E1 
   389)      3167.5  Rx         0005  4  05 F9 05 ED 
   390)      3168.1  Rx         0002  2  07 E6 
   391)      3188.6  Rx         0005  4  05 F6 05 EC 
   392)      3188.9  Rx         0002  2  07 E5 
   393)      3190.0  Rx         0010  8  05 70 06 36 05 D5 05 DF 
   394)      3203.3  Rx         0202  1  01 
   395)      3203.9  Rx         0006  2  00 01 
   396)      3204.0  Rx         0011  4  00 C0 00 1F 
   397)      3204.1  Rx         0182  2  00 10 
   398)      3204.5  Rx         0183  2  01 14 
   399)      3209.3  Rx         0005  4  05 F7 05 ED 
   400)      3210.0  Rx         0002  2  07 E5 
   401)      3225.9  Rx         0005  4  05 F8 05 EC 
   402)      3226.3  Rx         0002  2  07 E5 
   403)      3227.0  Rx         0010  8  05 70 06 34 05 D9 05 E2 
   404)      3244.3  Rx         0005  4  05 F6 05 EC 
   405)      3245.0  Rx         0002  2  07 E3 
   406)      3265.4  Rx         0005  4  05 FA 05 ED 
   407)      3268.5  Rx         0002  2  07 E5 
   408)      3271.4  Tx         0202  1  00 
   409)      3271.9  Rx         0010  8  05 72 06 37 05 D6 05 DE 
   410)      3272.6  Rx         0006  2  00 01 
   411)      3272.9  Rx         0011  4  00 C0 00 1F 
   412)      3273.2  Rx         0182  2  00 10 
   413)      3273.3  Rx         0183  2  01 14 
   414)      3283.4  Rx         0202  1  01 
   415)      3283.9  Rx         0006  2  00 01 
   416)      3284.1  Rx         0011  4  00 C0 00 1F 
   417)      3284.2  Rx         0182  2  00 10 
   418)      3284.6  Rx         0183  2  01 14 
   419)      3288.8  Rx         0005  4  05 FA 05 EF 
   420)      3289.4  Rx         0002  2  07 E5 
   421)      3305.4  Rx         0005  4  05 F7 05 ED 
   422)      3306.0  Rx         0002  2  07 E5 
   423)      3306.5  Rx         0010  8  05 72 06 3A 05 D7 05 E0 
   424)      3324.9  Rx         0005  4  05 F9 05 ED 
   425)      3325.4  Rx         0002  2  07 E5 
   426)      3343.0  Rx         0005  4  05 F8 05 F1 
   427)      3343.7  Rx         0002  2  07 E5 
   428)      3344.1  Rx         0010  8  05 72 06 38 05 D6 05 DB 
   429)      3364.0  Rx         0202  1  01 
   430)      3364.5  Rx         0006  2  00 01 
   431)      3364.7  Rx         0011  4  00 C0 00 1F 
   432)      3364.9  Rx         0182  2  00 10 
   433)      3365.1  Rx         0183  2  01 14 
   434)      3369.0  Rx         0005  4  05 FA 05 ED 
   435)      3369.3  Rx         0002  2  07 E6 
   436)      3394.7  Rx         0005  4  05 F7 05 EC 
   437)      3395.0  Rx         0002  2  07 E5 
   438)      3395.7  Rx         0010  8  05 6F 06 39 05 D7 05 DD 
   439)      3415.7  Rx         0005  4  05 F7 05 E6 
   440)      3416.2  Rx         0002  2  07 E5 
   441)      3440.7  Rx         0005  4  05 F8 05 F0 
   442)      3441.1  Rx         0002  2  07 E5 
   443)      3441.7  Rx         0010  8  05 73 06 33 05 D7 05 DD 
   444)      3454.3  Rx         0202  1  01 
   445)      3454.7  Rx         0006  2  00 01 
   446)      3454.9  Rx         0011  4  00 C0 00 1F 
   447)      3455.0  Rx         0182  2  00 10 
   448)      3455.2  Rx         0183  2  01 14 
   449)      3459.2  Rx         0005  4  05 F2 05 E8 
   450)      3459.8  Rx         0002  2  07 E3 
   451)      3492.8  Rx         0005  4  05 FC 05 EC 
   452)      3493.2  Rx         0002  2  07 E5 
   453)      3493.9  Rx         0010  8  05 76 06 33 05 D5 05 DF 
   454)      3511.2  Rx         0005  4  05 F5 05 EA 
   455)      3511.8  Rx         0002  2  07 E3 
   456)      3527.5  Rx         0005  4  05 F8 05 E7 
   457)      3528.0  Rx         0002  2  07 E3 
   458)      3528.4  Rx         0010  8  05 72 06 31 05 D6 05 E3 
   459)      3545.1  Rx         0202  1  01 
   460)      3545.7  Rx         0006  2  00 01 
   461)      3546.1  Rx         0011  4  00 C0 00 1F 
   462)      3546.3  Rx         0182  2  00 10 
   463)      3546.5  Rx         0183  2  01 14 
   464)      3548.2  Rx         0005  4  05 F6 05 EB 
   465)      3549.5  Rx         0002  2  07 E3 
   466)      3607.8  Rx         0005  4  05 FB 05 EC 
   467)      3610.0  Rx         0002  2  07 E3 
   468)      3610.1  Rx         0010  8  05 6F 06 34 05 D8 05 E3 
   469)      3653.1  Rx         0005  4  05 F4 05 EF 
   470)      3654.0  Rx         0002  2  07 E5 
   471)      3672.4  Rx         0005  4  05 F7 05 EB 
   472)      3673.4  Rx         0002  2  07 E3 
   473)      3673.5  Rx         0010  8  05 74 06 3B 05 D9 05 DF 
   474)      3690.8  Rx         0202  1  01 
   475)      3691.4  Rx         0006  2  00 01 
   476)      3691.6  Rx         0011  4  00 C0 00 1F 
   477)      3691.8  Rx         0182  2  00 10 
   478)      3691.9  Rx         0183  2  01 14 
   479)      3693.4  Rx         0005  4  05 F8 05 EC 
   480)      3694.0  Rx         0002  2  07 E3 
   481)      3711.9  Rx         0005  4  05 FA 05 EC 
   482)      3712.6  Rx         0010  8  05 71 06 36 05 D8 05 DF 
   483)      3712.7  Rx         0002  2  07 E5 
   484)      3730.7  Rx         0005  4  05 F8 05 ED 
   485)      3731.4  Rx         0002  2  07 E5 
   486)      3749.3  Rx         0005  4  05 FA 05 EC 
   487)      3749.9  Rx         0002  2  07 E5 
   488)      3750.0  Rx         0010  8  05 70 06 35 05 D4 05 DF 
   489)      3766.8  Rx         0202  1  01 
   490)      3767.3  Rx         0006  2  00 01 
   491)      3767.4  Rx         0011  4  00 C0 00 1F 
   492)      3767.5  Rx         0182  2  00 10 
   493)      3767.7  Rx         0183  2  01 14 
   494)      3768.2  Rx         0005  4  05 F8 05 EC 
   495)      3769.2  Rx         0002  2  07 E5 
   496)      3786.2  Rx         0005  4  05 F8 05 EE 
   497)      3787.6  Rx         0002  2  07 E6 
   498)      3787.6  Rx         0010  8  05 70 06 34 05 D8 05 DD 
   499)      3804.7  Rx         0005  4  05 F4 05 E8 
   500)      3805.4  Rx         0002  2  07 E5 
   501)      3823.3  Rx         0005  4  05 FA 05 F0 
   502)      3823.7  Rx         0010  8  05 6F 06 36 05 D7 05 E1 
   503)      3823.8  Rx         0002  2  07 E5 
   504)      3842.1  Rx         0202  1  01 
   505)      3842.6  Rx         0006  2  00 01 
   506)      3842.9  Rx         0011  4  00 C0 00 1F 
   507)      3842.9  Rx         0182  2  00 10 
   508)      3843.2  Rx         0183  2  01 14 
   509)      3843.3  Rx         0005  4  05 F8 05 EC 
   510)      3844.6  Rx         0002  2  07 E5 
   511)      3862.0  Rx         0005  4  05 F2 05 E8 
   512)      3862.4  Rx         0010  8  05 6D 06 35 05 D7 05 DF 
   513)      3863.0  Rx         0002  2  07 E3 
   514)      3882.0  Rx         0005  4  05 F3 05 EA 
   515)      3882.4  Rx         0002  2  07 E1 
   516)      3899.7  Rx         0005  4  05 F7 05 EA 
   517)      3900.1  Rx         0010  8  05 70 06 37 05 D5 05 E0 
   518)      3900.3  Rx         0002  2  07 E1 
   519)      3919.4  Rx         0005  4  05 FC 05 ED 
   520)      3919.8  Rx         0002  2  07 E3 
   521)      3919.8  Rx         0202  1  01 
   522)      3921.2  Rx         0006  2  00 01 
   523)      3921.4  Rx         0011  4  00 C0 00 1F 
   524)      3921.4  Rx         0182  2  00 10 
   525)      3921.7  Rx         0183  2  01 14 
   526)      3938.3  Rx         0005  4  05 F9 05 EE 
   527)      3938.7  Rx         0010  8  05 6E 06 37 05 D9 05 E2 
   528)      3938.8  Rx         0002  2  07 E3 
   529)      3957.7  Rx         0005  4  05 F5 05 EB 
   530)      3958.2  Rx         0002  2  07 E1 
   531)      3974.8  Rx         0005  4  05 F9 05 EC 
   532)      3975.2  Rx         0010  8  05 73 06 35 05 D6 05 DC 
   533)      3975.3  Rx         0002  2  07 E5 
   534)      3992.7  Rx         0005  4  05 F9 05 E8 
   535)      3993.2  Rx         0002  2  07 E5 
   536)      3993.9  Rx         0202  1  01 
   537)      3994.5  Rx         0006  2  00 01 
   538)      3994.7  Rx         0011  4  00 C0 00 1F 
   539)      3994.9  Rx         0182  2  00 10 
   540)      3995.0  Rx         0183  2  01 14 
   541)      4010.9  Rx         0005  4  05 F6 05 E9 
   542)      4011.1  Rx         0010  8  05 70 06 36 05 D9 05 DC 
   543)      4011.4  Rx         0002  2  07 E5 
   544)      4026.8  Rx         0005  4  05 F9 05 EF 
   545)      4027.5  Rx         0002  2  07 E5 
   546)      4043.7  Rx         0005  4  05 F6 05 EC 
   547)      4044.0  Rx         0010  8  05 72 06 37 05 D8 05 DD 
   548)      4044.4  Rx         0002  2  07 E3 
   549)      4063.1  Rx         0005  4  05 F7 05 EC 
   550)      4063.4  Rx         0002  2  07 E5 
   551)      4064.5  Rx         0202  1  01 
   552)      4065.2  Rx         0006  2  00 01 
   553)      4065.4  Rx         0011  4  00 C0 00 1F 
   554)      4065.5  Rx         0182  2  00 10 
   555)      4065.6  Rx         0183  2  01 14 
   556)      4079.5  Rx         0005  4  05 F6 05 EB 
   557)      4079.7  Rx         0010  8  05 70 06 35 05 D5 05 DF 
   558)      4080.1  Rx         0002  2  07 E3 
   559)      4097.3  Rx         0005  4  05 F9 05 EB 
   560)      4097.9  Rx         0002  2  07 E3 
   561)      4114.1  Rx         0010  8  05 70 06 36 05 D6 05 DF 
   562)      4114.3  Rx         0005  4  05 F8 05 EF 
   563)      4115.1  Rx         0002  2  07 E5 
   564)      4131.8  Rx         0005  4  05 F6 05 EC 
   565)      4132.4  Rx         0002  2  07 E3 
   566)      4134.2  Rx         0202  1  01 
   567)      4135.0  Rx         0006  2  00 01 
   568)      4135.2  Rx         0011  4  00 C0 00 1F 
   569)      4135.3  Rx         0182  2  00 10 
   570)      4135.4  Rx         0183  2  01 14 
   571)      4149.5  Rx         0010  8  05 70 06 36 05 D8 05 DF 
   572)      4149.6  Rx         0005  4  05 F7 05 EE 
   573)      4150.0  Rx         0002  2  07 E3 
   574)      4165.6  Rx         0005  4  05 FC 05 ED 
   575)      4166.1  Rx         0002  2  07 E5 
   576)      4183.0  Rx         0010  8  05 6F 06 37 05 D9 05 DE 
   577)      4183.2  Rx         0005  4  05 F9 05 EE 
   578)      4183.9  Rx         0002  2  07 E5 
   579)      4200.3  Rx         0005  4  05 F3 05 E9 
   580)      4201.5  Rx         0002  2  07 E5 
   581)      4204.6  Rx         0202  1  01 
   582)      4205.0  Rx         0006  2  00 01 
   583)      4205.2  Rx         0011  4  00 C0 00 1F 
   584)      4205.4  Rx         0182  2  00 10 
   585)      4205.4  Rx         0183  2  01 14 
   586)      4217.7  Rx         0010  8  05 70 06 36 05 DB 05 E1 
   587)      4217.9  Rx         0005  4  05 FD 05 EC 
   588)      4218.7  Rx         0002  2  07 E5 
   589)      4236.5  Rx         0005  4  05 F5 05 E9 
   590)      4236.9  Rx         0002  2  07 E5 
   591)      4252.4  Rx         0010  8  05 71 06 38 05 D9 05 E0 
   592)      4252.6  Rx         0005  4  05 F8 05 EB 
   593)      4253.5  Rx         0002  2  07 E5 
   594)      4270.3  Rx         0005  4  05 FA 05 EB 
   595)      4270.5  Tx         0202  1  00 
   596)      4270.8  Rx         0002  2  07 E5 
   597)      4270.9  Rx         0006  2  00 01 
   598)      4271.2  Rx         0011  4  00 C0 00 1F 
   599)      4271.3  Rx         0182  2  00 10 
   600)      4271.5  Rx         0183  2  01 14 
   601)      4274.0  Rx         0202  1  01 
   602)      4274.4  Rx         0006  2  00 01 
   603)      4274.6  Rx         0011  4  00 C0 00 1F 
   604)      4274.7  Rx         0182  2  00 10 
   605)      4274.9  Rx         0183  2  01 14 
   606)      4287.9  Rx         0010  8  05 72 06 39 05 D4 05 DE 
   607)      4288.2  Rx         0005  4  05 F7 05 EB 
   608)      4288.8  Rx         0002  2  07 E5 
   609)      4308.1  Rx         0005  4  05 F7 05 EE 
   610)      4308.7  Rx         0002  2  07 E5 
   611)      4325.1  Rx         0010  8  05 72 06 37 05 D8 05 E0 
   612)      4325.5  Rx         0005  4  05 F3 05 E9 
   613)      4325.8  Rx         0002  2  07 E3 
   614)      4342.8  Rx         0005  4  05 F3 05 EA 
   615)      4343.3  Rx         0002  2  07 E1 
   616)      4347.9  Rx         0202  1  01 
   617)      4348.4  Rx         0006  2  00 01 
   618)      4348.6  Rx         0011  4  00 C0 00 1F 
   619)      4348.7  Rx         0182  2  00 10 
   620)      4348.9  Rx         0183  2  01 14 
   621)      4361.5  Rx         0010  8  05 6F 06 36 05 D9 05 E1 
   622)      4361.8  Rx         0005  4  05 F8 05 EC 
   623)      4362.4  Rx         0002  2  07 E1 
   624)      4379.5  Rx         0005  4  05 FA 05 EF 
   625)      4380.9  Rx         0002  2  07 E1 
   626)      4396.8  Rx         0010  8  05 72 06 36 05 D7 05 DE 
   627)      4397.1  Rx         0005  4  05 F7 05 EC 
   628)      4397.5  Rx         0002  2  07 E1 
   629)      4414.8  Rx         0005  4  05 F1 05 E8 
   630)      4415.4  Rx         0002  2  07 E0 
   631)      4420.3  Rx         0202  1  01 
   632)      4420.8  Rx         0006  2  00 01 
   633)      4421.1  Rx         0011  4  00 C0 00 1F 
   634)      4421.2  Rx         0182  2  00 10 
   635)      4421.3  Rx         0183  2  01 14 
   636)      4431.9  Rx         0010  8  05 6F 06 33 05 D5 05 DE 
   637)      4432.5  Rx         0005  4  05 F9 05 ED 
   638)      4433.0  Rx         0002  2  07 E1 
   639)      4455.6  Rx         0005  4  05 F8 05 EC 
   640)      4456.6  Rx         0002  2  07 E3 
   641)      4472.3  Rx         0010  8  05 6E 06 36 05 D7 05 DD 
   642)      4473.2  Rx         0005  4  05 FA 05 F0 
   643)      4473.8  Rx         0002  2  07 E5 
   644)      4490.5  Rx         0005  4  05 F7 05 EC 
   645)      4490.9  Rx         0002  2  07 E3 
   646)      4497.7  Rx         0202  1  01 
   647)      4498.2  Rx         0006  2  00 01 
   648)      4498.5  Rx         0011  4  00 C0 00 1F 
   649)      4498.6  Rx         0182  2  00 10 
   650)      4498.7  Rx         0183  2  01 14 
   651)      4508.0  Rx         0010  8  05 72 06 33 05 D6 05 DE 
   652)      4508.3  Rx         0005  4  05 F7 05 ED 
   653)      4508.9  Rx         0002  2  07 E3 
   654)      4527.7  Rx         0005  4  05 F5 05 EE 
   655)      4528.1  Rx         0002  2  07 E5 
   656)      4544.9  Rx         0010  8  05 71 06 3A 05 D7 05 DE 
   657)      4565.5  Rx         0005  4  05 F9 05 EB 
   658)      4565.9  Rx         0002  2  07 E5 
   659)      4572.7  Rx         0202  1  01 
   660)      4573.2  Rx         0006  2  00 01 
   661)      4573.4  Rx         0011  4  00 C0 00 1F 
   662)      4573.5  Rx         0182  2  00 10 
   663)      4573.7  Rx         0183  2  01 14 
   664)      4581.8  Rx         0010  8  05 70 06 38 05 D8 05 E2 
   665)      4582.3  Rx         0005  4  05 F5 05 EC 
   666)      4583.0  Rx         0002  2  07 E3 
   667)      4599.1  Rx         0005  4  05 F5 05 EC 
   668)      4599.6  Rx         0002  2  07 E1 
   669)      4615.1  Rx         0010  8  05 6E 06 36 05 D7 05 E0 
   670)      4615.8  Rx         0005  4  05 F7 05 ED 
   671)      4616.2  Rx         0002  2  07 E1 
   672)      4634.6  Rx         0005  4  05 F8 05 ED 
   673)      4635.3  Rx         0002  2  07 E1 
   674)      4643.0  Rx         0202  1  01 
   675)      4643.5  Rx         0006  2  00 01 
   676)      4643.7  Rx         0011  4  00 C0 00 1F 
   677)      4643.8  Rx         0182  2  00 10 
   678)      4643.9  Rx         0183  2  01 14 
   679)      4652.0  Rx         0010  8  05 72 06 36 05 D7 05 DF 
   680)      4652.8  Rx         0005  4  05 F7 05 F1 
   681)      4653.2  Rx         0002  2  07 E3 
   682)      4669.3  Rx         0005  4  05 F6 05 F0 
   683)      4670.3  Rx         0002  2  07 E1 
   684)      4685.8  Rx         0010  8  05 72 06 38 05 D7 05 DE 
   685)      4686.6  Rx         0005  4  05 FA 05 F9 
   686)      4686.9  Rx         0002  2  07 E3 
   687)      4706.4  Rx         0005  4  05 F8 05 FB 
   688)      4706.8  Rx         0002  2  07 E5 
   689)      4715.2  Rx         0202  1  01 
   690)      4715.7  Rx         0006  2  00 01 
   691)      4716.0  Rx         0011  4  00 C0 00 1F 
   692)      4716.1  Rx         0182  2  00 10 
   693)      4716.2  Rx         0183  2  01 14 
   694)      4723.8  Rx         0010  8  05 6F 06 37 05 D2 05 E0 
   695)      4724.6  Rx         0005  4  05 F7 06 1A 
   696)      4725.2  Rx         0002  2  07 E5 
   697)      4745.7  Rx         0005  4  05 F4 06 56 
   698)      4746.2  Rx         0002  2  07 E3 
   699)      4761.8  Rx         0010  8  05 71 06 35 05 D9 05 DD 
   700)      4762.7  Rx         0005  4  05 F6 06 69 
   701)      4763.9  Rx         0002  2  07 E3 
   702)      4784.2  Rx         0005  4  05 F8 06 7B 
   703)      4784.9  Rx         0002  2  07 E3 
   704)      4794.1  Rx         0202  1  01 
   705)      4794.7  Rx         0006  2  00 01 
   706)      4794.8  Rx         0011  4  00 C0 00 1F 
   707)      4795.0  Rx         0182  2  00 10 
   708)      4795.1  Rx         0183  2  01 14 
   709)      4800.7  Rx         0010  8  05 70 06 36 05 D4 05 DE 
   710)      4801.6  Rx         0005  4  05 F6 06 9F 
   711)      4804.6  Rx         0002  2  07 E1 
   712)      4822.2  Rx         0005  4  05 FA 06 B1 
   713)      4822.7  Rx         0002  2  07 E3 
   714)      4838.8  Rx         0010  8  05 71 06 34 05 D6 05 E1 
   715)      4839.8  Rx         0005  4  05 FC 06 BC 
   716)      4840.2  Rx         0002  2  07 E5 
   717)      4856.6  Rx         0005  4  05 F7 06 C9 
   718)      4857.2  Rx         0002  2  07 E5 
   719)      4866.8  Rx         0202  1  01 
   720)      4867.3  Rx         0006  2  00 01 
   721)      4867.5  Rx         0011  4  00 C0 00 1F 
   722)      4867.6  Rx         0182  2  00 10 
   723)      4867.7  Rx         0183  2  01 14 
   724)      4874.5  Rx         0010  8  05 74 06 35 05 D4 05 DE 
   725)      4875.2  Rx         0005  4  05 FB 06 D4 
   726)      4875.6  Rx         0002  2  07 E6 
   727)      4893.7  Rx         0005  4  05 F8 06 D5 
   728)      4894.9  Rx         0002  2  07 E6 
   729)      4910.6  Rx         0010  8  05 74 06 33 05 D7 05 E1 
   730)      4911.7  Rx         0005  4  05 F8 06 DD 
   731)      4912.4  Rx         0002  2  07 E6 
   732)      4931.2  Rx         0005  4  05 F6 06 E3 
   733)      4931.8  Rx         0002  2  07 E6 
   734)      4942.2  Rx         0202  1  01 
   735)      4942.8  Rx         0006  2  00 01 
   736)      4943.0  Rx         0011  4  00 C0 00 1F 
   737)      4943.1  Rx         0182  2  00 10 
   738)      4943.2  Rx         0183  2  01 14 
   739)      4947.4  Rx         0010  8  05 70 06 35 05 D9 05 E0 
   740)      4948.6  Rx         0005  4  05 FB 06 EA 
   741)      4949.2  Rx         0002  2  07 E5 
   742)      4965.9  Rx         0005  4  05 F8 06 F5 
   743)      4966.4  Rx         0002  2  07 E6 
   744)      4981.5  Rx         0010  8  05 6F 06 39 05 D5 05 DE 
   745)      4983.0  Rx         0005  4  05 F7 06 F4 
   746)      4983.6  Rx         0002  2  07 E5 
   747)      5000.5  Rx         0005  4  05 F7 06 F6 
   748)      5000.8  Rx         0002  2  07 E5 
   749)      5012.4  Rx         0202  1  01 
   750)      5012.9  Rx         0006  2  00 01 
   751)      5013.2  Rx         0011  4  00 C0 00 1F 
   752)      5013.3  Rx         0182  2  00 10 
   753)      5013.4  Rx         0183  2  01 14 
   754)      5017.6  Rx         0010  8  05 72 06 34 05 D6 05 E0 
   755)      5018.8  Rx         0005  4  05 F7 07 02 
   756)      5019.1  Rx         0002  2  07 E5 
   757)      5036.6  Rx         0005  4  05 F5 07 07 
   758)      5037.2  Rx         0002  2  07 E5 
   759)      5052.5  Rx         0010  8  05 72 06 36 05 D6 05 E0 
   760)      5070.5  Rx         0005  4  05 FA 07 25 
   761)      5071.2  Rx         0002  2  07 E3 
   762)      5083.5  Rx         0202  1  01 
   763)      5084.1  Rx         0006  2  00 01 
   764)      5084.2  Rx         0011  4  00 C0 00 1F 
   765)      5084.3  Rx         0182  2  00 10 
   766)      5084.5  Rx         0183  2  01 14 
   767)      5087.2  Rx         0010  8  05 71 06 36 05 D8 05 E1 
   768)      5088.4  Rx         0005  4  05 F8 07 45 
   769)      5088.7  Rx         0002  2  07 E3 
   770)      5108.4  Rx         0005  4  05 FC 07 58 
   771)      5109.2  Rx         0002  2  07 E5 
   772)      5123.5  Rx         0010  8  05 71 06 33 05 D5 05 DE 
   773)      5125.1  Rx         0005  4  05 FD 07 5F 
   774)      5125.5  Rx         0002  2  07 E6 
   775)      5142.7  Rx         0005  4  05 FB 07 75 
   776)      5143.5  Rx         0002  2  07 E8 
   777)      5156.0  Rx         0202  1  01 
   778)      5156.5  Rx         0006  2  00 01 
   779)      5156.7  Rx         0011  4  00 C0 00 1F 
   780)      5156.8  Rx         0182  2  00 10 
   781)      5157.0  Rx         0183  2  01 14 
   782)      5158.8  Rx         0010  8  05 6E 06 36 05 D7 05 DF 
   783)      5161.2  Rx         0005  4  05 FB 07 7F 
   784)      5161.7  Rx         0002  2  07 EA 
   785)      5180.1  Rx         0005  4  05 F7 07 89 
   786)      5180.8  Rx         0002  2  07 E8 
   787)      5196.2  Rx         0010  8  05 71 06 39 05 D5 05 DD 
   788)      5197.8  Rx         0005  4  05 F4 07 98 
   789)      5198.4  Rx         0002  2  07 E8 
   790)      5214.4  Rx         0005  4  05 FB 07 AA 
   791)      5214.9  Rx         0002  2  07 E8 
   792)      5228.4  Rx         0202  1  01 
   793)      5229.0  Rx         0006  2  00 01 
   794)      5229.2  Rx         0011  4  00 C0 00 1F 
   795)      5229.4  Rx         0182  2  00 10 
   796)      5229.5  Rx         0183  2  01 14 
   797)      5230.3  Rx         0010  8  05 6F 06 35 05 D6 05 E1 
   798)      5231.8  Rx         0005  4  05 F7 07 AE 
   799)      5232.2  Rx         0002  2  07 E5 
   800)      5249.4  Rx         0005  4  05 FB 07 B4 
   801)      5250.0  Rx         0002  2  07 E5 
   802)      5264.9  Rx         0010  8  05 6F 06 33 05 D6 05 E1 
   803)      5266.5  Rx         0005  4  05 F9 07 B6 
   804)      5266.9  Rx         0002  2  07 E5 
   805)      5271.9  Tx         0202  1  00 
   806)      5273.2  Rx         0006  2  00 01 
   807)      5273.8  Rx         0011  4  00 C0 00 1F 
   808)      5273.9  Rx         0182  2  00 10 
   809)      5274.1  Rx         0183  2  01 14 
   810)      5286.6  Rx         0005  4  05 FA 07 B5 
   811)      5287.2  Rx         0002  2  07 E6 
   812)      5301.0  Rx         0202  1  01 
   813)      5301.6  Rx         0006  2  00 01 
   814)      5301.8  Rx         0011  4  00 C0 00 1F 
   815)      5302.0  Rx         0182  2  00 10 
   816)      5302.2  Rx         0010  8  05 6F 06 3A 05 D6 05 DD 
   817)      5302.4  Rx         0183  2  01 14 
   818)      5303.7  Rx         0005  4  05 F9 07 B7 
   819)      5305.0  Rx         0002  2  07 E8 
   820)      5323.3  Rx         0005  4  05 FA 07 B5 
   821)      5324.0  Rx         0002  2  07 E6 
   822)      5339.4  Rx         0010  8  05 71 06 39 05 D9 05 E1 
   823)      5341.0  Rx         0005  4  05 FA 07 BC 
   824)      5341.5  Rx         0002  2  07 E8 
   825)      5360.7  Rx         0005  4  05 F9 07 B8 
   826)      5360.9  Rx         0002  2  07 E8 
   827)      5376.6  Rx         0010  8  05 71 06 36 05 D8 05 E1 
   828)      5377.2  Rx         0202  1  01 
   829)      5377.9  Rx         0006  2  00 01 
   830)      5378.0  Rx         0011  4  00 C0 00 1F 
   831)      5378.1  Rx         0182  2  00 10 
   832)      5378.3  Rx         0183  2  01 14 
   833)      5378.9  Rx         0005  4  05 F8 07 B6 
   834)      5379.7  Rx         0002  2  07 E6 
   835)      5397.6  Rx         0005  4  05 FA 07 BB 
   836)      5398.1  Rx         0002  2  07 E6 
   837)      5412.6  Rx         0010  8  05 70 06 38 05 D3 05 DD 
   838)      5414.3  Rx         0005  4  05 FB 07 B8 
   839)      5415.0  Rx         0002  2  07 E8 
   840)      5432.1  Rx         0005  4  05 FA 07 B7 
   841)      5432.6  Rx         0002  2  07 E8 
   842)      5447.6  Rx         0010  8  05 72 06 38 05 D8 05 E0 
   843)      5448.7  Rx         0202  1  01 
   844)      5449.6  Rx         0006  2  00 01 
   845)      5449.8  Rx         0011  4  00 C0 00 1F 
   846)      5449.9  Rx         0005  4  05 FC 07 BB 
   847)      5449.9  Rx         0182  2  00 10 
   848)      5450.1  Rx         0183  2  01 14 
   849)      5450.8  Rx         0002  2  07 E8 
   850)      5467.6  Rx         0005  4  05 F5 07 AD 
   851)      5468.2  Rx         0002  2  07 E6 
   852)      5483.2  Rx         0010  8  05 6D 06 35 05 D7 05 E2 
   853)      5487.1  Rx         0005  4  05 F1 07 BA 
   854)      5488.2  Rx         0002  2  07 E5 
   855)      5503.7  Rx         0005  4  05 FB 07 B5 
   856)      5504.3  Rx         0002  2  07 E5 
   857)      5519.9  Rx         0010  8  05 70 06 35 05 D4 05 E0 
   858)      5521.6  Rx         0005  4  05 F9 07 B5 
   859)      5521.8  Rx         0202  1  01 
   860)      5522.5  Rx         0006  2  00 01 
   861)      5522.7  Rx         0002  2  07 E5 
   862)      5522.8  Rx         0011  4  00 C0 00 1F 
   863)      5523.1  Rx         0182  2  00 10 
   864)      5523.2  Rx         0183  2  01 14 
   865)      5542.4  Rx         0005  4  05 F9 07 B9 
   866)      5542.9  Rx         0002  2  07 E5 
   867)      5557.9  Rx         0010  8  05 6D 06 35 05 D4 05 DC 
   868)      5559.8  Rx         0005  4  05 FB 07 B4 
   869)      5560.7  Rx         0002  2  07 E5 
   870)      5580.7  Rx         0005  4  05 F5 07 9D 
   871)      5581.1  Rx         0002  2  07 E5 
   872)      5595.5  Rx         0010  8  05 70 06 37 05 D9 05 E0 
   873)      5597.6  Rx         0005  4  05 FF 07 80 
   874)      5598.2  Rx         0002  2  07 E8 
   875)      5598.8  Rx         0202  1  01 
   876)      5599.5  Rx         0006  2  00 01 
   877)      5599.6  Rx         0011  4  00 C0 00 1F 
   878)      5599.8  Rx         0182  2  00 10 
   879)      5600.0  Rx         0183  2  01 14 
   880)      5615.4  Rx         0005  4  05 F7 07 48 
   881)      5615.9  Rx         0002  2  07 E6 
   882)      5630.2  Rx         0010  8  05 71 06 37 05 D7 05 E1 
   883)      5632.2  Rx         0005  4  05 F4 06 F0 
   884)      5632.8  Rx         0002  2  07 E5 
   885)      5650.2  Rx         0005  4  05 F7 06 AF 
   886)      5650.7  Rx         0002  2  07 E5 
   887)      5664.9  Rx         0010  8  05 70 06 38 05 D5 05 DD 
   888)      5667.4  Rx         0005  4  05 F9 06 87 
   889)      5667.7  Rx         0002  2  07 E5 
   890)      5670.1  Rx         0202  1  01 
   891)      5670.7  Rx         0006  2  00 01 
   892)      5670.9  Rx         0011  4  00 C0 00 1F 
   893)      5671.0  Rx         0182  2  00 10 
   894)      5671.2  Rx         0183  2  01 14 
   895)      5685.0  Rx         0005  4  05 F5 06 59 
   896)      5686.3  Rx         0002  2  07 E5 
   897)      5700.9  Rx         0010  8  05 73 06 3B 05 DB 05 E3 
   898)      5703.7  Rx         0005  4  05 FA 06 4A 
   899)      5704.1  Rx         0002  2  07 E3 
   900)      5725.4  Rx         0005  4  05 F5 06 43 
   901)      5726.0  Rx         0002  2  07 E3 
   902)      5740.7  Rx         0010  8  05 73 06 38 05 D8 05 DF 
   903)      5743.3  Rx         0005  4  05 F9 06 38 
   904)      5743.8  Rx         0002  2  07 E5 
   905)      5746.0  Rx         0202  1  01 
   906)      5746.8  Rx         0006  2  00 01 
   907)      5747.0  Rx         0011  4  00 C0 00 1F 
   908)      5747.1  Rx         0182  2  00 10 
   909)      5747.2  Rx         0183  2  01 14 
   910)      5764.2  Rx         0005  4  05 F5 06 35 
   911)      5764.6  Rx         0002  2  07 E3 
   912)      5778.8  Rx         0010  8  05 70 06 35 05 D3 05 DF 
   913)      5780.9  Rx         0005  4  05 F8 06 24 
   914)      5781.6  Rx         0002  2  07 E3 
   915)      5799.0  Rx         0005  4  05 F8 06 15 
   916)      5799.4  Rx         0002  2  07 E5 
   917)      5813.4  Rx         0010  8  05 6E 06 35 05 D9 05 E3 
   918)      5815.6  Rx         0005  4  05 F7 06 17 
   919)      5816.1  Rx         0002  2  07 E3 
   920)      5821.9  Rx         0202  1  01 
   921)      5822.5  Rx         0006  2  00 01 
   922)      5822.8  Rx         0011  4  00 C0 00 1F 
   923)      5822.9  Rx         0182  2  00 10 
   924)      5823.0  Rx         0183  2  01 14 
   925)      5835.5  Rx         0005  4  05 FE 06 17 
   926)      5836.2  Rx         0002  2  07 E5 
   927)      5849.9  Rx         0010  8  05 71 06 34 05 D4 05 DB 
   928)      5853.9  Rx         0005  4  05 F6 06 18 
   929)      5854.3  Rx         0002  2  07 E5 
   930)      5869.7  Rx         0005  4  05 F8 06 27 
   931)      5870.4  Rx         0002  2  07 E5 
   932)      5884.1  Rx         0010  8  05 6D 06 33 05 D6 05 E3 
   933)      5886.9  Rx         0005  4  05 F8 06 5A 
   934)      5887.3  Rx         0002  2  07 E5 
   935)      5890.8  Rx         0202  1  01 
   936)      5891.3  Rx         0006  2  00 01 
   937)      5891.4  Rx         0011  4  00 C0 00 1F 
   938)      5891.6  Rx         0182  2  00 10 
   939)      5891.7  Rx         0183  2  01 14 
   940)      5907.1  Rx         0005  4  05 F8 06 7D 
   941)      5908.4  Rx         0002  2  07 E5 
   942)      5922.1  Rx         0010  8  05 70 06 37 05 D5 05 DF 
   943)      5924.5  Rx         0005  4  05 F8 06 84 
   944)      5925.0  Rx         0002  2  07 E6 
   945)      5945.2  Rx         0005  4  05 F8 06 7F 
   946)      5945.5  Rx         0002  2  07 E5 
   947)      5959.4  Rx         0010  8  05 6F 06 38 05 D7 05 DD 
   948)      5962.0  Rx         0005  4  05 F7 06 7F 
   949)      5962.5  Rx         0002  2  07 E5 
   950)      5968.0  Rx         0202  1  01 
   951)      5968.6  Rx         0006  2  00 01 
   952)      5968.7  Rx         0011  4  00 C0 00 1F 
   953)      5968.8  Rx         0182  2  00 10 
   954)      5969.0  Rx         0183  2  01 14 
   955)      5980.6  Rx         0005  4  05 FB 06 7F 
   956)      5981.3  Rx         0002  2  07 E5 
   957)      5995.0  Rx         0010  8  05 70 06 39 05 D3 05 DD 
   958)      5999.7  Rx         0005  4  05 FA 06 86 
   959)      6001.5  Rx         0002  2  07 E6 
   960)      6017.3  Rx         0005  4  05 F8 06 7F 
   961)      6017.6  Rx         0002  2  07 E6 
   962)      6031.2  Rx         0010  8  05 70 06 37 05 D7 05 E0 
   963)      6036.3  Rx         0005  4  05 FB 06 7F 
   964)      6036.6  Rx         0002  2  07 E6 
   965)      6041.7  Rx         0202  1  01 
   966)      6042.1  Rx         0006  2  00 01 
   967)      6042.4  Rx         0011  4  00 C0 00 1F 
   968)      6042.5  Rx         0182  2  00 10 
   969)      6042.6  Rx         0183  2  01 14 
   970)      6052.7  Rx         0005  4  05 FA 06 85 
   971)      6053.4  Rx         0002  2  07 E8 
   972)      6067.5  Rx         0010  8  05 73 06 39 05 D7 05 DD 
   973)      6070.6  Rx         0005  4  05 F7 06 84 
   974)      6071.6  Rx         0002  2  07 E8 
   975)      6093.1  Rx         0005  4  05 F6 06 7B 
   976)      6093.6  Rx         0002  2  07 E6 
   977)      6108.8  Rx         0010  8  05 71 06 38 05 D8 05 DE 
   978)      6111.6  Rx         0005  4  05 F8 06 80 
   979)      6112.2  Rx         0002  2  07 E5 
   980)      6121.6  Rx         0202  1  01 
   981)      6122.2  Rx         0006  2  00 01 
   982)      6122.4  Rx         0011  4  00 C0 00 1F 
   983)      6122.5  Rx         0182  2  00 10 
   984)      6122.7  Rx         0183  2  01 14 
   985)      6132.3  Rx         0005  4  05 F8 06 7E 
   986)      6132.8  Rx         0002  2  07 E5 
   987)      6146.3  Rx         0010  8  05 74 06 37 05 D6 05 E0 
   988)      6149.1  Rx         0005  4  05 F9 06 7F 
   989)      6149.4  Rx         0002  2  07 E5 
   990)      6165.9  Rx         0005  4  05 F6 06 7E 
   991)      6166.6  Rx         0002  2  07 E3 
   992)      6180.3  Rx         0010  8  05 6E 06 34 05 D5 05 DF 
   993)      6185.5  Rx         0005  4  05 F7 06 7F 
   994)      6185.8  Rx         0002  2  07 E3 
   995)      6191.9  Rx         0202  1  01 
   996)      6192.3  Rx         0006  2  00 01 
   997)      6192.5  Rx         0011  4  00 C0 00 1F 
   998)      6192.6  Rx         0182  2  00 10 
   999)      6192.7  Rx         0183  2  01 14 
  1000)      6202.2  Rx         0005  4  05 F9 06 7E 
  1001)      6202.8  Rx         0002  2  07 E5 
  1002)      6216.0  Rx         0010  8  05 6E 06 33 05 D4 05 DC 
  1003)      6221.7  Rx         0005  4  05 FA 06 82 
  1004)      6222.0  Rx         0002  2  07 E5 
  1005)      6238.0  Rx         0005  4  05 F6 06 7F 
  1006)      6238.6  Rx         0002  2  07 E5 
  1007)      6252.0  Rx         0010  8  05 71 06 35 05 D3 05 E0 
  1008)      6254.8  Rx         0005  4  05 F5 06 81 
  1009)      6255.4  Rx         0002  2  07 E3 
  1010)      6263.5  Rx         0202  1  01 
  1011)      6264.0  Rx         0006  2  00 01 
  1012)      6264.3  Rx         0011  4  00 C0 00 1F 
  1013)      6264.7  Rx         0182  2  00 10 
  1014)      6264.8  Rx         0183  2  01 14 
  1015)      6270.4  Tx         0202  1  00 
  1016)      6270.6  Rx         0006  2  00 01 
  1017)      6270.8  Rx         0011  4  00 C0 00 1F 
  1018)      6271.0  Rx         0182  2  00 10 
  1019)      6271.1  Rx         0183  2  01 14 
  1020)      6273.8  Rx         0005  4  05 FA 06 84 
  1021)      6274.1  Rx         0002  2  07 E5 
  1022)      6287.6  Rx         0010  8  05 71 06 39 05 D8 05 DD 
  1023)      6290.7  Rx         0005  4  05 FA 06 82 
  1024)      6291.5  Rx         0002  2  07 E5 
  1025)      6307.8  Rx         0005  4  05 F8 06 7D 
  1026)      6308.1  Rx         0002  2  07 E5 
  1027)      6321.7  Rx         0010  8  05 72 06 35 05 D7 05 E1 
  1028)      6324.6  Rx         0005  4  05 FC 06 84 
  1029)      6325.4  Rx         0002  2  07 E5 
  1030)      6334.8  Rx         0202  1  01 
  1031)      6335.4  Rx         0006  2  00 01 
  1032)      6335.7  Rx         0011  4  00 C0 00 1F 
  1033)      6335.8  Rx         0182  2  00 10 
  1034)      6335.9  Rx         0183  2  01 14 
  1035)      6343.1  Rx         0005  4  05 F5 06 80 
  1036)      6343.6  Rx         0002  2  07 E5 
  1037)      6356.5  Rx         0010  8  05 6F 06 34 05 D8 05 E1 
  1038)      6361.9  Rx         0005  4  05 F6 06 7F 
  1039)      6362.5  Rx         0002  2  07 E5 
  1040)      6378.1  Rx         0005  4  05 F7 06 7D 
  1041)      6378.8  Rx         0002  2  07 E5 
  1042)      6392.3  Rx         0010  8  05 72 06 37 05 D5 05 E3 
  1043)      6395.3  Rx         0005  4  05 F5 06 7B 
  1044)      6395.6  Rx         0002  2  07 E3 
  1045)      6408.3  Rx         0202  1  01 
  1046)      6408.8  Rx         0006  2  00 01 
  1047)      6408.9  Rx         0011  4  00 C0 00 1F 
  1048)      6409.1  Rx         0182  2  00 10 
  1049)      6409.3  Rx         0183  2  01 14 
  1050)      6415.6  Rx         0005  4  05 F1 06 81 
  1051)      6416.8  Rx         0002  2  07 E1 
  1052)      6429.4  Rx         0010  8  05 70 06 3A 05 DB 05 DF 
  1053)      6432.6  Rx         0005  4  05 F7 06 84 
  1054)      6433.3  Rx         0002  2  07 E0 
  1055)      6453.7  Rx         0005  4  05 F6 06 7F 
  1056)      6455.0  Rx         0002  2  07 E0 
  1057)      6467.7  Rx         0010  8  05 6F 06 36 05 D7 05 DE 
  1058)      6471.2  Rx         0005  4  05 F8 06 7E 
  1059)      6471.7  Rx         0002  2  07 E1 
  1060)      6481.8  Rx         0202  1  01 
  1061)      6482.3  Rx         0006  2  00 01 
  1062)      6482.5  Rx         0011  4  00 C0 00 1F 
  1063)      6482.6  Rx         0182  2  00 10 
  1064)      6482.7  Rx         0183  2  01 14 
  1065)      6489.1  Rx         0005  4  05 F5 06 80 
  1066)      6489.5  Rx         0002  2  07 E0 
  1067)      6503.3  Rx         0010  8  05 72 06 36 05 D6 05 DD 
  1068)      6506.7  Rx         0005  4  05 F5 06 B3 
  1069)      6508.0  Rx         0002  2  07 E0 
  1070)      6526.8  Rx         0005  4  05 F7 06 E4 
  1071)      6527.3  Rx         0002  2  07 E1 
  1072)      6540.8  Rx         0010  8  05 70 06 36 05 D9 05 E0 
  1073)      6545.7  Rx         0005  4  05 F7 06 FB 
  1074)      6546.5  Rx         0002  2  07 E1 
  1075)      6557.1  Rx         0202  1  01 
  1076)      6557.7  Rx         0006  2  00 01 
  1077)      6557.8  Rx         0011  4  00 C0 00 1F 
  1078)      6557.9  Rx         0182  2  00 10 
  1079)      6558.0  Rx         0183  2  01 14 
  1080)      6562.7  Rx         0005  4  05 F9 07 16 
  1081)      6563.2  Rx         0002  2  07 E3 
  1082)      6576.4  Rx         0010  8  05 73 06 38 05 D2 05 DE 
  1083)      6579.8  Rx         0005  4  05 FC 07 21 
  1084)      6580.5  Rx         0002  2  07 E5 
  1085)      6601.7  Rx         0005  4  05 F7 07 1A 
  1086)      6602.2  Rx         0002  2  07 E5 
  1087)      6615.0  Rx         0010  8  05 70 06 36 05 D9 05 E0 
  1088)      6618.3  Rx         0005  4  05 F6 07 1A 
  1089)      6618.7  Rx         0002  2  07 E5 
  1090)      6630.0  Rx         0202  1  01 
  1091)      6630.5  Rx         0006  2  00 01 
  1092)      6630.7  Rx         0011  4  00 C0 00 1F 
  1093)      6630.9  Rx         0182  2  00 10 
  1094)      6631.0  Rx         0183  2  01 14 
  1095)      6636.4  Rx         0005  4  05 F6 07 1B 
  1096)      6637.4  Rx         0002  2  07 E5 
  1097)      6649.7  Rx         0010  8  05 6F 06 36 05 D9 05 E0 
  1098)      6654.1  Rx         0005  4  05 FA 07 1D 
  1099)      6654.6  Rx         0002  2  07 E5 
  1100)      6672.7  Rx         0005  4  05 F5 07 18 
  1101)      6673.4  Rx         0002  2  07 E5 
  1102)      6685.9  Rx         0010  8  05 73 06 38 05 D6 05 DC 
  1103)      6693.1  Rx         0005  4  05 F9 07 1A 
  1104)      6694.4  Rx         0002  2  07 E3 
  1105)      6706.2  Rx         0202  1  01 
  1106)      6706.8  Rx         0006  2  00 01 
  1107)      6707.0  Rx         0011  4  00 C0 00 1F 
  1108)      6707.0  Rx         0182  2  00 10 
  1109)      6707.2  Rx         0183  2  01 14 
  1110)      6711.1  Rx         0005  4  05 FE 07 1A 
  1111)      6711.4  Rx         0002  2  07 E5 
  1112)      6724.3  Rx         0010  8  05 74 06 38 05 D8 05 DD 
  1113)      6728.3  Rx         0005  4  05 F9 07 19 
  1114)      6728.8  Rx         0002  2  07 E6 
  1115)      6744.5  Rx         0005  4  05 F7 07 1B 
  1116)      6745.1  Rx         0002  2  07 E6 
  1117)      6757.8  Rx         0010  8  05 6F 06 3A 05 D8 05 E1 
  1118)      6761.9  Rx         0005  4  05 F8 07 18 
  1119)      6762.4  Rx         0002  2  07 E6 
  1120)      6778.4  Rx         0202  1  01 
  1121)      6778.9  Rx         0006  2  00 01 
  1122)      6779.0  Rx         0011  4  00 C0 00 1F 
  1123)      6779.1  Rx         0182  2  00 10 
  1124)      6779.3  Rx         0183  2  01 14 
  1125)      6783.2  Rx         0005  4  05 F5 07 1A 
  1126)      6783.7  Rx         0002  2  07 E6 
  1127)      6795.9  Rx         0010  8  05 6F 06 38 05 D6 05 E0 
  1128)      6799.8  Rx         0005  4  05 F8 07 1F 
  1129)      6800.1  Rx         0002  2  07 E5 
  1130)      6818.6  Rx         0005  4  05 F9 07 2F 
  1131)      6819.1  Rx         0002  2  07 E5 
  1132)      6831.4  Rx         0010  8  05 72 06 35 05 D6 05 E0 
  1133)      6835.6  Rx         0005  4  05 F7 07 60 
  1134)      6835.9  Rx         0002  2  07 E3 
  1135)      6850.9  Rx         0202  1  01 
  1136)      6851.5  Rx         0006  2  00 01 
  1137)      6851.7  Rx         0011  4  00 C0 00 1F 
  1138)      6851.8  Rx         0182  2  00 10 
  1139)      6851.9  Rx         0183  2  01 14 
  1140)      6853.6  Rx         0005  4  05 FB 07 81 
  1141)      6854.1  Rx         0002  2  07 E5 
  1142)      6866.8  Rx         0010  8  05 70 06 35 05 D9 05 E2 
  1143)      6873.0  Rx         0005  4  05 FA 07 8C 
  1144)      6873.5  Rx         0002  2  07 E5 
  1145)      6889.5  Rx         0005  4  05 FC 07 90 
  1146)      6889.9  Rx         0002  2  07 E8 
  1147)      6902.4  Rx         0010  8  05 6F 06 36 05 D6 05 DF 
  1148)      6907.4  Rx         0005  4  05 FA 07 8D 
  1149)      6907.9  Rx         0002  2  07 E8 
  1150)      6922.5  Rx         0202  1  01 
  1151)      6922.9  Rx         0006  2  00 01 
  1152)      6923.1  Rx         0011  4  00 C0 00 1F 
  1153)      6923.3  Rx         0182  2  00 10 
  1154)      6923.4  Rx         0183  2  01 14 
  1155)      6924.4  Rx         0005  4  05 F6 07 88 
  1156)      6924.7  Rx         0002  2  07 E6 
  1157)      6937.8  Rx         0010  8  05 72 06 37 05 D6 05 DF 
  1158)      6941.3  Rx         0005  4  05 F5 07 8C 
  1159)      6941.8  Rx         0002  2  07 E6 
  1160)      6958.3  Rx         0005  4  05 F8 07 90 
  1161)      6958.7  Rx         0002  2  07 E5 
  1162)      6971.1  Rx         0010  8  05 6E 06 38 05 D4 05 DD 
  1163)      6975.3  Rx         0005  4  05 F9 07 8D 
  1164)      6975.7  Rx         0002  2  07 E5 
  1165)      6994.1  Rx         0202  1  01 
  1166)      6994.9  Rx         0006  2  00 01 
  1167)      6995.1  Rx         0011  4  00 C0 00 1F 
  1168)      6995.2  Rx         0182  2  00 10 
  1169)      6995.3  Rx         0183  2  01 14 
  1170)      6996.4  Rx         0005  4  05 F8 07 8E 
  1171)      6996.8  Rx         0002  2  07 E5 
  1172)      7009.2  Rx         0010  8  05 70 06 38 05 D8 05 E2 
  1173)      7013.3  Rx         0005  4  05 FC 07 90 
  1174)      7014.4  Rx         0002  2  07 E5 
  1175)      7029.6  Rx         0005  4  05 F8 07 8C 
  1176)      7030.2  Rx         0002  2  07 E5 
  1177)      7042.5  Rx         0010  8  05 71 06 38 05 D4 05 E0 
  1178)      7049.3  Rx         0005  4  05 F9 07 8D 
  1179)      7050.0  Rx         0002  2  07 E6 
  1180)      7064.9  Rx         0202  1  01 
  1181)      7065.4  Rx         0006  2  00 01 
  1182)      7065.6  Rx         0011  4  00 C0 00 1F 
  1183)      7065.7  Rx         0182  2  00 10 
  1184)      7065.8  Rx         0183  2  01 14 
  1185)      7066.0  Rx         0005  4  05 FA 07 8D 
  1186)      7067.4  Rx         0002  2  07 E6 
  1187)      7079.6  Rx         0010  8  05 72 06 37 05 D3 05 E0 
  1188)      7083.4  Rx         0005  4  05 F6 07 8A 
  1189)      7083.8  Rx         0002  2  07 E6 
  1190)      7101.7  Rx         0005  4  05 F9 07 91 
  1191)      7102.4  Rx         0002  2  07 E6 
  1192)      7114.0  Rx         0010  8  05 6F 06 37 05 DA 05 E0 
  1193)      7117.9  Rx         0005  4  05 F6 07 8B 
  1194)      7118.3  Rx         0002  2  07 E5 
  1195)      7138.0  Rx         0202  1  01 
  1196)      7138.6  Rx         0005  4  05 F9 07 8E 
  1197)      7138.8  Rx         0006  2  00 01 
  1198)      7139.0  Rx         0011  4  00 C0 00 1F 
  1199)      7139.1  Rx         0182  2  00 10 
  1200)      7139.3  Rx         0183  2  01 14 
  1201)      7139.5  Rx         0002  2  07 E5 
  1202)      7150.9  Rx         0010  8  05 72 06 37 05 D4 05 E3 
  1203)      7154.9  Rx         0005  4  05 F8 07 88 
  1204)      7155.2  Rx         0002  2  07 E5 
  1205)      7173.3  Rx         0005  4  05 F5 07 8A 
  1206)      7173.6  Rx         0002  2  07 E3 
  1207)      7185.7  Rx         0010  8  05 6D 06 36 05 D7 05 E1 
  1208)      7194.1  Rx         0005  4  05 FB 07 8D 
  1209)      7194.7  Rx         0002  2  07 E5 
  1210)      7210.1  Rx         0005  4  05 F1 07 88 
  1211)      7210.5  Rx         0002  2  07 E3 
  1212)      7211.5  Rx         0202  1  01 
  1213)      7212.2  Rx         0006  2  00 01 
  1214)      7212.4  Rx         0011  4  00 C0 00 1F 
  1215)      7212.5  Rx         0182  2  00 10 
  1216)      7212.7  Rx         0183  2  01 14 
  1217)      7223.3  Rx         0010  8  05 70 06 36 05 D6 05 DF 
  1218)      7229.2  Rx         0005  4  05 F5 07 8B 
  1219)      7229.9  Rx         0002  2  07 E1 
  1220)      7245.8  Rx         0005  4  05 F9 07 91 
  1221)      7246.5  Rx         0002  2  07 E1 
  1222)      7258.7  Rx         0010  8  05 71 06 37 05 D7 05 DF 
  1223)      7262.5  Rx         0005  4  05 FA 07 90 
  1224)      7262.9  Rx         0002  2  07 E3 
  1225)      7270.4  Tx         0202  1  00 
  1226)      7270.7  Rx         0006  2  00 01 
  1227)      7271.0  Rx         0011  4  00 C0 00 1F 
  1228)      7271.2  Rx         0182  2  00 10 
  1229)      7271.3  Rx         0183  2  01 14 
  1230)      7280.0  Rx         0005  4  05 FC 07 8C 
  1231)      7280.5  Rx         0002  2  07 E5 
  1232)      7281.2  Rx         0202  1  01 
  1233)      7282.1  Rx         0006  2  00 01 
  1234)      7282.3  Rx         0011  4  00 C0 00 1F 
  1235)      7282.4  Rx         0182  2  00 10 
  1236)      7282.6  Rx         0183  2  01 14 
  1237)      7292.7  Rx         0010  8  05 71 06 32 05 D3 05 E1 
  1238)      7297.0  Rx         0005  4  05 FD 07 8C 
  1239)      7297.4  Rx         0002  2  07 E5 
  1240)      7316.1  Rx         0005  4  05 F6 07 89 
  1241)      7316.7  Rx         0002  2  07 E6 
  1242)      7327.3  Rx         0010  8  05 70 06 33 05 D5 05 DD 
  1243)      7332.4  Rx         0005  4  05 F1 07 88 
  1244)      7332.8  Rx         0002  2  07 E5 
  1245)      7353.4  Rx         0005  4  05 F9 07 8C 
  1246)      7354.2  Rx         0002  2  07 E5 
  1247)      7355.7  Rx         0202  1  01 
  1248)      7356.0  Rx         0006  2  00 01 
  1249)      7356.2  Rx         0011  4  00 C0 00 1F 
  1250)      7356.4  Rx         0182  2  00 10 
  1251)      7356.5  Rx         0183  2  01 14 
  1252)      7365.4  Rx         0010  8  05 70 06 32 05 D4 05 E0 
  1253)      7374.4  Rx         0005  4  05 F8 07 8D 
  1254)      7374.8  Rx         0002  2  07 E5 
  1255)      7390.2  Rx         0005  4  05 FB 07 90 
  1256)      7390.6  Rx         0002  2  07 E5 
  1257)      7402.4  Rx         0010  8  05 6E 06 37 05 D7 05 DE 
  1258)      7408.7  Rx         0005  4  05 FB 07 8A 
  1259)      7409.2  Rx         0002  2  07 E5 
  1260)      7425.0  Rx         0005  4  05 F5 07 8E 
  1261)      7425.5  Rx         0002  2  07 E5 
  1262)      7429.0  Rx         0202  1  01 
  1263)      7429.6  Rx         0006  2  00 01 
  1264)      7429.8  Rx         0011  4  00 C0 00 1F 
  1265)      7430.0  Rx         0182  2  00 10 
  1266)      7430.1  Rx         0183  2  01 14 
  1267)      7438.2  Rx         0010  8  05 70 06 34 05 D5 05 DE 
  1268)      7442.5  Rx         0005  4  05 F9 07 8E 
  1269)      7443.2  Rx         0002  2  07 E6 
  1270)      7459.7  Rx         0005  4  05 F4 07 8A 
  1271)      7460.1  Rx         0002  2  07 E5 
  1272)      7471.2  Rx         0010  8  05 70 06 36 05 D6 05 E0 
  1273)      7475.6  Rx         0005  4  05 F9 07 89 
  1274)      7475.9  Rx         0002  2  07 E5 
  1275)      7492.6  Rx         0005  4  05 F8 07 8A 
  1276)      7493.1  Rx         0002  2  07 E5 
  1277)      7496.2  Rx         0202  1  01 
  1278)      7496.7  Rx         0006  2  00 01 
  1279)      7496.8  Rx         0011  4  00 C0 00 1F 
  1280)      7496.9  Rx         0182  2  00 10 
  1281)      7497.0  Rx         0183  2  01 14 
  1282)      7504.3  Rx         0010  8  05 70 06 38 05 D6 05 DE 
  1283)      7509.6  Rx         0005  4  05 FC 07 87 
  1284)      7511.6  Rx         0002  2  07 E5 
  1285)      7531.7  Rx         0005  4  05 F5 07 88 
  1286)      7532.2  Rx         0002  2  07 E5 
  1287)      7543.3  Rx         0010  8  05 71 06 36 05 D6 05 DF 
  1288)      7552.5  Rx         0005  4  05 F9 07 8A 
  1289)      7553.1  Rx         0002  2  07 E5 
  1290)      7568.7  Rx         0005  4  05 F7 07 87 
  1291)      7569.3  Rx         0002  2  07 E5 
  1292)      7573.5  Rx         0202  1  01 
  1293)      7573.9  Rx         0006  2  00 01 
  1294)      7574.1  Rx         0011  4  00 C0 00 1F 
  1295)      7574.2  Rx         0182  2  00 10 
  1296)      7574.4  Rx         0183  2  01 14 
  1297)      7581.2  Rx         0010  8  05 71 06 38 05 D7 05 E2 
  1298)      7586.6  Rx         0005  4  05 F8 07 8D 
  1299)      7587.1  Rx         0002  2  07 E5 
  1300)      7602.9  Rx         0005  4  05 FA 07 89 
  1301)      7603.6  Rx         0002  2  07 E5 
  1302)      7614.9  Rx         0010  8  05 73 06 36 05 D8 05 DF 
  1303)      7619.8  Rx         0005  4  05 F6 07 89 
  1304)      7620.4  Rx         0002  2  07 E5 
  1305)      7636.4  Rx         0005  4  05 F6 07 87 
  1306)      7636.8  Rx         0002  2  07 E5 
  1307)      7641.7  Rx         0202  1  01 
  1308)      7642.2  Rx         0006  2  00 01 
  1309)      7642.4  Rx         0011  4  00 C0 00 1F 
  1310)      7642.6  Rx         0182  2  00 10 
  1311)      7642.7  Rx         0183  2  01 14 
  1312)      7648.5  Rx         0010  8  05 72 06 35 05 D4 05 DE 
  1313)      7653.3  Rx         0005  4  05 FA 07 8A 
  1314)      7653.8  Rx         0002  2  07 E5 
  1315)      7669.9  Rx         0005  4  05 F6 07 89 
  1316)      7670.4  Rx         0002  2  07 E5 
  1317)      7681.4  Rx         0010  8  05 72 06 38 05 D5 05 DE 
  1318)      7689.4  Rx         0005  4  05 F9 07 8C 
  1319)      7689.8  Rx         0002  2  07 E5 
  1320)      7706.9  Rx         0005  4  05 F9 07 8A 
  1321)      7707.4  Rx         0002  2  07 E5 
  1322)      7713.8  Rx         0202  1  01 
  1323)      7714.4  Rx         0006  2  00 01 
  1324)      7714.6  Rx         0011  4  00 C0 00 1F 
  1325)      7714.8  Rx         0182  2  00 10 
  1326)      7714.9  Rx         0183  2  01 14 
  1327)      7719.0  Rx         0010  8  05 71 06 38 05 D7 05 DE 
  1328)      7724.3  Rx         0005  4  05 F7 07 89 
  1329)      7724.7  Rx         0002  2  07 E5 
  1330)      7740.8  Rx         0005  4  05 FA 07 8A 
  1331)      7741.4  Rx         0002  2  07 E5 
  1332)      7752.4  Rx         0010  8  05 70 06 36 05 D3 05 E2 
  1333)      7758.9  Rx         0005  4  05 F8 07 86 
  1334)      7759.4  Rx         0002  2  07 E5 
  1335)      7776.2  Rx         0005  4  05 F5 07 87 
  1336)      7776.8  Rx         0002  2  07 E5 
  1337)      7782.7  Rx         0202  1  01 
  1338)      7783.2  Rx         0006  2  00 01 
  1339)      7783.4  Rx         0011  4  00 C0 00 1F 
  1340)      7783.4  Rx         0182  2  00 10 
  1341)      7783.6  Rx         0183  2  01 14 
  1342)      7787.8  Rx         0010  8  05 6F 06 37 05 D8 05 DE 
  1343)      7792.8  Rx         0005  4  05 F9 07 89 
  1344)      7793.3  Rx         0002  2  07 E5 
  1345)      7810.9  Rx         0005  4  05 F9 07 8D 
  1346)      7811.1  Rx         0002  2  07 E5 
  1347)      7822.1  Rx         0010  8  05 6E 06 3B 05 D8 05 E1 
  1348)      7827.2  Rx         0005  4  05 F9 07 85 
  1349)      7827.7  Rx         0002  2  07 E5 
  1350)      7846.9  Rx         0005  4  05 FB 07 8D 
  1351)      7847.4  Rx         0002  2  07 E5 
  1352)      7854.5  Rx         0202  1  01 
  1353)      7855.0  Rx         0006  2  00 01 
  1354)      7855.2  Rx         0011  4  00 C0 00 1F 
  1355)      7855.3  Rx         0182  2  00 10 
  1356)      7855.4  Rx         0183  2  01 14 
  1357)      7858.3  Rx         0010  8  05 70 06 38 05 DA 05 DC 
  1358)      7865.4  Rx         0005  4  05 F6 07 8A 
  1359)      7866.0  Rx         0002  2  07 E5 
  1360)      7882.9  Rx         0005  4  05 F6 07 86 
  1361)      7883.4  Rx         0002  2  07 E5 
  1362)      7894.1  Rx         0010  8  05 6E 06 36 05 D8 05 DF 
  1363)      7899.8  Rx         0005  4  05 F4 07 8A 
  1364)      7900.2  Rx         0002  2  07 E5 
  1365)      7916.4  Rx         0005  4  05 FC 07 87 
  1366)      7917.0  Rx         0002  2  07 E5 
  1367)      7925.4  Rx         0202  1  01 
  1368)      7925.9  Rx         0006  2  00 01 
  1369)      7926.2  Rx         0011  4  00 C0 00 1F 
  1370)      7926.4  Rx         0182  2  00 10 
  1371)      7926.5  Rx         0183  2  01 14 
  1372)      7928.9  Rx         0010  8  05 6F 06 35 05 D6 05 DA 
  1373)      7934.4  Rx         0005  4  05 F7 07 8C 
  1374)      7935.2  Rx         0002  2  07 E5 
  1375)      7955.0  Rx         0005  4  05 FA 07 84 
  1376)      7955.5  Rx         0002  2  07 E5 
  1377)      7966.4  Rx         0010  8  05 70 06 38 05 D2 05 DF 
  1378)      7971.9  Rx         0005  4  05 F9 07 73 
  1379)      7972.4  Rx         0002  2  07 E5 
  1380)      7991.2  Rx         0005  4  05 FB 07 6C 
  1381)      7991.6  Rx         0002  2  07 E6 
  1382)      8000.6  Rx         0202  1  01 
  1383)      8001.1  Rx         0006  2  00 01 
  1384)      8001.3  Rx         0011  4  00 C0 00 1F 
  1385)      8001.5  Rx         0182  2  00 10 
  1386)      8001.7  Rx         0183  2  01 14 
  1387)      8002.7  Rx         0010  8  05 70 06 38 05 D9 05 DC 
  1388)      8007.9  Rx         0005  4  05 F9 07 6F 
  1389)      8009.1  Rx         0002  2  07 E8 
  1390)      8025.0  Rx         0005  4  05 F6 07 6D 
  1391)      8025.4  Rx         0002  2  07 E6 
  1392)      8036.0  Rx         0010  8  05 70 06 37 05 D7 05 DD 
  1393)      8047.4  Rx         0005  4  05 F5 07 65 
  1394)      8047.9  Rx         0002  2  07 E5 
  1395)      8065.7  Rx         0005  4  05 FA 07 6C 
  1396)      8066.2  Rx         0002  2  07 E5 
  1397)      8075.4  Rx         0202  1  01 
  1398)      8075.9  Rx         0006  2  00 01 
  1399)      8076.1  Rx         0011  4  00 C0 00 1F 
  1400)      8076.2  Rx         0182  2  00 10 
  1401)      8076.4  Rx         0183  2  01 14 
  1402)      8077.0  Rx         0010  8  05 70 06 35 05 D6 05 E2 
  1403)      8087.6  Rx         0005  4  05 FA 07 67 
  1404)      8088.0  Rx         0002  2  07 E5 
  1405)      8104.6  Rx         0005  4  05 FD 07 70 
  1406)      8105.2  Rx         0002  2  07 E6 
  1407)      8116.3  Rx         0010  8  05 6E 06 33 05 D4 05 E0 
  1408)      8121.9  Rx         0005  4  05 F7 07 69 
  1409)      8122.5  Rx         0002  2  07 E5 
  1410)      8139.0  Rx         0005  4  05 F9 07 6D 
  1411)      8139.7  Rx         0002  2  07 E6 
  1412)      8149.9  Rx         0202  1  01 
  1413)      8150.5  Rx         0006  2  00 01 
  1414)      8150.7  Rx         0010  8  05 74 06 3B 05 D8 05 E2 
  1415)      8150.9  Rx         0011  4  00 C0 00 1F 
  1416)      8151.2  Rx         0182  2  00 10 
  1417)      8151.2  Rx         0183  2  01 14 
  1418)      8156.4  Rx         0005  4  05 F8 07 69 
  1419)      8156.8  Rx         0002  2  07 E8 
  1420)      8176.5  Rx         0005  4  05 FB 07 6A 
  1421)      8176.9  Rx         0002  2  07 E8 
  1422)      8187.4  Rx         0010  8  05 73 06 3A 05 D8 05 E1 
  1423)      8196.0  Rx         0005  4  05 F6 07 5D 
  1424)      8196.5  Rx         0002  2  07 E6 
  1425)      8213.1  Rx         0005  4  05 FC 07 49 
  1426)      8213.7  Rx         0002  2  07 E6 
  1427)      8223.8  Rx         0010  8  05 6E 06 34 05 D3 05 DC 
  1428)      8224.3  Rx         0202  1  01 
  1429)      8225.0  Rx         0006  2  00 01 
  1430)      8225.1  Rx         0011  4  00 C0 00 1F 
  1431)      8225.3  Rx         0182  2  00 10 
  1432)      8225.5  Rx         0183  2  01 14 
  1433)      8232.0  Rx         0005  4  05 FA 07 30 
  1434)      8232.6  Rx         0002  2  07 E6 
  1435)      8249.4  Rx         0005  4  05 F9 07 16 
  1436)      8249.7  Rx         0002  2  07 E6 
  1437)      8259.9  Rx         0010  8  05 72 06 36 05 D7 05 DD 
  1438)      8268.3  Rx         0005  4  05 F7 06 F7 
  1439)      8268.9  Rx         0002  2  07 E6 
  1440)      8270.5  Tx         0202  1  00 
  1441)      8270.8  Rx         0006  2  00 01 
  1442)      8270.9  Rx         0011  4  00 C0 00 1F 
  1443)      8271.0  Rx         0182  2  00 10 
  1444)      8271.2  Rx         0183  2  01 14 
  1445)      8285.9  Rx         0005  4  05 F8 06 E9 
  1446)      8286.3  Rx         0002  2  07 E6 
  1447)      8296.7  Rx         0010  8  05 72 06 34 05 D6 05 DE 
  1448)      8297.8  Rx         0202  1  01 
  1449)      8298.6  Rx         0006  2  00 01 
  1450)      8298.7  Rx         0011  4  00 C0 00 1F 
  1451)      8298.8  Rx         0182  2  00 10 
  1452)      8298.9  Rx         0183  2  01 14 
  1453)      8303.3  Rx         0005  4  05 FC 06 D4 
  1454)      8303.8  Rx         0002  2  07 E8 
  1455)      8321.8  Rx         0005  4  05 F6 06 AD 
  1456)      8322.2  Rx         0002  2  07 E6 
  1457)      8332.8  Rx         0010  8  05 71 06 34 05 D9 05 DF 
  1458)      8338.6  Rx         0005  4  05 FB 06 6E 
  1459)      8339.2  Rx         0002  2  07 E6 
  1460)      8356.6  Rx         0005  4  05 F8 06 2C 
  1461)      8357.1  Rx         0002  2  07 E6 
  1462)      8367.3  Rx         0010  8  05 6E 06 37 05 D7 05 DF 
  1463)      8369.6  Rx         0202  1  01 
  1464)      8370.1  Rx         0006  2  00 01 
  1465)      8370.3  Rx         0011  4  00 C0 00 1F 
  1466)      8370.4  Rx         0182  2  00 10 
  1467)      8370.4  Rx         0183  2  01 14 
  1468)      8375.4  Rx         0005  4  05 F4 05 F1 
  1469)      8375.8  Rx         0002  2  07 E5 
  1470)      8391.9  Rx         0005  4  05 FC 05 F0 
  1471)      8392.8  Rx         0002  2  07 E6 
  1472)      8402.2  Rx         0010  8  05 71 06 33 05 D4 05 DF 
  1473)      8413.0  Rx         0005  4  05 F5 05 EC 
  1474)      8413.4  Rx         0002  2  07 E5 
  1475)      8430.1  Rx         0005  4  05 F9 05 EE 
  1476)      8430.8  Rx         0002  2  07 E5 
  1477)      8440.5  Rx         0010  8  05 70 06 39 05 D3 05 DE 
  1478)      8446.4  Rx         0202  1  01 
  1479)      8446.9  Rx         0006  2  00 01 
  1480)      8447.1  Rx         0011  4  00 C0 00 1F 
  1481)      8447.3  Rx         0182  2  00 10 
  1482)      8447.4  Rx         0183  2  01 14 
  1483)      8449.6  Rx         0005  4  05 F8 05 ED 
  1484)      8450.0  Rx         0002  2  07 E5 
  1485)      8466.5  Rx         0005  4  05 F6 05 EC 
  1486)      8466.9  Rx         0002  2  07 E3 
  1487)      8477.4  Rx         0010  8  05 70 06 35 05 D9 05 DD 
  1488)      8483.4  Rx         0005  4  05 F9 05 EA 
  1489)      8484.1  Rx         0002  2  07 E5 
  1490)      8503.0  Rx         0005  4  05 FC 05 EA 
  1491)      8503.3  Rx         0002  2  07 E5 
  1492)      8513.6  Rx         0010  8  05 73 06 36 05 D6 05 DF 
  1493)      8517.4  Rx         0202  1  01 
  1494)      8518.0  Rx         0006  2  00 01 
  1495)      8518.1  Rx         0011  4  00 C0 00 1F 
  1496)      8518.3  Rx         0182  2  00 10 
  1497)      8518.4  Rx         0183  2  01 14 
  1498)      8519.9  Rx         0005  4  05 FB 05 E9 
  1499)      8522.1  Rx         0002  2  07 E6 
  1500)      8538.6  Rx         0005  4  05 F7 05 E7 
  1501)      8539.0  Rx         0002  2  07 E6 
  1502)      8549.4  Rx         0010  8  05 70 06 37 05 D6 05 E1 
  1503)      8556.8  Rx         0005  4  05 FA 05 EB 
  1504)      8557.5  Rx         0002  2  07 E6 
  1505)      8573.4  Rx         0005  4  05 FB 05 EA 
  1506)      8573.7  Rx         0002  2  07 E8 
  1507)      8583.4  Rx         0010  8  05 73 06 35 05 D6 05 DF 
  1508)      8589.0  Rx         0202  1  01 
  1509)      8589.7  Rx         0006  2  00 01 
  1510)      8590.1  Rx         0011  4  00 C0 00 1F 
  1511)      8590.1  Rx         0182  2  00 10 
  1512)      8590.3  Rx         0183  2  01 14 
  1513)      8590.8  Rx         0005  4  05 FB 05 EA 
  1514)      8591.8  Rx         0002  2  07 E8 
  1515)      8607.8  Rx         0005  4  05 FC 05 EC 
  1516)      8609.0  Rx         0002  2  07 E8 
  1517)      8618.2  Rx         0010  8  05 70 06 35 05 D7 05 E0 
  1518)      8624.2  Rx         0005  4  05 FF 05 F0 
  1519)      8624.7  Rx         0002  2  07 EA 
  1520)      8641.0  Rx         0005  4  05 F6 05 E8 
  1521)      8641.9  Rx         0002  2  07 EA 
  1522)      8651.8  Rx         0010  8  05 6F 06 37 05 D7 05 DE 
  1523)      8657.8  Rx         0202  1  01 
  1524)      8658.3  Rx         0005  4  05 F1 05 E4 
  1525)      8658.5  Rx         0006  2  00 01 
  1526)      8658.6  Rx         0011  4  00 C0 00 1F 
  1527)      8658.7  Rx         0182  2  00 10 
  1528)      8658.8  Rx         0002  2  07 E6 
  1529)      8658.8  Rx         0183  2  01 14 
  1530)      8677.2  Rx         0005  4  05 F3 05 E6 
  1531)      8677.5  Rx         0002  2  07 E5 
  1532)      8687.6  Rx         0010  8  05 6F 06 37 05 D6 05 E0 
  1533)      8693.9  Rx         0005  4  05 F4 05 E8 
  1534)      8696.9  Rx         0002  2  07 E3 
  1535)      8712.6  Rx         0005  4  05 FB 05 DF 
  1536)      8713.1  Rx         0002  2  07 E3 
  1537)      8723.0  Rx         0010  8  05 6E 06 35 05 D3 05 E0 
  1538)      8729.7  Rx         0202  1  01 
  1539)      8730.3  Rx         0005  4  05 F8 05 B4 
  1540)      8730.4  Rx         0006  2  00 01 
  1541)      8730.7  Rx         0011  4  00 C0 00 1F 
  1542)      8730.8  Rx         0182  2  00 10 
  1543)      8730.9  Rx         0183  2  01 14 
  1544)      8731.1  Rx         0002  2  07 E1 
  1545)      8746.8  Rx         0005  4  05 FB 05 4E 
  1546)      8747.2  Rx         0002  2  07 E1 
  1547)      8756.7  Rx         0010  8  05 6F 06 38 05 D6 05 DD 
  1548)      8765.1  Rx         0005  4  05 F8 05 23 
  1549)      8765.8  Rx         0002  2  07 E5 
  1550)      8783.1  Rx         0005  4  05 F8 04 BF 
  1551)      8783.6  Rx         0002  2  07 E5 
  1552)      8793.1  Rx         0010  8  05 71 06 34 05 D6 05 DC 
  1553)      8799.3  Rx         0005  4  05 F8 04 79 
  1554)      8799.6  Rx         0002  2  07 E6 
  1555)      8800.1  Rx         0202  1  01 
  1556)      8800.8  Rx         0006  2  00 01 
  1557)      8800.9  Rx         0011  4  00 C0 00 1F 
  1558)      8801.0  Rx         0182  2  00 10 
  1559)      8801.2  Rx         0183  2  01 14 
  1560)      8817.9  Rx         0005  4  05 F5 04 3B 
  1561)      8818.5  Rx         0002  2  07 E5 
  1562)      8828.3  Rx         0010  8  05 72 06 34 05 D8 05 DE 
  1563)      8835.0  Rx         0005  4  05 F7 04 03 
  1564)      8835.3  Rx         0002  2  07 E5 
  1565)      8852.3  Rx         0005  4  05 FB 03 E5 
  1566)      8852.9  Rx         0002  2  07 E5 
  1567)      8862.5  Rx         0010  8  05 72 06 36 05 D3 05 DF 
  1568)      8870.4  Rx         0005  4  05 FB 03 A4 
  1569)      8871.0  Rx         0002  2  07 E5 
  1570)      8871.9  Rx         0202  1  01 
  1571)      8872.6  Rx         0011  4  00 C0 00 1F 
  1572)      8872.8  Rx         0006  2  00 01 
  1573)      8872.9  Rx         0182  2  00 10 
  1574)      8873.1  Rx         0183  2  01 14 
  1575)      8887.2  Rx         0005  4  05 FB 03 7B 
  1576)      8887.9  Rx         0002  2  07 E6 
  1577)      8897.2  Rx         0010  8  05 72 06 36 05 D5 05 E0 
  1578)      8904.3  Rx         0005  4  05 F8 03 78 
  1579)      8904.9  Rx         0002  2  07 E6 
  1580)      8920.4  Rx         0005  4  05 F9 03 78 
  1581)      8920.7  Rx         0002  2  07 E8 
  1582)      8930.4  Rx         0010  8  05 70 06 38 05 D6 05 DD 
  1583)      8939.2  Rx         0005  4  05 F7 03 79 
  1584)      8939.7  Rx         0002  2  07 E8 
  1585)      8942.2  Rx         0202  1  01 
  1586)      8942.7  Rx         0006  2  00 01 
  1587)      8943.0  Rx         0011  4  00 C0 00 1F 
  1588)      8943.1  Rx         0182  2  00 10 
  1589)      8943.2  Rx         0183  2  01 14 
  1590)      8957.5  Rx         0005  4  05 F9 03 7C 
  1591)      8957.9  Rx         0002  2  07 E6 
  1592)      8967.4  Rx         0010  8  05 6F 06 36 05 D7 05 E2 
  1593)      8974.1  Rx         0005  4  05 F4 03 78 
  1594)      8975.0  Rx         0002  2  07 E5 
  1595)      8992.3  Rx         0005  4  05 F6 03 7E 
  1596)      8992.8  Rx         0002  2  07 E3 
  1597)      9002.5  Rx         0010  8  05 71 06 34 05 D4 05 DD 
  1598)      9009.0  Rx         0005  4  05 FF 03 7E 
  1599)      9009.3  Rx         0002  2  07 E5 
  1600)      9012.6  Rx         0202  1  01 
  1601)      9013.2  Rx         0006  2  00 01 
  1602)      9013.5  Rx         0011  4  00 C0 00 1F 
  1603)      9013.6  Rx         0182  2  00 10 
  1604)      9013.7  Rx         0183  2  01 14 
  1605)      9026.8  Rx         0005  4  05 F2 03 81 
  1606)      9027.4  Rx         0002  2  07 E3 
  1607)      9036.9  Rx         0010  8  05 73 06 35 05 D1 05 DB 
  1608)      9046.5  Rx         0005  4  05 F8 03 84 
  1609)      9047.0  Rx         0002  2  07 E3 
  1610)      9062.7  Rx         0005  4  05 F7 03 82 
  1611)      9063.3  Rx         0002  2  07 E3 
  1612)      9072.5  Rx         0010  8  05 71 06 36 05 D6 05 DF 
  1613)      9081.0  Rx         0005  4  05 F9 03 84 
  1614)      9081.5  Rx         0002  2  07 E5 
  1615)      9084.4  Rx         0202  1  01 
  1616)      9085.0  Rx         0006  2  00 01 
  1617)      9085.2  Rx         0011  4  00 C0 00 1F 
  1618)      9085.3  Rx         0182  2  00 10 
  1619)      9085.4  Rx         0183  2  01 14 
  1620)      9097.6  Rx         0005  4  05 F7 03 84 
  1621)      9099.0  Rx         0002  2  07 E5 
  1622)      9108.0  Rx         0010  8  05 6F 06 33 05 D6 05 E0 
  1623)      9118.2  Rx         0005  4  05 FC 03 89 
  1624)      9118.6  Rx         0002  2  07 E5 
  1625)      9135.5  Rx         0005  4  05 F7 03 9A 
  1626)      9136.0  Rx         0002  2  07 E5 
  1627)      9145.5  Rx         0010  8  05 70 06 35 05 D5 05 DD 
  1628)      9152.3  Rx         0005  4  05 F6 03 AA 
  1629)      9152.8  Rx         0002  2  07 E5 
  1630)      9157.5  Rx         0202  1  01 
  1631)      9158.0  Rx         0006  2  00 01 
  1632)      9158.1  Rx         0011  4  00 C0 00 1F 
  1633)      9158.2  Rx         0182  2  00 10 
  1634)      9158.4  Rx         0183  2  01 14 
  1635)      9169.9  Rx         0005  4  05 FC 03 AB 
  1636)      9170.3  Rx         0002  2  07 E6 
  1637)      9179.9  Rx         0010  8  05 6F 06 32 05 D4 05 DE 
  1638)      9187.1  Rx         0005  4  05 FD 03 B0 
  1639)      9190.8  Rx         0002  2  07 E8 
  1640)      9207.8  Rx         0005  4  05 F5 03 DF 
  1641)      9208.2  Rx         0002  2  07 E6 
  1642)      9217.9  Rx         0010  8  05 6E 06 36 05 D8 05 DC 
  1643)      9226.5  Rx         0005  4  05 FA 04 50 
  1644)      9226.9  Rx         0002  2  07 E6 
  1645)      9231.5  Rx         0202  1  01 
  1646)      9232.0  Rx         0006  2  00 01 
  1647)      9232.2  Rx         0011  4  00 C0 00 1F 
  1648)      9232.4  Rx         0182  2  00 10 
  1649)      9232.5  Rx         0183  2  01 14 
  1650)      9243.1  Rx         0005  4  05 F7 05 1C 
  1651)      9243.6  Rx         0002  2  07 E6 
  1652)      9252.6  Rx         0010  8  05 6F 06 36 05 D8 05 DE 
  1653)      9263.8  Rx         0005  4  05 F4 06 11 
  1654)      9264.6  Rx         0002  2  07 E5 
  1655)      9270.6  Tx         0202  1  00 
  1656)      9270.8  Rx         0006  2  00 01 
  1657)      9271.1  Rx         0011  4  00 C0 00 1F 
  1658)      9271.3  Rx         0182  2  00 10 
  1659)      9271.4  Rx         0183  2  01 14 
  1660)      9280.8  Rx         0005  4  05 FD 05 EE 
  1661)      9281.4  Rx         0002  2  07 E6 
  1662)      9290.1  Rx         0010  8  05 6F 06 36 05 D5 05 DF 
  1663)      9298.0  Rx         0005  4  05 F8 05 EC 
  1664)      9298.4  Rx         0002  2  07 E5 
  1665)      9304.5  Rx         0202  1  01 
  1666)      9305.3  Rx         0006  2  00 01 
  1667)      9305.4  Rx         0011  4  00 C0 00 1F 
  1668)      9305.6  Rx         0182  2  00 10 
  1669)      9305.8  Rx         0183  2  01 14 
  1670)      9315.9  Rx         0005  4  05 FA 05 EB 
  1671)      9316.4  Rx         0002  2  07 E6 
  1672)      9325.6  Rx         0010  8  05 70 06 37 05 D8 05 DF 
  1673)      9332.3  Rx         0005  4  05 F9 05 EA 
  1674)      9332.8  Rx         0002  2  07 E5 
  1675)      9349.7  Rx         0005  4  05 F8 05 ED 
  1676)      9349.8  Rx         0002  2  07 E6 
  1677)      9359.2  Rx         0010  8  05 6F 06 32 05 D5 05 DD 
  1678)      9367.1  Rx         0005  4  05 FA 05 EE 
  1679)      9367.7  Rx         0002  2  07 E8 
  1680)      9373.7  Rx         0202  1  01 
  1681)      9374.2  Rx         0006  2  00 01 
  1682)      9374.4  Rx         0011  4  00 C0 00 1F 
  1683)      9374.5  Rx         0182  2  00 10 
  1684)      9374.7  Rx         0183  2  01 14 
  1685)      9384.8  Rx         0005  4  05 F5 05 E9 
  1686)      9385.3  Rx         0002  2  07 E5 
  1687)      9394.4  Rx         0010  8  05 6F 06 36 05 D8 05 DE 
  1688)      9405.3  Rx         0005  4  05 F7 05 EC 
  1689)      9405.7  Rx         0002  2  07 E5 
  1690)      9421.2  Rx         0005  4  05 F6 05 EC 
  1691)      9421.8  Rx         0002  2  07 E5 
  1692)      9430.4  Rx         0010  8  05 72 06 35 05 D8 05 DE 
  1693)      9440.5  Rx         0005  4  05 F8 05 E5 
  1694)      9440.8  Rx         0002  2  07 E3 
  1695)      9448.6  Rx         0202  1  01 
  1696)      9449.1  Rx         0006  2  00 01 
  1697)      9449.3  Rx         0011  4  00 C0 00 1F 
  1698)      9449.4  Rx         0182  2  00 10 
  1699)      9449.5  Rx         0183  2  01 14 
  1700)      9457.9  Rx         0005  4  05 F6 05 EE 
  1701)      9458.5  Rx         0002  2  07 E3 
  1702)      9466.7  Rx         0010  8  05 6D 06 35 05 D9 05 E1 
  1703)      9475.8  Rx         0005  4  05 FB 05 E8 
  1704)      9476.4  Rx         0002  2  07 E3 
  1705)      9493.3  Rx         0005  4  05 FA 05 EB 
  1706)      9493.7  Rx         0002  2  07 E5 
  1707)      9502.3  Rx         0010  8  05 72 06 37 05 D7 05 E2 
  1708)      9509.7  Rx         0005  4  05 F6 05 EC 
  1709)      9510.9  Rx         0002  2  07 E5 
  1710)      9518.6  Rx         0202  1  01 
  1711)      9519.2  Rx         0006  2  00 01 
  1712)      9519.4  Rx         0011  4  00 C0 00 1F 
  1713)      9519.6  Rx         0182  2  00 10 
  1714)      9519.7  Rx         0183  2  01 14 
  1715)      9528.3  Rx         0005  4  05 F7 05 ED 
  1716)      9528.9  Rx         0002  2  07 E5 
  1717)      9537.1  Rx         0010  8  05 70 06 38 05 D6 05 E0 
  1718)      9548.6  Rx         0005  4  05 F7 05 EA 
  1719)      9549.2  Rx         0002  2  07 E5 
  1720)      9565.9  Rx         0005  4  05 F5 05 EA 
  1721)      9566.3  Rx         0002  2  07 E5 
  1722)      9574.9  Rx         0010  8  05 71 06 38 05 D6 05 E0 
  1723)      9583.6  Rx         0005  4  05 F7 05 EB 
  1724)      9584.0  Rx         0002  2  07 E3 
  1725)      9592.6  Rx         0202  1  01 
  1726)      9593.1  Rx         0006  2  00 01 
  1727)      9593.2  Rx         0011  4  00 C0 00 1F 
  1728)      9593.4  Rx         0182  2  00 10 
  1729)      9593.6  Rx         0183  2  01 14 
  1730)      9600.4  Rx         0005  4  05 FA 05 EA 
  1731)      9601.2  Rx         0002  2  07 E3 
  1732)      9609.3  Rx         0010  8  05 72 06 37 05 D8 05 E1 
  1733)      9619.2  Rx         0005  4  05 F0 05 E9 
  1734)      9619.8  Rx         0002  2  07 E1 
  1735)      9635.5  Rx         0005  4  05 F7 05 E7 
  1736)      9636.0  Rx         0002  2  07 E1 
  1737)      9643.6  Rx         0129  1  00 
  1738)      9644.9  Rx         0010  8  05 71 06 36 05 D3 05 E1 
  1739)      9653.3  Rx         0005  4  05 F5 05 EA 
  1740)      9653.7  Rx         0002  2  07 E1 
  1741)      9665.5  Rx         0202  1  01 
  1742)      9666.0  Rx         0006  2  00 01 
  1743)      9666.2  Rx         0011  4  00 C0 00 1F 
  1744)      9666.3  Rx         0182  2  00 10 
  1745)      9666.4  Rx         0183  2  01 14 
  1746)      9667.6  Rx         0129  1  00 
  1747)      9673.2  Rx         0005  4  05 FA 05 EE 
  1748)      9673.6  Rx         0002  2  07 E1 
  1749)      9682.3  Rx         0010  8  05 6F 06 33 05 D5 05 E2 
  1750)      9688.3  Rx         0129  1  00 
  1751)      9691.6  Rx         0005  4  05 F7 05 ED 
  1752)      9692.9  Rx         0002  2  07 E1 
  1753)      9708.9  Rx         0005  4  05 F2 05 E9 
  1754)      9709.5  Rx         0002  2  07 E0 
  1755)      9710.9  Rx         0129  1  00 
  1756)      9717.7  Rx         0010  8  05 6F 06 36 05 D4 05 E2 
  1757)      9727.3  Rx         0005  4  05 F6 05 E8 
  1758)      9727.7  Rx         0002  2  07 E1 
  1759)      9733.0  Rx         0129  1  00 
  1760)      9738.4  Rx         0202  1  01 
  1761)      9738.7  Rx         0006  2  00 01 
  1762)      9738.9  Rx         0011  4  00 C0 00 1F 
  1763)      9739.1  Rx         0182  2  00 10 
  1764)      9739.2  Rx         0183  2  01 14 
  1765)      9744.5  Rx         0005  4  05 F8 05 E8 
  1766)      9745.2  Rx         0002  2  07 E1 
  1767)      9753.4  Rx         0010  8  05 72 06 39 05 D9 05 E2 
  1768)      9753.9  Rx         0129  1  00 
  1769)      9762.6  Rx         0005  4  05 F3 05 EC 
  1770)      9762.9  Rx         0002  2  07 E1 
  1771)      9775.7  Rx         0129  1  00 
  1772)      9779.5  Rx         0005  4  05 FB 05 EF 
  1773)      9780.0  Rx         0002  2  07 E1 
  1774)      9787.8  Rx         0010  8  05 71 06 37 05 D9 05 E1 
  1775)      9796.9  Rx         0129  1  00 
  1776)      9797.1  Rx         0005  4  05 F7 05 EA 
  1777)      9797.7  Rx         0002  2  07 E1 
  1778)      9809.7  Rx         0202  1  01 
  1779)      9810.3  Rx         0006  2  00 01 
  1780)      9810.4  Rx         0011  4  00 C0 00 1F 
  1781)      9810.6  Rx         0182  2  00 10 
  1782)      9810.7  Rx         0183  2  01 14 
  1783)      9815.8  Rx         0005  4  05 FA 05 EC 
  1784)      9816.2  Rx         0002  2  07 E5 
  1785)      9819.3  Rx         0129  1  00 
  1786)      9825.1  Rx         0010  8  05 73 06 38 05 D7 05 E2 
  1787)      9833.2  Rx         0005  4  05 F4 05 E8 
  1788)      9833.9  Rx         0002  2  07 E3 
  1789)      9840.9  Rx         0129  1  00 
  1790)      9850.5  Rx         0005  4  05 F7 05 EB 
  1791)      9850.8  Rx         0002  2  07 E3 
  1792)      9859.2  Rx         0010  8  05 6F 06 36 05 D5 05 DC 
  1793)      9861.0  Rx         0129  1  00 
  1794)      9868.6  Rx         0005  4  05 F6 05 EB 
  1795)      9869.0  Rx         0002  2  07 E5 
  1796)      9881.1  Rx         0202  1  01 
  1797)      9881.6  Rx         0006  2  00 01 
  1798)      9881.8  Rx         0011  4  00 C0 00 1F 
  1799)      9881.8  Rx         0182  2  00 10 
  1800)      9882.0  Rx         0183  2  01 14 
  1801)      9883.0  Rx         0129  1  00 
  1802)      9885.9  Rx         0005  4  05 F8 05 EE 
  1803)      9886.5  Rx         0002  2  07 E3 
  1804)      9894.6  Rx         0010  8  05 71 06 36 05 D7 05 DF 
  1805)      9907.8  Rx         0005  4  05 F6 05 E8 
  1806)      9908.2  Rx         0002  2  07 E3 
  1807)      9908.9  Rx         0129  1  00 
  1808)      9926.1  Rx         0005  4  05 F4 05 E9 
  1809)      9926.6  Rx         0002  2  07 E1 
  1810)      9930.9  Rx         0129  1  00 
  1811)      9934.9  Rx         0010  8  05 71 06 38 05 D8 05 E2 
  1812)      9944.2  Rx         0005  4  05 F7 05 F0 
  1813)      9944.6  Rx         0002  2  07 E1 
  1814)      9952.7  Rx         0129  1  00 
  1815)      9957.3  Rx         0202  1  01 
  1816)      9957.8  Rx         0006  2  00 01 
  1817)      9958.0  Rx         0011  4  00 C0 00 1F 
  1818)      9958.1  Rx         0182  2  00 10 
  1819)      9958.2  Rx         0183  2  01 14 
  1820)      9961.7  Rx         0005  4  05 FA 05 E8 
  1821)      9962.1  Rx         0002  2  07 E3 
  1822)      9970.0  Rx         0010  8  05 6F 06 34 05 D7 05 E0 
  1823)      9976.7  Rx         0129  1  00 
  1824)      9981.6  Rx         0005  4  05 F7 05 E7 
  1825)      9982.4  Rx         0002  2  07 E3 
  1826)      9996.9  Rx         0129  1  00 
  1827)      9998.3  Rx         0005  4  05 FA 05 EC 
  1828)      9998.7  Rx         0002  2  07 E3 
  1829)     10007.3  Rx         0010  8  05 71 06 37 05 D5 05 DE 
  1830)     10015.8  Rx         0005  4  05 FA 05 EC 
  1831)     10017.1  Rx         0002  2  07 E5 
  1832)     10019.6  Rx         0129  1  00 
  1833)     10031.9  Rx         0202  1  01 
  1834)     10032.3  Rx         0006  2  00 01 
  1835)     10032.6  Rx         0011  4  00 C0 00 1F 
  1836)     10032.8  Rx         0182  2  00 10 
  1837)     10032.8  Rx         0183  2  01 14 
  1838)     10034.6  Rx         0005  4  05 FA 05 EA 
  1839)     10035.0  Rx         0002  2  07 E6 
  1840)     10043.2  Rx         0010  8  05 70 06 37 05 D7 05 E0 
  1841)     10052.9  Rx         0005  4  05 F8 05 EC 
  1842)     10053.7  Rx         0002  2  07 E6 
  1843)     10069.6  Rx         0005  4  05 F8 05 EA 
  1844)     10070.1  Rx         0002  2  07 E6 
  1845)     10077.5  Rx         0010  8  05 71 06 34 05 D7 05 DF 
  1846)     10088.2  Rx         0005  4  05 F8 05 EB 
  1847)     10088.6  Rx         0002  2  07 E6 
  1848)     10103.6  Rx         0202  1  01 
  1849)     10104.2  Rx         0006  2  00 01 
  1850)     10104.3  Rx         0011  4  00 C0 00 1F 
  1851)     10104.5  Rx         0182  2  00 10 
  1852)     10104.7  Rx         0183  2  01 14 
  1853)     10105.9  Rx         0005  4  05 F7 05 EB 
  1854)     10107.2  Rx         0002  2  07 E5 
  1855)     10114.3  Rx         0010  8  05 70 06 37 05 D6 05 E0 
  1856)     10122.5  Rx         0005  4  05 F8 05 EB 
  1857)     10122.9  Rx         0002  2  07 E5 
  1858)     10139.4  Rx         0005  4  05 F7 05 EB 
  1859)     10140.0  Rx         0002  2  07 E5 
  1860)     10147.3  Rx         0010  8  05 70 06 38 05 D7 05 E1 
  1861)     10155.9  Rx         0005  4  05 F9 05 EB 
  1862)     10156.2  Rx         0002  2  07 E5 
  1863)     10171.6  Rx         0202  1  01 
  1864)     10172.1  Rx         0006  2  00 01 
  1865)     10172.3  Rx         0011  4  00 C0 00 1F 
  1866)     10172.4  Rx         0182  2  00 10 
  1867)     10172.5  Rx         0183  2  01 14 
  1868)     10173.6  Rx         0005  4  05 F6 05 EA 
  1869)     10174.2  Rx         0002  2  07 E5 
  1870)     10182.3  Rx         0010  8  05 71 06 35 05 D8 05 DE 
  1871)     10191.5  Rx         0005  4  05 F4 05 EA 
  1872)     10194.3  Rx         0002  2  07 E3 
  1873)     10210.0  Rx         0005  4  05 F4 05 EB 
  1874)     10210.4  Rx         0002  2  07 E1 
  1875)     10218.3  Rx         0010  8  05 72 06 36 05 D6 05 DE 
  1876)     10218.7  Rx         0129  1  00 
  1877)     10227.2  Rx         0005  4  05 F8 05 EB 
  1878)     10228.0  Rx         0002  2  07 E1 
  1879)     10239.3  Rx         0129  1  00 
  1880)     10243.1  Rx         0202  1  01 
  1881)     10243.6  Rx         0006  2  00 01 
  1882)     10243.9  Rx         0011  4  00 C0 00 1F 
  1883)     10244.1  Rx         0182  2  00 10 
  1884)     10244.1  Rx         0183  2  01 14 
  1885)     10244.5  Rx         0005  4  05 F6 05 EC 
  1886)     10245.2  Rx         0002  2  07 E1 
  1887)     10252.5  Rx         0010  8  05 6D 06 36 05 D9 05 E0 
  1888)     10260.4  Rx         0129  1  00 
  1889)     10261.3  Rx         0005  4  05 F8 05 EC 
  1890)     10262.0  Rx         0002  2  07 E1 
  1891)     10270.7  Tx         0202  1  00 
  1892)     10270.9  Rx         0006  2  00 01 
  1893)     10271.1  Rx         0011  4  00 C0 00 1F 
  1894)     10271.3  Rx         0182  2  00 10 
  1895)     10271.4  Rx         0183  2  01 14 
  1896)     10279.1  Rx         0005  4  05 F8 05 EB 
  1897)     10279.6  Rx         0002  2  07 E1 
  1898)     10281.4  Rx         0129  1  00 
  1899)     10286.6  Rx         0010  8  05 6F 06 36 05 D8 05 DF 
  1900)     10294.8  Rx         0005  4  05 F9 05 EC 
  1901)     10295.2  Rx         0002  2  07 E3 
  1902)     10301.7  Rx         0129  1  00 
  1903)     10312.0  Rx         0005  4  05 F7 05 EA 
  1904)     10312.2  Rx         0202  1  01 
  1905)     10312.9  Rx         0006  2  00 01 
  1906)     10313.1  Rx         0002  2  07 E5 
  1907)     10313.2  Rx         0011  4  00 C0 00 1F 
  1908)     10313.5  Rx         0182  2  00 10 
  1909)     10313.6  Rx         0183  2  01 14 
  1910)     10320.9  Rx         0010  8  05 6F 06 35 05 D3 05 DE 
  1911)     10322.5  Rx         0129  1  00 
  1912)     10328.9  Rx         0005  4  05 F7 05 EC 
