;$FILEVERSION=1.1
;$STARTTIME=41711.4538614005
;
;   C:\Documents and Settings\Administrator\Desktop\dgdgd.trc
;
;   Start time: 3/13/2014 10:53:33.625.x
;
;   Message Number
;   |         Time Offset (ms)
;   |         |        Type
;   |         |        |        ID (hex)
;   |         |        |        |     Data Length Code
;   |         |        |        |     |   Data Bytes (hex) ...
;   |         |        |        |     |   |
;---+--   ----+----  --+--  ----+---  +  -+ -- -- -- -- -- -- --
     1)        18.7  Rx         0005  4  05 FD 05 F7 
     2)        45.5  Rx         0005  4  06 01 05 FB 
     3)       341.5  Rx         0005  4  05 FE 05 F2 
     4)       341.7  Rx         0005  4  05 FC 05 F5 
     5)       341.8  Rx         0006  2  00 01 
     6)       771.4  Tx         0202  1  00 
     7)       772.0  Rx         0183  2  01 14 
     8)       907.2  Rx         0005  4  06 03 05 F8 
     9)       907.4  Rx         0005  4  06 00 05 F4 
    10)       907.7  Rx         0006  2  00 01 
    11)      1470.3  Rx         0005  4  06 01 09 D2 
    12)      1470.6  Rx         0005  4  05 F8 09 BD 
    13)      1470.7  Rx         0006  2  00 01 
    14)      1771.4  Tx         0202  1  00 
    15)      1988.3  Rx         0183  2  01 14 
    16)      2035.4  Rx         0005  4  06 04 09 4F 
    17)      2035.6  Rx         0005  4  06 01 09 44 
    18)      2035.8  Rx         0006  2  00 01 
    19)      2596.2  Rx         0005  4  05 FC 05 F1 
    20)      2596.4  Rx         0005  4  05 FC 05 F1 
    21)      2596.7  Rx         0006  2  00 01 
    22)      2771.2  Tx         0202  1  00 
    23)      2771.7  Rx         0006  2  00 01 
    24)      2771.8  Rx         0183  2  01 14 
    25)      2778.3  Rx         0005  4  06 01 05 B8 
    26)      2804.4  Rx         0005  4  06 02 05 F5 
    27)      2829.7  Rx         0005  4  05 FF 05 F3 
    28)      2854.1  Rx         0005  4  06 00 05 F5 
    29)      2878.7  Rx         0005  4  05 FE 05 F5 
    30)      2903.2  Rx         0005  4  06 01 05 F6 
    31)      2927.6  Rx         0005  4  06 01 05 F2 
    32)      2952.3  Rx         0005  4  05 FD 05 F2 
    33)      2976.6  Rx         0005  4  06 02 05 F6 
    34)      3000.8  Rx         0005  4  05 FD 05 F6 
    35)      3025.3  Rx         0005  4  05 FF 05 F4 
    36)      3360.5  Rx         0005  4  05 FC 05 F2 
    37)      3360.6  Rx         0005  4  06 00 05 EF 
    38)      3360.8  Rx         0006  2  00 01 
    39)      3771.3  Tx         0202  1  00 
    40)      3771.6  Rx         0183  2  01 14 
    41)      3920.9  Rx         0005  4  05 FF 05 F4 
    42)      3921.2  Rx         0005  4  05 FC 05 F2 
    43)      3921.5  Rx         0006  2  00 01 
    44)      4480.1  Rx         0005  4  06 01 05 F2 
    45)      4480.3  Rx         0005  4  06 05 05 ED 
    46)      4480.5  Rx         0006  2  00 01 
    47)      4771.2  Tx         0202  1  00 
    48)      5005.1  Rx         0183  2  01 14 
    49)      5055.1  Rx         0005  4  06 01 05 F3 
    50)      5055.3  Rx         0005  4  05 FC 05 F2 
    51)      5055.6  Rx         0006  2  00 01 
    52)      5654.9  Rx         0005  4  06 00 05 F6 
    53)      5655.2  Rx         0005  4  05 FB 05 ED 
    54)      5655.4  Rx         0006  2  00 01 
    55)      5771.2  Tx         0202  1  00 
    56)      5771.7  Rx         0006  2  00 01 
    57)      5772.0  Rx         0183  2  01 14 
    58)      5773.7  Rx         0005  4  05 FE 05 F5 
    59)      5807.4  Rx         0005  4  05 FE 05 F4 
    60)      5843.1  Rx         0005  4  05 FF 05 F6 
    61)      5877.1  Rx         0005  4  05 FC 05 F2 
    62)      5911.5  Rx         0005  4  06 01 05 F4 
    63)      5946.2  Rx         0005  4  05 FD 05 F1 
    64)      5979.3  Rx         0005  4  05 FE 05 F3 
    65)      6012.4  Rx         0005  4  05 FB 05 F4 
    66)      6044.8  Rx         0005  4  05 FD 05 F1 
    67)      6078.2  Rx         0005  4  05 FE 05 F3 
    68)      6111.0  Rx         0005  4  06 00 05 F7 
    69)      6537.8  Rx         0005  4  05 FE 05 F6 
    70)      6538.0  Rx         0005  4  05 FF 05 F3 
    71)      6538.3  Rx         0006  2  00 01 
    72)      6771.2  Tx         0202  1  00 
    73)      6771.6  Rx         0006  2  00 01 
    74)      6771.7  Rx         0183  2  01 14 
    75)      6801.7  Rx         0005  4  05 FF 05 F7 
    76)      6836.7  Rx         0005  4  06 00 05 F2 
    77)      6871.1  Rx         0005  4  06 01 05 F4 
    78)      6904.5  Rx         0005  4  05 FF 05 F9 
    79)      6945.5  Rx         0005  4  06 01 05 F3 
    80)      6999.5  Rx         0005  4  05 FD 05 F3 
    81)      7035.0  Rx         0005  4  05 FF 05 F4 
    82)      7074.5  Rx         0005  4  06 01 05 F6 
    83)      7126.7  Rx         0005  4  06 00 05 F5 
    84)      7190.7  Rx         0005  4  05 FD 05 F2 
    85)      7227.4  Rx         0005  4  05 FF 05 F2 
    86)      7527.8  Rx         0005  4  06 00 05 F5 
    87)      7527.9  Rx         0005  4  06 02 05 F3 
    88)      7528.1  Rx         0006  2  00 01 
    89)      7772.3  Tx         0202  1  00 
    90)      7773.5  Rx         0006  2  00 01 
    91)      7777.5  Rx         0005  4  06 01 05 F3 
    92)      7813.6  Rx         0005  4  05 FD 05 F3 
    93)      7823.6  Rx         0183  2  01 14 
    94)      7849.1  Rx         0005  4  06 00 05 F8 
    95)      7883.9  Rx         0005  4  05 FF 05 F7 
    96)      7919.9  Rx         0005  4  05 FE 05 F1 
    97)      7955.1  Rx         0005  4  05 FE 05 F5 
    98)      7987.3  Rx         0005  4  05 FF 05 F3 
    99)      8020.5  Rx         0005  4  05 FE 05 F4 
   100)      8054.7  Rx         0005  4  05 FE 05 F4 
   101)      8090.4  Rx         0005  4  06 01 05 F5 
   102)      8124.3  Rx         0005  4  05 FF 05 F4 
   103)      8470.4  Rx         0005  4  05 FE 05 F0 
   104)      8470.6  Rx         0005  4  05 FE 05 F5 
   105)      8470.7  Rx         0006  2  00 01 
   106)      8771.0  Tx         0202  1  00 
   107)      8771.4  Rx         0183  2  01 14 
   108)      9071.3  Rx         0005  4  06 01 05 F7 
   109)      9071.5  Rx         0005  4  05 FC 05 F5 
   110)      9071.8  Rx         0006  2  00 01 
   111)      9771.1  Tx         0202  1  00 
   112)      9868.2  Rx         0183  2  01 14 
   113)      9961.0  Rx         0005  4  05 FC 05 F4 
   114)      9961.3  Rx         0005  4  06 03 05 F4 
   115)      9961.5  Rx         0006  2  00 01 
   116)     10535.0  Rx         0005  4  05 FE 05 F4 
   117)     10535.2  Rx         0005  4  06 01 05 F7 
   118)     10535.5  Rx         0006  2  00 01 
   119)     10771.4  Tx         0202  1  00 
   120)     10771.8  Rx         0006  2  00 01 
   121)     10771.9  Rx         0183  2  01 14 
   122)     10772.8  Rx         0005  4  06 01 05 F1 
   123)     10806.3  Rx         0005  4  06 05 05 FB 
   124)     10838.7  Rx         0005  4  06 01 05 FA 
   125)     10872.0  Rx         0005  4  05 FF 05 F5 
   126)     10905.0  Rx         0005  4  06 00 05 F6 
   127)     10937.9  Rx         0005  4  06 01 05 F5 
   128)     10971.4  Rx         0005  4  06 02 05 F1 
   129)     11003.6  Rx         0005  4  05 FF 05 F3 
   130)     11059.2  Rx         0005  4  06 00 05 F4 
   131)     11091.6  Rx         0005  4  05 FE 05 F2 
   132)     11404.4  Rx         0005  4  05 FE 05 F2 
   133)     11404.7  Rx         0005  4  05 FE 05 F2 
   134)     11405.0  Rx         0006  2  00 01 
   135)     11771.4  Tx         0202  1  00 
   136)     11771.9  Rx         0183  2  01 14 
   137)     11984.0  Rx         0005  4  05 FC 05 F5 
   138)     11984.2  Rx         0005  4  06 00 05 F9 
   139)     11984.5  Rx         0006  2  00 01 
   140)     12550.8  Rx         0005  4  05 FE 05 F4 
   141)     12551.0  Rx         0005  4  05 FE 05 F2 
   142)     12551.3  Rx         0006  2  00 01 
   143)     12771.2  Tx         0202  1  00 
   144)     12771.5  Rx         0006  2  00 01 
   145)     12771.7  Rx         0183  2  01 14 
   146)     12774.2  Rx         0005  4  05 FE 05 F3 
   147)     12806.9  Rx         0005  4  06 02 05 F5 
   148)     12840.0  Rx         0005  4  06 02 05 F4 
   149)     12872.7  Rx         0005  4  06 01 05 EF 
   150)     12906.1  Rx         0005  4  05 FC 05 F4 
   151)     12938.9  Rx         0005  4  05 FE 05 F2 
   152)     12971.8  Rx         0005  4  05 FF 05 F5 
   153)     13004.5  Rx         0005  4  05 FE 05 F4 
   154)     13037.0  Rx         0005  4  06 03 05 F5 
   155)     13069.5  Rx         0005  4  06 02 05 F4 
   156)     13102.7  Rx         0005  4  06 00 05 F5 
   157)     13503.8  Rx         0005  4  05 FD 05 F5 
   158)     13504.0  Rx         0005  4  05 FE 05 F3 
   159)     13504.2  Rx         0006  2  00 01 
   160)     13771.3  Tx         0202  1  00 
   161)     13771.6  Rx         0183  2  01 14 
   162)     14082.7  Rx         0005  4  05 FE 05 F3 
   163)     14083.0  Rx         0005  4  05 FE 05 EF 
   164)     14083.2  Rx         0006  2  00 01 
   165)     14649.9  Rx         0005  4  05 FD 05 F4 
   166)     14650.1  Rx         0005  4  05 FA 05 F5 
   167)     14650.3  Rx         0006  2  00 01 
   168)     14771.2  Tx         0202  1  00 
   169)     14771.7  Rx         0006  2  00 01 
   170)     14791.8  Rx         0005  4  05 FA 05 F1 
   171)     14824.2  Rx         0005  4  05 FF 05 F8 
   172)     14856.9  Rx         0005  4  06 02 05 F3 
   173)     14858.9  Rx         0183  2  01 14 
   174)     14890.0  Rx         0005  4  05 FE 05 F2 
   175)     14923.4  Rx         0005  4  06 02 05 F5 
   176)     14956.4  Rx         0005  4  05 FE 05 F1 
   177)     14988.9  Rx         0005  4  06 02 05 F6 
   178)     15021.2  Rx         0005  4  05 FD 05 F8 
   179)     15054.4  Rx         0005  4  06 02 05 F4 
   180)     15086.6  Rx         0005  4  05 FF 05 F2 
   181)     15119.8  Rx         0005  4  05 FF 05 F3 
   182)     15448.1  Rx         0005  4  05 FF 05 F5 
   183)     15448.4  Rx         0005  4  05 FE 05 F3 
   184)     15448.7  Rx         0006  2  00 01 
   185)     15771.0  Tx         0202  1  00 
   186)     15771.3  Rx         0183  2  01 14 
   187)     16025.7  Rx         0005  4  05 FF 05 F5 
   188)     16026.0  Rx         0005  4  05 FC 05 F5 
   189)     16026.4  Rx         0006  2  00 01 
   190)     16592.3  Rx         0005  4  05 FD 05 F7 
   191)     16592.5  Rx         0005  4  06 00 05 F7 
   192)     16592.8  Rx         0006  2  00 01 
   193)     16771.4  Tx         0202  1  00 
   194)     16771.8  Rx         0006  2  00 01 
   195)     16771.9  Rx         0183  2  01 14 
   196)     16773.0  Rx         0005  4  06 01 05 F4 
   197)     16805.8  Rx         0005  4  06 01 05 F6 
   198)     16838.3  Rx         0005  4  05 FF 05 F6 
   199)     16871.2  Rx         0005  4  05 FE 05 F4 
   200)     16903.5  Rx         0005  4  06 05 05 F5 
   201)     16936.9  Rx         0005  4  06 03 05 F4 
   202)     16969.6  Rx         0005  4  05 FE 05 F8 
   203)     17002.3  Rx         0005  4  05 FC 05 FC 
   204)     17034.8  Rx         0005  4  05 FF 05 F2 
   205)     17067.6  Rx         0005  4  05 FD 05 F7 
   206)     17100.6  Rx         0005  4  06 01 05 F7 
   207)     17452.3  Rx         0005  4  05 FE 05 F3 
   208)     17452.5  Rx         0005  4  05 FA 05 EF 
   209)     17452.8  Rx         0006  2  00 01 
   210)     17771.5  Tx         0202  1  00 
   211)     17771.8  Rx         0183  2  01 14 
   212)     18029.2  Rx         0005  4  06 01 05 F8 
   213)     18029.4  Rx         0005  4  05 FD 05 F2 
   214)     18029.6  Rx         0006  2  00 01 
   215)     18594.2  Rx         0005  4  06 00 05 F6 
   216)     18594.5  Rx         0005  4  05 FB 05 F3 
   217)     18594.7  Rx         0006  2  00 01 
   218)     18771.1  Tx         0202  1  00 
   219)     18771.5  Rx         0006  2  00 01 
   220)     18771.8  Rx         0183  2  01 14 
   221)     18776.6  Rx         0005  4  05 FE 05 F3 
   222)     18809.9  Rx         0005  4  05 FF 05 F5 
   223)     18842.8  Rx         0005  4  06 00 05 F6 
   224)     18875.4  Rx         0005  4  05 FB 05 F7 
   225)     18908.0  Rx         0005  4  06 02 05 F7 
   226)     18940.1  Rx         0005  4  06 01 05 FB 
   227)     18973.6  Rx         0005  4  05 FF 05 F5 
   228)     19005.7  Rx         0005  4  05 FC 05 F3 
   229)     19039.6  Rx         0005  4  06 02 05 F6 
   230)     19072.0  Rx         0005  4  06 00 05 F5 
   231)     19104.4  Rx         0005  4  06 00 05 F5 
   232)     19466.5  Rx         0005  4  06 00 05 F6 
   233)     19466.8  Rx         0005  4  05 FF 05 F4 
   234)     19467.1  Rx         0006  2  00 01 
   235)     19771.3  Tx         0202  1  00 
   236)     19771.6  Rx         0183  2  01 14 
   237)     20044.8  Rx         0005  4  05 FF 05 F3 
   238)     20045.1  Rx         0005  4  06 02 05 F4 
   239)     20045.3  Rx         0006  2  00 01 
   240)     20611.0  Rx         0005  4  05 FF 05 F3 
   241)     20611.2  Rx         0005  4  05 FE 05 F4 
   242)     20611.4  Rx         0006  2  00 01 
   243)     20771.0  Tx         0202  1  00 
   244)     20771.4  Rx         0006  2  00 01 
   245)     20772.1  Rx         0005  4  05 FC 05 F6 
   246)     20808.6  Rx         0005  4  06 02 05 F6 
   247)     20841.0  Rx         0005  4  05 FD 05 EF 
   248)     20864.1  Rx         0183  2  01 14 
   249)     20874.5  Rx         0005  4  06 00 05 F6 
   250)     20916.5  Rx         0005  4  06 02 05 F3 
   251)     20949.8  Rx         0005  4  06 00 05 F7 
   252)     20982.4  Rx         0005  4  06 00 05 F2 
   253)     21015.0  Rx         0005  4  05 FF 05 F4 
   254)     21048.3  Rx         0005  4  05 FE 05 F4 
   255)     21080.4  Rx         0005  4  06 01 05 F5 
   256)     21113.6  Rx         0005  4  06 00 05 F5 
   257)     21487.0  Rx         0005  4  06 00 05 F4 
   258)     21487.2  Rx         0005  4  05 FA 05 F7 
   259)     21487.3  Rx         0006  2  00 01 
   260)     21771.1  Tx         0202  1  00 
   261)     21771.5  Rx         0183  2  01 14 
   262)     22064.6  Rx         0005  4  05 FD 05 F6 
   263)     22064.7  Rx         0005  4  05 FA 05 EF 
   264)     22064.8  Rx         0006  2  00 01 
   265)     22630.5  Rx         0005  4  05 FD 05 F6 
   266)     22630.8  Rx         0005  4  06 03 05 F5 
   267)     22631.0  Rx         0006  2  00 01 
   268)     22771.3  Tx         0202  1  00 
   269)     22771.7  Rx         0006  2  00 01 
   270)     22801.7  Rx         0005  4  06 01 05 F5 
   271)     22834.7  Rx         0005  4  06 01 05 F4 
   272)     22857.3  Rx         0183  2  01 14 
   273)     22868.0  Rx         0005  4  06 00 05 F7 
   274)     22909.7  Rx         0005  4  06 01 05 F8 
   275)     22943.0  Rx         0005  4  05 FC 05 F2 
   276)     22974.9  Rx         0005  4  05 FD 05 F6 
   277)     23008.0  Rx         0005  4  06 03 05 F5 
   278)     23041.3  Rx         0005  4  06 04 05 F5 
   279)     23073.6  Rx         0005  4  05 FC 05 F3 
   280)     23106.5  Rx         0005  4  05 FD 05 F5 
   281)     23138.7  Rx         0005  4  05 FF 05 F4 
   282)     23417.9  Rx         0005  4  06 00 05 F2 
   283)     23418.3  Rx         0005  4  05 FE 05 F3 
   284)     23418.6  Rx         0006  2  00 01 
   285)     23771.0  Tx         0202  1  00 
   286)     23771.3  Rx         0183  2  01 14 
   287)     24001.1  Rx         0005  4  06 03 05 F7 
   288)     24001.3  Rx         0005  4  05 FC 05 F1 
   289)     24001.5  Rx         0006  2  00 01 
   290)     24771.1  Tx         0202  1  00 
   291)     24771.5  Rx         0183  2  01 14 
   292)     25050.4  Rx         0005  4  05 FD 05 F4 
   293)     25050.6  Rx         0005  4  06 02 05 F5 
   294)     25050.8  Rx         0006  2  00 01 
   295)     25623.0  Rx         0005  4  05 FF 05 F5 
   296)     25623.2  Rx         0005  4  06 01 05 F8 
   297)     25623.4  Rx         0006  2  00 01 
   298)     25771.3  Tx         0202  1  00 
   299)     25771.6  Rx         0006  2  00 01 
   300)     25782.7  Rx         0005  4  05 FD 05 F7 
   301)     25820.2  Rx         0005  4  05 FF 05 F6 
   302)     25853.1  Rx         0005  4  05 FF 05 F6 
   303)     25876.1  Rx         0183  2  01 14 
   304)     25888.5  Rx         0005  4  05 FF 05 F3 
   305)     25928.0  Rx         0005  4  05 FF 05 F2 
   306)     25961.7  Rx         0005  4  05 FE 05 F4 
   307)     25994.0  Rx         0005  4  06 00 05 F2 
   308)     26027.4  Rx         0005  4  05 FE 05 F6 
   309)     26059.5  Rx         0005  4  06 00 05 F3 
   310)     26092.7  Rx         0005  4  06 01 05 F7 
   311)     26125.4  Rx         0005  4  05 FC 05 F5 
   312)     26414.2  Rx         0005  4  05 FF 05 F2 
   313)     26414.4  Rx         0005  4  05 FB 05 F2 
   314)     26414.5  Rx         0006  2  00 01 
   315)     26771.2  Tx         0202  1  00 
   316)     26771.7  Rx         0183  2  01 14 
   317)     26996.0  Rx         0005  4  05 FB 05 F0 
   318)     26996.2  Rx         0005  4  05 FA 05 EF 
   319)     26996.4  Rx         0006  2  00 01 
   320)     27567.3  Rx         0005  4  05 FD 05 F9 
   321)     27567.5  Rx         0005  4  05 FE 05 F3 
   322)     27567.7  Rx         0006  2  00 01 
   323)     27771.2  Tx         0202  1  00 
   324)     27771.5  Rx         0006  2  00 01 
   325)     27771.7  Rx         0183  2  01 14 
   326)     27772.3  Rx         0005  4  06 01 05 F6 
   327)     27805.5  Rx         0005  4  06 00 05 F8 
   328)     27838.4  Rx         0005  4  06 00 05 F2 
   329)     27870.9  Rx         0005  4  06 02 05 F6 
   330)     27903.8  Rx         0005  4  06 02 05 F6 
   331)     27936.6  Rx         0005  4  05 FF 05 F4 
   332)     27969.7  Rx         0005  4  05 FE 05 F0 
   333)     28002.6  Rx         0005  4  06 00 05 F4 
   334)     28035.3  Rx         0005  4  06 00 05 F3 
   335)     28068.2  Rx         0005  4  05 FE 05 F6 
   336)     28101.1  Rx         0005  4  06 03 05 F6 
   337)     28434.4  Rx         0005  4  05 FB 05 F1 
   338)     28434.7  Rx         0005  4  05 FB 05 F3 
   339)     28434.9  Rx         0006  2  00 01 
   340)     28771.4  Tx         0202  1  00 
   341)     28771.7  Rx         0183  2  01 14 
   342)     29015.1  Rx         0005  4  05 FD 05 F2 
   343)     29015.3  Rx         0005  4  05 FD 05 F7 
   344)     29015.5  Rx         0006  2  00 01 
   345)     29587.1  Rx         0005  4  05 FF 05 F6 
   346)     29587.4  Rx         0005  4  05 FE 05 F4 
   347)     29587.7  Rx         0006  2  00 01 
   348)     29771.2  Tx         0202  1  00 
   349)     29771.6  Rx         0006  2  00 01 
   350)     29771.7  Rx         0183  2  01 14 
   351)     29804.0  Rx         0005  4  06 00 05 F5 
   352)     29836.8  Rx         0005  4  05 FE 05 F7 
   353)     29869.8  Rx         0005  4  05 FD 05 F4 
   354)     29902.5  Rx         0005  4  06 06 05 F8 
   355)     29935.4  Rx         0005  4  05 FC 05 F5 
   356)     29968.7  Rx         0005  4  06 00 05 F9 
   357)     30001.0  Rx         0005  4  05 FD 05 F2 
   358)     30034.1  Rx         0005  4  05 FE 05 F2 
   359)     30066.7  Rx         0005  4  06 01 05 F5 
   360)     30099.7  Rx         0005  4  06 00 05 F7 
   361)     30132.8  Rx         0005  4  05 FF 05 EF 
   362)     30463.3  Rx         0005  4  05 FE 05 F4 
   363)     30463.5  Rx         0005  4  05 FE 05 F5 
   364)     30463.8  Rx         0006  2  00 01 
   365)     30772.4  Tx         0202  1  00 
   366)     30773.8  Rx         0183  2  01 14 
   367)     31154.6  Rx         0005  4  06 00 05 F4 
   368)     31154.9  Rx         0005  4  05 FD 05 F3 
   369)     31155.0  Rx         0006  2  00 01 
