;$FILEVERSION=1.1
;$STARTTIME=41711.4558277199
;
;   C:\Documents and Settings\Administrator\Desktop\xvsf.trc
;
;   Start time: 3/13/2014 10:56:23.515.x
;
;   Message Number
;   |         Time Offset (ms)
;   |         |        Type
;   |         |        |        ID (hex)
;   |         |        |        |     Data Length Code
;   |         |        |        |     |   Data Bytes (hex) ...
;   |         |        |        |     |   |
;---+--   ----+----  --+--  ----+---  +  -+ -- -- -- -- -- -- --
     1)        13.9  Rx         0005  4  06 02 05 F8 
     2)        41.2  Rx         0005  4  06 00 05 F4 
     3)        68.8  Rx         0005  4  05 FC 05 F2 
     4)        95.1  Rx         0005  4  06 00 05 F7 
     5)       121.9  Rx         0005  4  05 FF 05 F3 
     6)       148.1  Rx         0005  4  05 FE 05 F5 
     7)       175.1  Rx         0005  4  05 FF 05 F9 
     8)       201.6  Rx         0005  4  05 FE 05 F4 
     9)       227.4  Rx         0005  4  05 FF 05 F8 
    10)       775.6  Rx         0005  4  06 00 05 F7 
    11)       775.8  Rx         0005  4  06 00 05 F6 
    12)       776.1  Rx         0006  2  00 01 
    13)       954.1  Tx         0202  1  00 
    14)       954.5  Rx         0006  2  00 01 
    15)       954.5  Rx         0183  2  01 14 
    16)       979.2  Rx         0005  4  05 FD 05 F3 
    17)      1005.2  Rx         0005  4  05 FC 05 F2 
    18)      1053.4  Rx         0005  4  06 00 05 F6 
    19)      1078.6  Rx         0005  4  06 02 05 F8 
    20)      1104.5  Rx         0005  4  06 01 05 F4 
    21)      1130.1  Rx         0005  4  05 FB 05 F3 
    22)      1154.9  Rx         0005  4  06 00 05 F2 
    23)      1180.4  Rx         0005  4  05 FF 05 F5 
    24)      1206.0  Rx         0005  4  05 FC 05 F1 
    25)      1231.1  Rx         0005  4  06 00 05 F6 
    26)      1675.0  Rx         0005  4  05 FD 05 F2 
    27)      1675.3  Rx         0005  4  05 FD 05 F4 
    28)      1675.5  Rx         0006  2  00 01 
    29)      1954.0  Tx         0202  1  00 
    30)      1954.3  Rx         0183  2  01 14 
    31)      2241.3  Rx         0005  4  06 01 05 F2 
    32)      2241.5  Rx         0005  4  05 FE 05 F5 
    33)      2241.6  Rx         0006  2  00 01 
    34)      2805.9  Rx         0005  4  06 02 05 F8 
    35)      2806.2  Rx         0005  4  06 01 05 F5 
    36)      2806.4  Rx         0006  2  00 01 
    37)      2954.3  Tx         0202  1  00 
    38)      2954.8  Rx         0006  2  00 01 
    39)      2978.4  Rx         0005  4  06 02 05 FA 
    40)      2999.8  Rx         0183  2  01 14 
    41)      3002.4  Rx         0005  4  05 FD 05 F5 
    42)      3026.4  Rx         0005  4  05 FE 05 F0 
    43)      3050.6  Rx         0005  4  05 FD 05 F6 
    44)      3074.0  Rx         0005  4  06 02 05 F8 
    45)      3098.3  Rx         0005  4  05 FD 05 F6 
    46)      3129.6  Rx         0005  4  05 FE 05 F3 
    47)      3160.4  Rx         0005  4  06 00 05 F3 
    48)      3192.3  Rx         0005  4  05 FD 05 F3 
    49)      3223.6  Rx         0005  4  06 01 05 F5 
    50)      3256.1  Rx         0005  4  05 FC 05 EF 
    51)      3614.9  Rx         0005  4  06 00 05 F7 
    52)      3615.1  Rx         0005  4  05 FF 05 F4 
    53)      3615.3  Rx         0006  2  00 01 
    54)      3954.0  Tx         0202  1  00 
    55)      3954.5  Rx         0183  2  01 14 
    56)      4194.4  Rx         0005  4  05 FE 05 F5 
    57)      4194.6  Rx         0005  4  05 FE 05 F3 
    58)      4194.9  Rx         0006  2  00 01 
    59)      4766.3  Rx         0005  4  05 FE 05 F2 
    60)      4766.6  Rx         0005  4  05 FF 05 F5 
    61)      4766.7  Rx         0006  2  00 01 
    62)      4954.1  Tx         0202  1  00 
    63)      4954.4  Rx         0006  2  00 01 
    64)      4954.6  Rx         0183  2  01 14 
    65)      4980.6  Rx         0005  4  06 01 05 F3 
    66)      5013.0  Rx         0005  4  06 00 05 F7 
    67)      5046.0  Rx         0005  4  05 FE 05 EF 
    68)      5079.8  Rx         0005  4  06 04 05 F6 
    69)      5112.3  Rx         0005  4  05 FF 05 F4 
    70)      5146.2  Rx         0005  4  05 FF 05 F3 
    71)      5178.9  Rx         0005  4  06 02 05 F6 
    72)      5212.5  Rx         0005  4  05 FE 05 F2 
    73)      5245.2  Rx         0005  4  06 00 05 F4 
    74)      5278.0  Rx         0005  4  05 FF 05 F5 
    75)      5311.4  Rx         0005  4  06 00 05 F9 
    76)      5645.7  Rx         0005  4  05 FF 05 F6 
    77)      5646.0  Rx         0005  4  05 FD 05 F4 
    78)      5646.1  Rx         0006  2  00 01 
    79)      5954.0  Tx         0202  1  00 
    80)      5954.4  Rx         0183  2  01 14 
    81)      6226.5  Rx         0005  4  05 FC 05 F3 
    82)      6226.7  Rx         0005  4  05 FE 05 F1 
    83)      6226.8  Rx         0006  2  00 01 
    84)      6798.3  Rx         0005  4  06 05 05 FC 
    85)      6798.5  Rx         0005  4  06 02 05 FC 
    86)      6798.8  Rx         0006  2  00 01 
    87)      6953.9  Tx         0202  1  00 
    88)      6954.5  Rx         0006  2  00 01 
    89)      6959.2  Rx         0005  4  06 01 05 F7 
    90)      7023.2  Rx         0005  4  06 00 05 F5 
    91)      7049.9  Rx         0183  2  01 14 
    92)      7057.0  Rx         0005  4  05 FF 05 F4 
    93)      7099.6  Rx         0005  4  06 01 05 F6 
    94)      7133.1  Rx         0005  4  06 01 05 F6 
    95)      7166.3  Rx         0005  4  06 04 05 F4 
    96)      7199.1  Rx         0005  4  06 00 05 F5 
    97)      7232.6  Rx         0005  4  06 02 05 F6 
    98)      7264.2  Rx         0005  4  05 FF 05 F5 
    99)      7297.7  Rx         0005  4  06 02 05 F6 
   100)      7676.0  Rx         0005  4  05 FE 05 F4 
   101)      7676.1  Rx         0005  4  05 FF 05 F8 
   102)      7676.3  Rx         0006  2  00 01 
   103)      7953.9  Tx         0202  1  00 
   104)      7954.2  Rx         0183  2  01 14 
   105)      8257.6  Rx         0005  4  05 FD 05 F4 
   106)      8257.8  Rx         0005  4  06 05 05 F8 
   107)      8258.1  Rx         0006  2  00 01 
   108)      8954.1  Tx         0202  1  00 
   109)      9020.0  Rx         0183  2  01 14 
   110)      9131.0  Rx         0005  4  05 FE 05 F4 
   111)      9131.2  Rx         0005  4  05 FF 05 F3 
   112)      9131.5  Rx         0006  2  00 01 
   113)      9702.6  Rx         0005  4  05 FE 05 F2 
   114)      9702.8  Rx         0005  4  06 01 05 F4 
   115)      9703.0  Rx         0006  2  00 01 
   116)      9954.0  Tx         0202  1  00 
   117)      9954.3  Rx         0006  2  00 01 
   118)      9954.4  Rx         0183  2  01 14 
   119)      9979.8  Rx         0005  4  05 FC 05 F0 
   120)     10013.5  Rx         0005  4  05 F9 05 F4 
   121)     10046.8  Rx         0005  4  05 FD 05 F4 
   122)     10079.6  Rx         0005  4  06 02 05 F4 
   123)     10112.1  Rx         0005  4  06 02 05 F6 
   124)     10145.3  Rx         0005  4  06 01 05 F4 
   125)     10178.1  Rx         0005  4  05 FF 05 F3 
   126)     10211.9  Rx         0005  4  06 00 05 F5 
   127)     10244.8  Rx         0005  4  06 02 05 F4 
   128)     10277.0  Rx         0005  4  05 FE 05 F0 
   129)     10310.4  Rx         0005  4  06 04 05 F9 
   130)     10674.6  Rx         0005  4  06 02 05 F3 
   131)     10674.8  Rx         0005  4  05 FB 05 F1 
   132)     10674.9  Rx         0006  2  00 01 
   133)     10953.9  Tx         0202  1  00 
   134)     10954.2  Rx         0183  2  01 14 
   135)     11256.2  Rx         0005  4  05 FD 05 F5 
   136)     11256.5  Rx         0005  4  06 05 05 FA 
   137)     11256.7  Rx         0006  2  00 01 
   138)     11954.0  Tx         0202  1  00 
   139)     12020.7  Rx         0183  2  01 14 
   140)     12128.9  Rx         0005  4  05 FF 05 F0 
   141)     12129.2  Rx         0005  4  05 FB 05 F1 
   142)     12129.4  Rx         0006  2  00 01 
   143)     12793.6  Rx         0005  4  06 01 05 F6 
   144)     12793.9  Rx         0005  4  05 FE 05 F5 
   145)     12794.2  Rx         0006  2  00 01 
   146)     12953.9  Tx         0202  1  00 
   147)     12954.4  Rx         0006  2  00 01 
   148)     12954.4  Rx         0183  2  01 14 
   149)     12958.4  Rx         0005  4  06 02 05 F3 
   150)     12991.0  Rx         0005  4  05 FF 05 F3 
   151)     13023.7  Rx         0005  4  06 01 05 F5 
   152)     13079.6  Rx         0005  4  05 FE 05 F6 
   153)     13112.4  Rx         0005  4  06 00 05 F5 
   154)     13145.0  Rx         0005  4  05 FF 05 F5 
   155)     13178.1  Rx         0005  4  06 00 05 F4 
   156)     13211.1  Rx         0005  4  05 FE 05 F5 
   157)     13244.3  Rx         0005  4  06 00 05 F6 
   158)     13277.4  Rx         0005  4  06 01 05 F6 
   159)     13310.5  Rx         0005  4  06 00 05 F6 
   160)     13343.2  Rx         0005  4  05 FE 05 F4 
   161)     13375.9  Rx         0005  4  05 FE 05 F3 
   162)     13409.3  Rx         0005  4  05 FF 05 F2 
   163)     13441.8  Rx         0005  4  05 FD 05 F4 
   164)     13475.0  Rx         0005  4  05 FC 05 F5 
   165)     13507.3  Rx         0005  4  05 FC 05 F4 
   166)     13540.9  Rx         0005  4  05 FF 05 F5 
   167)     13574.1  Rx         0005  4  05 FB 05 F4 
   168)     13607.0  Rx         0005  4  05 FF 05 F3 
   169)     13640.2  Rx         0005  4  06 01 05 F6 
   170)     13945.9  Rx         0005  4  06 02 05 F6 
   171)     13946.1  Rx         0005  4  05 FE 05 F8 
   172)     13946.3  Rx         0006  2  00 01 
   173)     13954.2  Tx         0202  1  00 
   174)     13954.6  Rx         0006  2  00 01 
   175)     13994.1  Rx         0005  4  05 FF 05 F7 
   176)     14026.3  Rx         0005  4  06 01 05 F4 
   177)     14059.2  Rx         0005  4  05 FF 05 F7 
   178)     14092.7  Rx         0005  4  05 FD 05 F4 
   179)     14125.8  Rx         0005  4  06 00 05 F3 
   180)     14159.5  Rx         0005  4  05 FF 05 F6 
   181)     14191.9  Rx         0005  4  05 FE 05 F3 
   182)     14225.3  Rx         0005  4  05 FF 05 F6 
   183)     14257.8  Rx         0005  4  05 FE 05 F5 
   184)     14274.8  Rx         0183  2  01 14 
   185)     14301.2  Rx         0005  4  05 FF 05 F4 
   186)     14334.4  Rx         0005  4  05 FB 05 F0 
   187)     14739.5  Rx         0005  4  05 FE 05 F3 
   188)     14739.8  Rx         0005  4  06 03 05 F6 
   189)     14739.9  Rx         0006  2  00 01 
   190)     14953.9  Tx         0202  1  00 
   191)     14954.2  Rx         0006  2  00 01 
   192)     14954.3  Rx         0183  2  01 14 
   193)     14957.2  Rx         0005  4  06 02 05 F8 
   194)     15000.3  Rx         0005  4  05 FF 05 F7 
   195)     15032.7  Rx         0005  4  05 FD 05 F8 
   196)     15065.8  Rx         0005  4  05 FD 05 F1 
   197)     15099.2  Rx         0005  4  05 FE 05 F7 
   198)     15131.6  Rx         0005  4  06 03 05 F7 
   199)     15165.3  Rx         0005  4  05 FC 05 F6 
   200)     15198.1  Rx         0005  4  06 01 05 F8 
   201)     15230.8  Rx         0005  4  06 03 05 F9 
   202)     15264.4  Rx         0005  4  06 02 05 F6 
   203)     15297.0  Rx         0005  4  05 FF 05 F6 
   204)     15740.2  Rx         0005  4  06 00 05 F5 
   205)     15740.5  Rx         0005  4  06 01 05 F5 
   206)     15740.8  Rx         0006  2  00 01 
